date Thu Apr 27 12:43:13.507 AM 2023
base hex  timestamps absolute
internal events logged
Begin Triggerblock Thu Apr 27 12:43:13.482 AM 2023
 0.000000 Start of measurement
 0.000000 1  261             Rx   d 8 01 27 00 1B 1E 00 00 00
 0.001000 1  251             Rx   d 8 00 00 00 00 00 00 00 00
 0.003001 1  252             Rx   d 8 00 00 00 02 00 00 00 00
 0.004999 1  253             Rx   d 8 00 00 00 01 00 00 00 00
 0.007000 1  254             Rx   d 8 00 00 00 03 00 00 00 00
 0.009069 1  241             Rx   d 8 AA 00 00 00 00 00 00 01
 0.011002 1  262             Rx   d 8 01 2A 00 1B 1E 00 00 00
 0.013699 1  221             Rx   d 8 00 00 00 00 00 00 00 00
 0.013945 1  311             Rx   d 8 00 00 00 00 00 00 00 02
 0.021027 1  251             Rx   d 8 00 00 00 00 00 00 00 00
 0.021998 1  263             Rx   d 8 01 27 00 1B 1E 00 00 00
 0.023022 1  252             Rx   d 8 00 00 00 02 00 00 00 00
 0.025024 1  253             Rx   d 8 00 00 00 01 00 00 00 00
 0.027039 1  254             Rx   d 8 00 00 00 03 00 00 00 00
 0.029077 1  241             Rx   d 8 AA 00 00 00 00 00 00 02
 0.033051 1  264             Rx   d 8 01 28 00 1B 1E 00 00 00
 0.033723 1  221             Rx   d 8 00 00 00 00 00 00 00 00
 0.033984 1  311             Rx   d 8 00 00 00 00 00 00 00 02
 0.041054 1  251             Rx   d 8 00 00 00 00 00 00 00 00
 0.043086 1  252             Rx   d 8 00 00 00 02 00 00 00 00
 0.045123 1  253             Rx   d 8 00 00 00 01 00 00 00 00
 0.047050 1  254             Rx   d 8 00 00 00 03 00 00 00 00
 0.049097 1  241             Rx   d 8 AA 00 00 00 00 00 00 03
 0.053727 1  221             Rx   d 8 00 00 00 00 00 00 00 00
 0.053952 1  311             Rx   d 8 00 00 00 00 00 00 00 02
 0.061051 1  251             Rx   d 8 00 00 00 00 00 00 00 00
 0.063078 1  252             Rx   d 8 00 00 00 02 00 00 00 00
 0.065069 1  253             Rx   d 8 00 00 00 01 00 00 00 00
 0.067143 1  254             Rx   d 8 00 00 00 03 00 00 00 00
 0.069147 1  241             Rx   d 8 AA 00 00 00 00 00 00 04
 0.073756 1  221             Rx   d 8 00 00 00 00 00 00 00 00
 0.073985 1  311             Rx   d 8 00 00 00 00 00 00 00 02
 0.081163 1  251             Rx   d 8 00 00 00 00 00 00 00 00
 0.083136 1  252             Rx   d 8 00 00 00 02 00 00 00 00
 0.085108 1  253             Rx   d 8 00 00 00 01 00 00 00 00
 0.087106 1  254             Rx   d 8 00 00 00 03 00 00 00 00
 0.089184 1  241             Rx   d 8 AA 00 00 00 00 00 00 05
 0.093731 1  221             Rx   d 8 00 00 00 00 00 00 00 00
 0.093988 1  311             Rx   d 8 00 00 00 00 00 00 00 02
 0.100110 1  261             Rx   d 8 01 27 00 1B 1E 00 00 00
 0.101130 1  251             Rx   d 8 00 00 00 00 00 00 00 00
 0.103208 1  252             Rx   d 8 00 00 00 02 00 00 00 00
 0.105102 1  253             Rx   d 8 00 00 00 01 00 00 00 00
 0.107133 1  254             Rx   d 8 00 00 00 03 00 00 00 00
 0.109176 1  241             Rx   d 8 AA 00 00 00 00 00 00 06
 0.111125 1  262             Rx   d 8 01 2A 00 1A 1E 00 00 00
 0.113797 1  221             Rx   d 8 00 00 00 00 00 00 00 00
 0.113974 1  311             Rx   d 8 00 00 00 00 00 00 00 02
 0.119242 1  211             Rx   d 8 00 01 01 1E 00 00 00 00
 0.121214 1  251             Rx   d 8 00 00 00 00 00 00 00 00
 0.122185 1  263             Rx   d 8 01 27 00 1B 1E 00 00 00
 0.123210 1  252             Rx   d 8 00 00 00 02 00 00 00 00
 0.125134 1  253             Rx   d 8 00 00 00 01 00 00 00 00
 0.127125 1  254             Rx   d 8 00 00 00 03 00 00 00 00
 0.129204 1  241             Rx   d 8 AA 00 00 00 00 00 00 07
 0.133152 1  264             Rx   d 8 01 28 00 1B 1E 00 00 00
 0.133725 1  221             Rx   d 8 00 00 00 00 00 00 00 00
 0.133981 1  311             Rx   d 8 00 00 00 00 00 00 00 02
 0.141213 1  251             Rx   d 8 00 00 00 00 00 00 00 00
 0.143236 1  252             Rx   d 8 00 00 00 02 00 00 00 00
 0.145236 1  253             Rx   d 8 00 00 00 01 00 00 00 00
 0.147183 1  254             Rx   d 8 00 00 00 03 00 00 00 00
 0.149179 1  241             Rx   d 8 AA 00 00 00 00 00 00 08
 0.153730 1  221             Rx   d 8 00 00 00 00 00 00 00 00
 0.153986 1  311             Rx   d 8 00 00 00 00 00 00 00 02
 0.161237 1  251             Rx   d 8 00 00 00 00 00 00 00 00
 0.163242 1  252             Rx   d 8 00 00 00 02 00 00 00 00
 0.165252 1  253             Rx   d 8 00 00 00 01 00 00 00 00
 0.167281 1  254             Rx   d 8 00 00 00 03 00 00 00 00
 0.169235 1  241             Rx   d 8 AA 00 00 00 00 00 00 09
 0.173741 1  221             Rx   d 8 00 00 00 00 00 00 00 00
 0.173989 1  311             Rx   d 8 00 00 00 00 00 00 00 02
 0.181175 1  251             Rx   d 8 00 00 00 00 00 00 00 00
 0.183264 1  252             Rx   d 8 00 00 00 02 00 00 00 00
 0.185282 1  253             Rx   d 8 00 00 00 01 00 00 00 00
 0.187289 1  254             Rx   d 8 00 00 00 03 00 00 00 00
 0.189399 1  241             Rx   d 8 AA 00 00 00 00 00 00 0A
 0.193805 1  221             Rx   d 8 00 00 00 00 00 00 00 00
 0.193983 1  311             Rx   d 8 00 00 00 00 00 00 00 02
 0.200237 1  261             Rx   d 8 01 27 00 1B 1E 00 00 00
 0.201233 1  251             Rx   d 8 00 00 00 00 00 00 00 00
 0.203289 1  252             Rx   d 8 00 00 00 02 00 00 00 00
 0.205319 1  253             Rx   d 8 00 00 00 01 00 00 00 00
 0.207290 1  254             Rx   d 8 00 00 00 03 00 00 00 00
 0.209356 1  241             Rx   d 8 AA 00 00 00 00 00 00 0B
 0.211278 1  262             Rx   d 8 01 2B 00 1B 1E 00 00 00
 0.213743 1  221             Rx   d 8 00 00 00 00 00 00 00 00
 0.213988 1  311             Rx   d 8 00 00 00 00 00 00 00 02
 0.221262 1  251             Rx   d 8 00 00 00 00 00 00 00 00
 0.222234 1  263             Rx   d 8 01 28 00 1B 1E 00 00 00
 0.223258 1  252             Rx   d 8 00 00 00 02 00 00 00 00
 0.225315 1  253             Rx   d 8 00 00 00 01 00 00 00 00
 0.227225 1  254             Rx   d 8 00 00 00 03 00 00 00 00
 0.229280 1  241             Rx   d 8 AA 00 00 00 00 00 00 0C
 0.233265 1  264             Rx   d 8 01 28 00 1B 1E 00 00 00
 0.233733 1  221             Rx   d 8 00 00 00 00 00 00 00 00
 0.233952 1  311             Rx   d 8 00 00 00 00 00 00 00 02
 0.239309 1  231             Rx   d 8 00 00 00 02 0A 00 00 00
 0.241264 1  251             Rx   d 8 00 00 00 00 00 00 00 00
 0.243285 1  252             Rx   d 8 00 00 00 02 00 00 00 00
 0.245292 1  253             Rx   d 8 00 00 00 01 00 00 00 00
 0.247338 1  254             Rx   d 8 00 00 00 03 00 00 00 00
 0.249339 1  241             Rx   d 8 AA 00 00 00 00 00 00 0D
 0.253757 1  221             Rx   d 8 00 00 00 00 00 00 00 00
 0.253982 1  311             Rx   d 8 00 00 00 00 00 00 00 02
 0.261285 1  251             Rx   d 8 00 00 00 00 00 00 00 00
 0.263283 1  252             Rx   d 8 00 00 00 02 00 00 00 00
 0.265335 1  253             Rx   d 8 00 00 00 01 00 00 00 00
 0.267339 1  254             Rx   d 8 00 00 00 03 00 00 00 00
 0.269347 1  241             Rx   d 8 AA 00 00 00 00 00 00 0E
 0.273736 1  221             Rx   d 8 00 00 00 00 00 00 00 00
 0.273992 1  311             Rx   d 8 00 00 00 00 00 00 00 02
 0.281319 1  251             Rx   d 8 00 00 00 00 00 00 00 00
 0.283306 1  252             Rx   d 8 00 00 00 02 00 00 00 00
 0.285343 1  253             Rx   d 8 00 00 00 01 00 00 00 00
 0.287308 1  254             Rx   d 8 00 00 00 03 00 00 00 00
 0.289345 1  241             Rx   d 8 AA 00 00 00 00 00 00 0F
 0.293829 1  221             Rx   d 8 00 00 00 00 00 00 00 00
 0.294008 1  311             Rx   d 8 00 00 00 00 00 00 00 02
 0.300335 1  261             Rx   d 8 01 27 00 1B 1E 00 00 00
 0.301340 1  251             Rx   d 8 00 00 00 00 00 00 00 00
 0.303334 1  252             Rx   d 8 00 00 00 02 00 00 00 00
 0.305334 1  253             Rx   d 8 00 00 00 01 00 00 00 00
 0.307335 1  254             Rx   d 8 00 00 00 03 00 00 00 00
 0.309379 1  241             Rx   d 8 AA 00 00 00 00 00 00 10
 0.311311 1  262             Rx   d 8 01 2B 00 1B 1E 00 00 00
 0.313766 1  221             Rx   d 8 00 00 00 00 00 00 00 00
 0.314008 1  311             Rx   d 8 00 00 00 00 00 00 00 02
 0.319409 1  211             Rx   d 8 00 01 01 1E 00 00 00 00
 0.321306 1  251             Rx   d 8 00 00 00 00 00 00 00 00
 0.322333 1  263             Rx   d 8 01 27 00 1B 1E 00 00 00
 0.323358 1  252             Rx   d 8 00 00 00 02 00 00 00 00
 0.325357 1  253             Rx   d 8 00 00 00 01 00 00 00 00
 0.327357 1  254             Rx   d 8 00 00 00 03 00 00 00 00
 0.329408 1  241             Rx   d 8 AA 00 00 00 00 00 00 11
 0.333339 1  264             Rx   d 8 01 28 00 1B 1E 00 00 00
 0.333854 1  221             Rx   d 8 00 00 00 00 00 00 00 00
 0.334007 1  311             Rx   d 8 00 00 00 00 00 00 00 02
 0.341360 1  251             Rx   d 8 00 00 00 00 00 00 00 00
 0.343388 1  252             Rx   d 8 00 00 00 02 00 00 00 00
 0.345336 1  253             Rx   d 8 00 00 00 01 00 00 00 00
 0.347383 1  254             Rx   d 8 00 00 00 03 00 00 00 00
 0.349379 1  241             Rx   d 8 AA 00 00 00 00 00 00 12
 0.353736 1  221             Rx   d 8 00 00 00 00 00 00 00 00
 0.354019 1  311             Rx   d 8 00 00 00 00 00 00 00 02
 0.361389 1  251             Rx   d 8 00 00 00 00 00 00 00 00
 0.363391 1  252             Rx   d 8 00 00 00 02 00 00 00 00
 0.365384 1  253             Rx   d 8 00 00 00 01 00 00 00 00
 0.367429 1  254             Rx   d 8 00 00 00 03 00 00 00 00
 0.369458 1  241             Rx   d 8 AA 00 00 00 00 00 00 13
 0.373760 1  221             Rx   d 8 00 00 00 00 00 00 00 00
 0.374010 1  311             Rx   d 8 00 00 00 00 00 00 00 02
 0.381422 1  251             Rx   d 8 00 00 00 00 00 00 00 00
 0.383422 1  252             Rx   d 8 00 00 00 02 00 00 00 00
 0.385410 1  253             Rx   d 8 00 00 00 01 00 00 00 00
 0.387410 1  254             Rx   d 8 00 00 00 03 00 00 00 00
 0.389484 1  241             Rx   d 8 AA 00 00 00 00 00 00 14
 0.393817 1  221             Rx   d 8 00 00 00 00 00 00 00 00
 0.394014 1  311             Rx   d 8 00 00 00 00 00 00 00 02
 0.400469 1  261             Rx   d 8 01 27 00 1B 1E 00 00 00
 0.401439 1  251             Rx   d 8 00 00 00 00 00 00 00 00
 0.403442 1  252             Rx   d 8 00 00 00 02 00 00 00 00
 0.405441 1  253             Rx   d 8 00 00 00 01 00 00 00 00
 0.407450 1  254             Rx   d 8 00 00 00 03 00 00 00 00
 0.409492 1  241             Rx   d 8 AA 00 00 00 00 00 00 15
 0.411442 1  262             Rx   d 8 01 2B 00 1B 1E 00 00 00
 0.413765 1  221             Rx   d 8 00 00 00 00 00 00 00 00
 0.414015 1  311             Rx   d 8 00 00 00 00 00 00 00 02
 0.421524 1  251             Rx   d 8 00 00 00 00 00 00 00 00
 0.422468 1  263             Rx   d 8 01 28 00 1B 1E 00 00 00
 0.423503 1  252             Rx   d 8 00 00 00 02 00 00 00 00
 0.425465 1  253             Rx   d 8 00 00 00 01 00 00 00 00
 0.427464 1  254             Rx   d 8 00 00 00 03 00 00 00 00
 0.429515 1  241             Rx   d 8 AA 00 00 00 00 00 00 16
 0.433466 1  264             Rx   d 8 01 28 00 1B 1E 00 00 00
 0.433762 1  221             Rx   d 8 00 00 00 00 00 00 00 00
 0.434012 1  311             Rx   d 8 00 00 00 00 00 00 00 02
 0.441465 1  251             Rx   d 8 00 00 00 00 00 00 00 00
 0.443491 1  252             Rx   d 8 00 00 00 02 00 00 00 00
 0.445493 1  253             Rx   d 8 00 00 00 01 00 00 00 00
 0.447546 1  254             Rx   d 8 00 00 00 03 00 00 00 00
 0.449539 1  241             Rx   d 8 AA 00 00 00 00 00 00 17
 0.453767 1  221             Rx   d 8 00 00 00 00 00 00 00 00
 0.454014 1  311             Rx   d 8 00 00 00 00 00 00 00 02
 0.461493 1  251             Rx   d 8 00 00 00 00 00 00 00 00
 0.463623 1  252             Rx   d 8 00 00 00 02 00 00 00 00
 0.465524 1  253             Rx   d 8 00 00 00 01 00 00 00 00
 0.467492 1  254             Rx   d 8 00 00 00 03 00 00 00 00
 0.469567 1  241             Rx   d 8 AA 00 00 00 00 00 00 18
 0.473765 1  221             Rx   d 8 00 00 00 00 00 00 00 00
 0.474015 1  311             Rx   d 8 00 00 00 00 00 00 00 02
 0.481588 1  251             Rx   d 8 00 00 00 00 00 00 00 00
 0.483572 1  252             Rx   d 8 00 00 00 02 00 00 00 00
 0.485770 1  253             Rx   d 8 00 00 00 01 00 00 00 00
 0.487529 1  254             Rx   d 8 00 00 00 03 00 00 00 00
 0.489568 1  241             Rx   d 8 AA 00 00 00 00 00 00 19
 0.493766 1  221             Rx   d 8 00 00 00 00 00 00 00 00
 0.494017 1  311             Rx   d 8 00 00 00 00 00 00 00 02
 0.500516 1  261             Rx   d 8 01 27 00 1B 1E 00 00 00
 0.501544 1  251             Rx   d 8 00 00 00 00 00 00 00 00
 0.503594 1  252             Rx   d 8 00 00 00 02 00 00 00 00
 0.505563 1  253             Rx   d 8 00 00 00 01 00 00 00 00
 0.507587 1  254             Rx   d 8 00 00 00 03 00 00 00 00
 0.509550 1  241             Rx   d 8 AA 00 00 00 00 00 00 1A
 0.511555 1  262             Rx   d 8 01 2B 00 1B 1E 00 00 00
 0.513816 1  221             Rx   d 8 00 00 00 00 00 00 00 00
 0.514040 1  311             Rx   d 8 00 00 00 00 00 00 00 02
 0.519599 1  211             Rx   d 8 00 01 01 1E 00 00 00 00
 0.521567 1  251             Rx   d 8 00 00 00 00 00 00 00 00
 0.522608 1  263             Rx   d 8 01 27 00 1B 1E 00 00 00
 0.523596 1  252             Rx   d 8 00 00 00 02 00 00 00 00
 0.525535 1  253             Rx   d 8 00 00 00 01 00 00 00 00
 0.527535 1  254             Rx   d 8 00 00 00 03 00 00 00 00
 0.529558 1  241             Rx   d 8 AA 00 00 00 00 00 00 1B
 0.533534 1  264             Rx   d 8 01 28 00 1B 1E 00 00 00
 0.533784 1  221             Rx   d 8 00 00 00 00 00 00 00 00
 0.534031 1  311             Rx   d 8 00 00 00 00 00 00 00 02
 0.541535 1  251             Rx   d 8 00 00 00 00 00 00 00 00
 0.543533 1  252             Rx   d 8 00 00 00 02 00 00 00 00
 0.545559 1  253             Rx   d 8 00 00 00 01 00 00 00 00
 0.547620 1  254             Rx   d 8 00 00 00 03 00 00 00 00
 0.549618 1  241             Rx   d 8 AA 00 00 00 00 00 00 1C
 0.553817 1  221             Rx   d 8 00 00 00 00 00 00 00 00
 0.554037 1  311             Rx   d 8 00 00 00 00 00 00 00 02
 0.561589 1  251             Rx   d 8 00 00 00 00 00 00 00 00
 0.563673 1  252             Rx   d 8 00 00 00 02 00 00 00 00
 0.565593 1  253             Rx   d 8 00 00 00 01 00 00 00 00
 0.567647 1  254             Rx   d 8 00 00 00 03 00 00 00 00
 0.569669 1  241             Rx   d 8 AA 00 00 00 00 00 00 1D
 0.573818 1  221             Rx   d 8 00 00 00 00 00 00 00 00
 0.574049 1  311             Rx   d 8 00 00 00 00 00 00 00 02
 0.581624 1  251             Rx   d 8 00 00 00 00 00 00 00 00
 0.583671 1  252             Rx   d 8 00 00 00 02 00 00 00 00
 0.585623 1  253             Rx   d 8 00 00 00 01 00 00 00 00
 0.587669 1  254             Rx   d 8 00 00 00 03 00 00 00 00
 0.589618 1  241             Rx   d 8 AA 00 00 00 00 00 00 1E
 0.593056 1  421             Tx   d 1 01
 0.593816 1  221             Rx   d 8 00 00 00 00 00 00 00 00
 0.594037 1  311             Rx   d 8 00 00 00 00 00 00 00 02
 0.600621 1  261             Rx   d 8 01 28 00 1B 1E 00 00 00
 0.601640 1  251             Rx   d 8 00 00 00 00 00 00 00 00
 0.603636 1  252             Rx   d 8 00 00 00 02 00 00 00 00
 0.605666 1  253             Rx   d 8 00 00 00 01 00 00 00 00
 0.607632 1  254             Rx   d 8 00 00 00 03 00 00 00 00
 0.609664 1  241             Rx   d 8 AA 00 00 00 00 00 00 1F
 0.611653 1  262             Rx   d 8 01 2B 00 1B 1E 00 00 00
 0.613802 1  221             Rx   d 8 00 00 00 00 00 00 00 00
 0.614033 1  311             Rx   d 8 00 00 00 00 00 00 00 02
 0.621639 1  251             Rx   d 8 00 00 00 00 00 00 00 00
 0.622635 1  263             Rx   d 8 01 28 00 1B 1E 00 00 00
 0.623660 1  252             Rx   d 8 00 00 00 02 00 00 00 00
 0.625709 1  253             Rx   d 8 00 00 00 01 00 00 00 00
 0.627674 1  254             Rx   d 8 00 00 00 03 00 00 00 00
 0.629720 1  241             Rx   d 8 AA 00 00 00 00 00 00 20
 0.633667 1  264             Rx   d 8 01 28 00 1B 1E 00 00 00
 0.633914 1  221             Rx   d 8 00 00 00 00 00 00 00 00
 0.634168 1  311             Rx   d 8 00 00 00 00 00 00 00 02
 0.641732 1  251             Rx   d 8 00 00 00 00 00 00 00 00
 0.643700 1  252             Rx   d 8 00 00 00 02 00 00 00 00
 0.645692 1  253             Rx   d 8 00 00 00 01 00 00 00 00
 0.647747 1  254             Rx   d 8 00 00 00 03 00 00 00 00
 0.649717 1  241             Rx   d 8 AA 00 00 00 00 00 00 21
 0.653869 1  221             Rx   d 8 00 00 00 00 00 00 00 00
 0.654042 1  311             Rx   d 8 00 00 00 00 00 00 00 02
 0.661695 1  251             Rx   d 8 00 00 00 00 00 00 00 00
 0.663731 1  252             Rx   d 8 00 00 00 02 00 00 00 00
 0.665693 1  253             Rx   d 8 00 00 00 01 00 00 00 00
 0.667693 1  254             Rx   d 8 00 00 00 03 00 00 00 00
 0.669799 1  241             Rx   d 8 AA 00 00 00 00 00 00 22
 0.673844 1  221             Rx   d 8 00 00 00 00 00 00 00 00
 0.674044 1  311             Rx   d 8 00 00 00 00 00 00 00 02
 0.681721 1  251             Rx   d 8 00 00 00 00 00 00 00 00
 0.683722 1  252             Rx   d 8 00 00 00 02 00 00 00 00
 0.685722 1  253             Rx   d 8 00 00 00 01 00 00 00 00
 0.687723 1  254             Rx   d 8 00 00 00 03 00 00 00 00
 0.689873 1  241             Rx   d 8 AA 00 00 00 00 00 00 23
 0.693819 1  221             Rx   d 8 00 00 00 00 00 00 00 00
 0.694057 1  311             Rx   d 8 00 00 00 00 00 00 00 02
 0.700736 1  261             Rx   d 8 01 28 00 1B 1E 00 00 00
 0.701724 1  251             Rx   d 8 00 00 00 00 00 00 00 00
 0.703710 1  252             Rx   d 8 00 00 00 02 00 00 00 00
 0.705711 1  253             Rx   d 8 00 00 00 01 00 00 00 00
 0.707743 1  254             Rx   d 8 00 00 00 03 00 00 00 00
 0.709821 1  241             Rx   d 8 AA 00 00 00 00 00 00 24
 0.711746 1  262             Rx   d 8 01 2B 00 1A 1E 00 00 00
 0.713817 1  221             Rx   d 8 00 00 00 00 00 00 00 00
 0.714065 1  311             Rx   d 8 00 00 00 00 00 00 00 02
 0.719818 1  211             Rx   d 8 00 01 01 1E 00 00 00 00
 0.721766 1  251             Rx   d 8 00 00 00 00 00 00 00 00
 0.722741 1  263             Rx   d 8 01 27 00 1B 1E 00 00 00
 0.723747 1  252             Rx   d 8 00 00 00 02 00 00 00 00
 0.725767 1  253             Rx   d 8 00 00 00 01 00 00 00 00
 0.727768 1  254             Rx   d 8 00 00 00 03 00 00 00 00
 0.729816 1  241             Rx   d 8 AA 00 00 00 00 00 00 25
 0.733767 1  264             Rx   d 8 01 28 00 1B 1E 00 00 00
 0.734017 1  221             Rx   d 8 00 00 00 00 00 00 00 00
 0.734269 1  311             Rx   d 8 00 00 00 00 00 00 00 02
 0.739845 1  231             Rx   d 8 00 00 00 02 0A 00 00 00
 0.741768 1  251             Rx   d 8 00 00 00 00 00 00 00 00
 0.743816 1  252             Rx   d 8 00 00 00 02 00 00 00 00
 0.745817 1  253             Rx   d 8 00 00 00 01 00 00 00 00
 0.747767 1  254             Rx   d 8 00 00 00 03 00 00 00 00
 0.749847 1  241             Rx   d 8 AA 00 00 00 00 00 00 26
 0.753788 1  221             Rx   d 8 00 00 00 00 00 00 00 00
 0.754068 1  311             Rx   d 8 00 00 00 00 00 00 00 02
 0.761818 1  251             Rx   d 8 00 00 00 00 00 00 00 00
 0.763818 1  252             Rx   d 8 00 00 00 02 00 00 00 00
 0.765825 1  253             Rx   d 8 00 00 00 01 00 00 00 00
 0.767827 1  254             Rx   d 8 00 00 00 03 00 00 00 00
 0.769826 1  241             Rx   d 8 AA 00 00 00 00 00 00 27
 0.773875 1  221             Rx   d 8 00 00 00 00 00 00 00 00
 0.774066 1  311             Rx   d 8 00 00 00 00 00 00 00 02
 0.781818 1  251             Rx   d 8 00 00 00 00 00 00 00 00
 0.783818 1  252             Rx   d 8 00 00 00 02 00 00 00 00
 0.785861 1  253             Rx   d 8 00 00 00 01 00 00 00 00
 0.787825 1  254             Rx   d 8 00 00 00 03 00 00 00 00
 0.789863 1  241             Rx   d 8 AA 00 00 00 00 00 00 28
 0.793820 1  221             Rx   d 8 00 00 00 00 00 00 00 00
 0.794066 1  311             Rx   d 8 00 00 00 00 00 00 00 02
 0.800886 1  261             Rx   d 8 01 27 00 1B 1E 00 00 00
 0.801827 1  251             Rx   d 8 00 00 00 00 00 00 00 00
 0.803844 1  252             Rx   d 8 00 00 00 02 00 00 00 00
 0.805845 1  253             Rx   d 8 00 00 00 01 00 00 00 00
 0.807842 1  254             Rx   d 8 00 00 00 03 00 00 00 00
 0.809892 1  241             Rx   d 8 AA 00 00 00 00 00 00 29
 0.811791 1  262             Rx   d 8 01 2B 00 1B 1E 00 00 00
 0.813792 1  221             Rx   d 8 00 00 00 00 00 00 00 00
 0.814038 1  311             Rx   d 8 00 00 00 00 00 00 00 02
 0.821815 1  251             Rx   d 8 00 00 00 00 00 00 00 00
 0.822814 1  263             Rx   d 8 01 28 00 1B 1E 00 00 00
 0.823815 1  252             Rx   d 8 00 00 00 02 00 00 00 00
 0.825839 1  253             Rx   d 8 00 00 00 01 00 00 00 00
 0.827839 1  254             Rx   d 8 00 00 00 03 00 00 00 00
 0.829888 1  241             Rx   d 8 AA 00 00 00 00 00 00 2A
 0.833789 1  221             Rx   d 8 00 00 00 00 00 00 00 00
 0.834036 1  311             Rx   d 8 00 00 00 00 00 00 00 02
 0.834286 1  264             Rx   d 8 01 27 00 1B 1E 00 00 00
 0.841875 1  251             Rx   d 8 00 00 00 00 00 00 00 00
 0.843869 1  252             Rx   d 8 00 00 00 02 00 00 00 00
 0.845842 1  253             Rx   d 8 00 00 00 01 00 00 00 00
 0.847840 1  254             Rx   d 8 00 00 00 03 00 00 00 00
 0.849892 1  241             Rx   d 8 AA 00 00 00 00 00 00 2B
 0.853798 1  221             Rx   d 8 00 00 00 00 00 00 00 00
 0.854038 1  311             Rx   d 8 00 00 00 00 00 00 00 02
 0.861928 1  251             Rx   d 8 00 00 00 00 00 00 00 00
 0.863905 1  252             Rx   d 8 00 00 00 02 00 00 00 00
 0.865873 1  253             Rx   d 8 00 00 00 01 00 00 00 00
 0.867867 1  254             Rx   d 8 00 00 00 03 00 00 00 00
 0.869867 1  241             Rx   d 8 AA 00 00 00 00 00 00 2C
 0.873793 1  221             Rx   d 8 00 00 00 00 00 00 00 00
 0.874040 1  311             Rx   d 8 00 00 00 00 00 00 00 02
 0.881939 1  251             Rx   d 8 00 00 00 00 00 00 00 00
 0.883892 1  252             Rx   d 8 00 00 00 02 00 00 00 00
 0.885906 1  253             Rx   d 8 00 00 00 01 00 00 00 00
 0.887889 1  254             Rx   d 8 00 00 00 03 00 00 00 00
 0.889966 1  241             Rx   d 8 AA 00 00 00 00 00 00 2D
 0.893827 1  221             Rx   d 8 00 00 00 00 00 00 00 00
 0.894041 1  311             Rx   d 8 00 00 00 00 00 00 00 02
 0.900924 1  261             Rx   d 8 01 27 00 1B 1E 00 00 00
 0.901916 1  251             Rx   d 8 00 00 00 00 00 00 00 00
 0.903923 1  252             Rx   d 8 00 00 00 02 00 00 00 00
 0.905916 1  253             Rx   d 8 00 00 00 01 00 00 00 00
 0.907917 1  254             Rx   d 8 00 00 00 03 00 00 00 00
 0.909968 1  241             Rx   d 8 AA 00 00 00 00 00 00 2E
 0.911916 1  262             Rx   d 8 01 2B 00 1B 1E 00 00 00
 0.913792 1  221             Rx   d 8 00 00 00 00 00 00 00 00
 0.914037 1  311             Rx   d 8 00 00 00 00 00 00 00 02
 0.919992 1  211             Rx   d 8 00 01 01 1E 00 00 00 00
 0.921982 1  251             Rx   d 8 00 00 00 00 00 00 00 00
 0.922917 1  263             Rx   d 8 01 27 00 1B 1E 00 00 00
 0.923917 1  252             Rx   d 8 00 00 00 02 00 00 00 00
 0.925942 1  253             Rx   d 8 00 00 00 01 00 00 00 00
 0.927942 1  254             Rx   d 8 00 00 00 03 00 00 00 00
 0.929967 1  241             Rx   d 8 AA 00 00 00 00 00 00 2F
 0.933793 1  221             Rx   d 8 00 00 00 00 00 00 00 00
 0.934040 1  311             Rx   d 8 00 00 00 00 00 00 00 02
 0.934289 1  264             Rx   d 8 01 28 00 1B 1E 00 00 00
 0.941952 1  251             Rx   d 8 00 00 00 00 00 00 00 00
 0.943983 1  252             Rx   d 8 00 00 00 02 00 00 00 00
 0.945978 1  253             Rx   d 8 00 00 00 01 00 00 00 00
 0.947973 1  254             Rx   d 8 00 00 00 03 00 00 00 00
 0.950048 1  241             Rx   d 8 AA 00 00 00 00 00 00 30
 0.953806 1  221             Rx   d 8 00 00 00 00 00 00 00 00
 0.954071 1  311             Rx   d 8 00 00 00 00 00 00 00 02
 0.962001 1  251             Rx   d 8 00 00 00 00 00 00 00 00
 0.964005 1  252             Rx   d 8 00 00 00 02 00 00 00 00
 0.966002 1  253             Rx   d 8 00 00 00 01 00 00 00 00
 0.968007 1  254             Rx   d 8 00 00 00 03 00 00 00 00
 0.970074 1  241             Rx   d 8 AA 00 00 00 00 00 00 31
 0.973826 1  221             Rx   d 8 00 00 00 00 00 00 00 00
 0.974072 1  311             Rx   d 8 00 00 00 00 00 00 00 02
 0.982028 1  251             Rx   d 8 00 00 00 00 00 00 00 00
 0.984024 1  252             Rx   d 8 00 00 00 02 00 00 00 00
 0.986029 1  253             Rx   d 8 00 00 00 01 00 00 00 00
 0.988030 1  254             Rx   d 8 00 00 00 03 00 00 00 00
 0.990036 1  241             Rx   d 8 AA 00 00 00 00 00 00 32
 0.993826 1  221             Rx   d 8 00 00 00 00 00 00 00 00
 0.994072 1  311             Rx   d 8 00 00 00 00 00 00 00 02
 1.001029 1  261             Rx   d 8 01 27 00 1B 1E 00 00 00
 1.002023 1  251             Rx   d 8 00 00 00 00 00 00 00 00
 1.004055 1  252             Rx   d 8 00 00 00 02 00 00 00 00
 1.006049 1  253             Rx   d 8 00 00 00 01 00 00 00 00
 1.008050 1  254             Rx   d 8 00 00 00 03 00 00 00 00
 1.010104 1  241             Rx   d 8 AA 00 00 00 00 00 00 33
 1.012054 1  262             Rx   d 8 01 2B 00 1A 1E 00 00 00
 1.013826 1  221             Rx   d 8 00 00 00 00 00 00 00 00
 1.014072 1  311             Rx   d 8 00 00 00 00 00 00 00 02
 1.022051 1  251             Rx   d 8 00 00 00 00 00 00 00 00
 1.023048 1  263             Rx   d 8 01 27 00 1B 1E 00 00 00
 1.024086 1  252             Rx   d 8 00 00 00 02 00 00 00 00
 1.026078 1  253             Rx   d 8 00 00 00 01 00 00 00 00
 1.028077 1  254             Rx   d 8 00 00 00 03 00 00 00 00
 1.030100 1  241             Rx   d 8 AA 00 00 00 00 00 00 34
 1.033822 1  221             Rx   d 8 00 00 00 00 00 00 00 00
 1.034041 1  311             Rx   d 8 00 00 00 00 00 00 00 02
 1.034289 1  264             Rx   d 8 01 28 00 1B 1E 00 00 00
 1.042082 1  251             Rx   d 8 00 00 00 00 00 00 00 00
 1.044077 1  252             Rx   d 8 00 00 00 02 00 00 00 00
 1.046100 1  253             Rx   d 8 00 00 00 01 00 00 00 00
 1.048105 1  254             Rx   d 8 00 00 00 03 00 00 00 00
 1.050130 1  241             Rx   d 8 AA 00 00 00 00 00 00 35
 1.053859 1  221             Rx   d 8 00 00 00 00 00 00 00 00
 1.054090 1  311             Rx   d 8 00 00 00 00 00 00 00 02
 1.062106 1  251             Rx   d 8 00 00 00 00 00 00 00 00
 1.064106 1  252             Rx   d 8 00 00 00 02 00 00 00 00
 1.066070 1  253             Rx   d 8 00 00 00 01 00 00 00 00
 1.068069 1  254             Rx   d 8 00 00 00 03 00 00 00 00
 1.070177 1  241             Rx   d 8 AA 00 00 00 00 00 00 36
 1.073821 1  221             Rx   d 8 00 00 00 00 00 00 00 00
 1.074067 1  311             Rx   d 8 00 00 00 00 00 00 00 02
 1.082094 1  251             Rx   d 8 00 00 00 00 00 00 00 00
 1.084131 1  252             Rx   d 8 00 00 00 02 00 00 00 00
 1.086130 1  253             Rx   d 8 00 00 00 01 00 00 00 00
 1.088101 1  254             Rx   d 8 00 00 00 03 00 00 00 00
 1.090173 1  241             Rx   d 8 AA 00 00 00 00 00 00 37
 1.093821 1  221             Rx   d 8 00 00 00 00 00 00 00 00
 1.094068 1  311             Rx   d 8 00 00 00 00 00 00 00 02
 1.101099 1  261             Rx   d 8 01 27 00 1B 1E 00 00 00
 1.102159 1  251             Rx   d 8 00 00 00 00 00 00 00 00
 1.104120 1  252             Rx   d 8 00 00 00 02 00 00 00 00
 1.106120 1  253             Rx   d 8 00 00 00 01 00 00 00 00
 1.108120 1  254             Rx   d 8 00 00 00 03 00 00 00 00
 1.110170 1  241             Rx   d 8 AA 00 00 00 00 00 00 38
 1.112122 1  262             Rx   d 8 01 2B 00 1B 1E 00 00 00
 1.113852 1  221             Rx   d 8 00 00 00 00 00 00 00 00
 1.114100 1  311             Rx   d 8 00 00 00 00 00 00 00 02
 1.120123 1  211             Rx   d 8 00 01 01 1E 00 00 00 00
 1.122153 1  251             Rx   d 8 00 00 00 00 00 00 00 00
 1.123151 1  263             Rx   d 8 01 27 00 1B 1E 00 00 00
 1.124130 1  252             Rx   d 8 00 00 00 02 00 00 00 00
 1.126178 1  253             Rx   d 8 00 00 00 01 00 00 00 00
 1.128181 1  254             Rx   d 8 00 00 00 03 00 00 00 00
 1.130198 1  241             Rx   d 8 AA 00 00 00 00 00 00 39
 1.133855 1  221             Rx   d 8 00 00 00 00 00 00 00 00
 1.134099 1  311             Rx   d 8 00 00 00 00 00 00 00 02
 1.134350 1  264             Rx   d 8 01 28 00 1B 1E 00 00 00
 1.142147 1  251             Rx   d 8 00 00 00 00 00 00 00 00
 1.144146 1  252             Rx   d 8 00 00 00 02 00 00 00 00
 1.146145 1  253             Rx   d 8 00 00 00 01 00 00 00 00
 1.148171 1  254             Rx   d 8 00 00 00 03 00 00 00 00
 1.150203 1  241             Rx   d 8 AA 00 00 00 00 00 00 3A
 1.153823 1  221             Rx   d 8 00 00 00 00 00 00 00 00
 1.154069 1  311             Rx   d 8 00 00 00 00 00 00 00 02
 1.162204 1  251             Rx   d 8 00 00 00 00 00 00 00 00
 1.164172 1  252             Rx   d 8 00 00 00 02 00 00 00 00
 1.166172 1  253             Rx   d 8 00 00 00 01 00 00 00 00
 1.168170 1  254             Rx   d 8 00 00 00 03 00 00 00 00
 1.170245 1  241             Rx   d 8 AA 00 00 00 00 00 00 3B
 1.173854 1  221             Rx   d 8 00 00 00 00 00 00 00 00
 1.174069 1  311             Rx   d 8 00 00 00 00 00 00 00 02
 1.182230 1  251             Rx   d 8 00 00 00 00 00 00 00 00
 1.184197 1  252             Rx   d 8 00 00 00 02 00 00 00 00
 1.186198 1  253             Rx   d 8 00 00 00 01 00 00 00 00
 1.188200 1  254             Rx   d 8 00 00 00 03 00 00 00 00
 1.190305 1  241             Rx   d 8 AA 00 00 00 00 00 00 3C
 1.193823 1  221             Rx   d 8 00 00 00 00 00 00 00 00
 1.194070 1  311             Rx   d 8 00 00 00 00 00 00 00 02
 1.201200 1  261             Rx   d 8 01 27 00 1B 1E 00 00 00
 1.202225 1  251             Rx   d 8 00 00 00 00 00 00 00 00
 1.204222 1  252             Rx   d 8 00 00 00 02 00 00 00 00
 1.206222 1  253             Rx   d 8 00 00 00 01 00 00 00 00
 1.208223 1  254             Rx   d 8 00 00 00 03 00 00 00 00
 1.210273 1  241             Rx   d 8 AA 00 00 00 00 00 00 3D
 1.212222 1  262             Rx   d 8 01 2B 00 1A 1E 00 00 00
 1.213822 1  221             Rx   d 8 00 00 00 00 00 00 00 00
 1.214070 1  311             Rx   d 8 00 00 00 00 00 00 00 02
 1.222224 1  251             Rx   d 8 00 00 00 00 00 00 00 00
 1.223224 1  263             Rx   d 8 01 27 00 1B 1E 00 00 00
 1.224221 1  252             Rx   d 8 00 00 00 02 00 00 00 00
 1.226247 1  253             Rx   d 8 00 00 00 01 00 00 00 00
 1.228248 1  254             Rx   d 8 00 00 00 03 00 00 00 00
 1.230248 1  241             Rx   d 8 AA 00 00 00 00 00 00 3E
 1.233824 1  221             Rx   d 8 00 00 00 00 00 00 00 00
 1.234071 1  311             Rx   d 8 00 00 00 00 00 00 00 02
 1.234319 1  264             Rx   d 8 01 28 00 1B 1E 00 00 00
 1.240330 1  231             Rx   d 8 00 00 00 02 1E 00 00 00
 1.242279 1  251             Rx   d 8 00 00 00 00 00 00 00 00
 1.244250 1  252             Rx   d 8 00 00 00 02 00 00 00 00
 1.246273 1  253             Rx   d 8 00 00 00 01 00 00 00 00
 1.248249 1  254             Rx   d 8 00 00 00 03 00 00 00 00
 1.250324 1  241             Rx   d 8 AA 00 00 00 00 00 00 3F
 1.253824 1  221             Rx   d 8 00 00 00 00 00 00 00 00
 1.254071 1  311             Rx   d 8 00 00 00 00 00 00 00 02
 1.262310 1  251             Rx   d 8 00 00 00 00 00 00 00 00
 1.264275 1  252             Rx   d 8 00 00 00 02 00 00 00 00
 1.266274 1  253             Rx   d 8 00 00 00 01 00 00 00 00
 1.268274 1  254             Rx   d 8 00 00 00 03 00 00 00 00
 1.270323 1  241             Rx   d 8 AA 00 00 00 00 00 00 40
 1.273823 1  221             Rx   d 8 00 00 00 00 00 00 00 00
 1.274071 1  311             Rx   d 8 00 00 00 00 00 00 00 02
 1.282341 1  251             Rx   d 8 00 00 00 00 00 00 00 00
 1.284338 1  252             Rx   d 8 00 00 00 02 00 00 00 00
 1.286302 1  253             Rx   d 8 00 00 00 01 00 00 00 00
 1.288333 1  254             Rx   d 8 00 00 00 03 00 00 00 00
 1.290409 1  241             Rx   d 8 AA 00 00 00 00 00 00 41
 1.293882 1  221             Rx   d 8 00 00 00 00 00 00 00 00
 1.294103 1  311             Rx   d 8 00 00 00 00 00 00 00 02
 1.301332 1  261             Rx   d 8 01 27 00 1B 1E 00 00 00
 1.302364 1  251             Rx   d 8 00 00 00 00 00 00 00 00
 1.304362 1  252             Rx   d 8 00 00 00 02 00 00 00 00
 1.306360 1  253             Rx   d 8 00 00 00 01 00 00 00 00
 1.308324 1  254             Rx   d 8 00 00 00 03 00 00 00 00
 1.310350 1  241             Rx   d 8 AA 00 00 00 00 00 00 42
 1.312325 1  262             Rx   d 8 01 2A 00 1A 1E 00 00 00
 1.313849 1  221             Rx   d 8 00 00 00 00 00 00 00 00
 1.314095 1  311             Rx   d 8 00 00 00 00 00 00 00 02
 1.320402 1  211             Rx   d 8 00 01 01 1E 00 00 00 00
 1.322326 1  251             Rx   d 8 00 00 00 00 00 00 00 00
 1.323325 1  263             Rx   d 8 01 27 00 1B 1E 00 00 00
 1.324351 1  252             Rx   d 8 00 00 00 02 00 00 00 00
 1.326350 1  253             Rx   d 8 00 00 00 01 00 00 00 00
 1.328357 1  254             Rx   d 8 00 00 00 03 00 00 00 00
 1.330375 1  241             Rx   d 8 AA 00 00 00 00 00 00 43
 1.333883 1  221             Rx   d 8 00 00 00 00 00 00 00 00
 1.334132 1  311             Rx   d 8 00 00 00 00 00 00 00 02
 1.334378 1  264             Rx   d 8 01 28 00 1B 1E 00 00 00
 1.342382 1  251             Rx   d 8 00 00 00 00 00 00 00 00
 1.344366 1  252             Rx   d 8 00 00 00 02 00 00 00 00
 1.346384 1  253             Rx   d 8 00 00 00 01 00 00 00 00
 1.348389 1  254             Rx   d 8 00 00 00 03 00 00 00 00
 1.350441 1  241             Rx   d 8 AA 00 00 00 00 00 00 44
 1.353828 1  221             Rx   d 8 00 00 00 00 00 00 00 00
 1.354098 1  311             Rx   d 8 00 00 00 00 00 00 00 02
 1.362385 1  251             Rx   d 8 00 00 00 00 00 00 00 00
 1.364406 1  252             Rx   d 8 00 00 00 02 00 00 00 00
 1.366377 1  253             Rx   d 8 00 00 00 01 00 00 00 00
 1.368376 1  254             Rx   d 8 00 00 00 03 00 00 00 00
 1.370462 1  241             Rx   d 8 AA 00 00 00 00 00 00 45
 1.373852 1  221             Rx   d 8 00 00 00 00 00 00 00 00
 1.374099 1  311             Rx   d 8 00 00 00 00 00 00 00 02
 1.382403 1  251             Rx   d 8 00 00 00 00 00 00 00 00
 1.384402 1  252             Rx   d 8 00 00 00 02 00 00 00 00
 1.386442 1  253             Rx   d 8 00 00 00 01 00 00 00 00
 1.388413 1  254             Rx   d 8 00 00 00 03 00 00 00 00
 1.390453 1  241             Rx   d 8 AA 00 00 00 00 00 00 46
 1.393852 1  221             Rx   d 8 00 00 00 00 00 00 00 00
 1.394099 1  311             Rx   d 8 00 00 00 00 00 00 00 02
 1.401402 1  261             Rx   d 8 01 27 00 1B 1E 00 00 00
 1.402428 1  251             Rx   d 8 00 00 00 00 00 00 00 00
 1.404428 1  252             Rx   d 8 00 00 00 02 00 00 00 00
 1.406465 1  253             Rx   d 8 00 00 00 01 00 00 00 00
 1.408427 1  254             Rx   d 8 00 00 00 03 00 00 00 00
 1.410452 1  241             Rx   d 8 AA 00 00 00 00 00 00 47
 1.412402 1  262             Rx   d 8 01 2B 00 1A 1E 00 00 00
 1.413853 1  221             Rx   d 8 00 00 00 00 00 00 00 00
 1.414101 1  311             Rx   d 8 00 00 00 00 00 00 00 02
 1.422498 1  251             Rx   d 8 00 00 00 00 00 00 00 00
 1.423429 1  263             Rx   d 8 01 27 00 1B 1E 00 00 00
 1.424453 1  252             Rx   d 8 00 00 00 02 00 00 00 00
 1.426428 1  253             Rx   d 8 00 00 00 01 00 00 00 00
 1.428452 1  254             Rx   d 8 00 00 00 03 00 00 00 00
 1.430478 1  241             Rx   d 8 AA 00 00 00 00 00 00 48
 1.433855 1  221             Rx   d 8 00 00 00 00 00 00 00 00
 1.434102 1  311             Rx   d 8 00 00 00 00 00 00 00 02
 1.434450 1  264             Rx   d 8 01 28 00 1B 1E 00 00 00
 1.442484 1  251             Rx   d 8 00 00 00 00 00 00 00 00
 1.444455 1  252             Rx   d 8 00 00 00 02 00 00 00 00
 1.446455 1  253             Rx   d 8 00 00 00 01 00 00 00 00
 1.448455 1  254             Rx   d 8 00 00 00 03 00 00 00 00
 1.450488 1  241             Rx   d 8 AA 00 00 00 00 00 00 49
 1.453885 1  221             Rx   d 8 00 00 00 00 00 00 00 00
 1.454133 1  311             Rx   d 8 00 00 00 00 00 00 00 02
 1.462511 1  251             Rx   d 8 00 00 00 00 00 00 00 00
 1.464511 1  252             Rx   d 8 00 00 00 02 00 00 00 00
 1.466510 1  253             Rx   d 8 00 00 00 01 00 00 00 00
 1.468511 1  254             Rx   d 8 00 00 00 03 00 00 00 00
 1.470589 1  241             Rx   d 8 AA 00 00 00 00 00 00 4A
 1.473889 1  221             Rx   d 8 00 00 00 00 00 00 00 00
 1.474132 1  311             Rx   d 8 00 00 00 00 00 00 00 02
 1.482511 1  251             Rx   d 8 00 00 00 00 00 00 00 00
 1.484536 1  252             Rx   d 8 00 00 00 02 00 00 00 00
 1.486540 1  253             Rx   d 8 00 00 00 01 00 00 00 00
 1.488536 1  254             Rx   d 8 00 00 00 03 00 00 00 00
 1.490587 1  241             Rx   d 8 AA 00 00 00 00 00 00 4B
 1.493886 1  221             Rx   d 8 00 00 00 00 00 00 00 00
 1.494136 1  311             Rx   d 8 00 00 00 00 00 00 00 02
 1.501506 1  261             Rx   d 8 01 27 00 1B 1E 00 00 00
 1.502539 1  251             Rx   d 8 00 00 00 00 00 00 00 00
 1.504536 1  252             Rx   d 8 00 00 00 02 00 00 00 00
 1.506561 1  253             Rx   d 8 00 00 00 01 00 00 00 00
 1.508563 1  254             Rx   d 8 00 00 00 03 00 00 00 00
 1.510620 1  241             Rx   d 8 AA 00 00 00 00 00 00 4C
 1.512537 1  262             Rx   d 8 01 2A 00 1B 1E 00 00 00
 1.513889 1  221             Rx   d 8 00 00 00 00 00 00 00 00
 1.514158 1  311             Rx   d 8 00 00 00 00 00 00 00 02
 1.520641 1  211             Rx   d 8 00 01 01 1E 00 00 00 00
 1.522559 1  251             Rx   d 8 00 00 00 00 00 00 00 00
 1.523553 1  263             Rx   d 8 01 27 00 1B 1E 00 00 00
 1.524564 1  252             Rx   d 8 00 00 00 02 00 00 00 00
 1.526557 1  253             Rx   d 8 00 00 00 01 00 00 00 00
 1.528563 1  254             Rx   d 8 00 00 00 03 00 00 00 00
 1.530584 1  241             Rx   d 8 AA 00 00 00 00 00 00 4D
 1.533920 1  221             Rx   d 8 00 00 00 00 00 00 00 00
 1.534158 1  311             Rx   d 8 00 00 00 00 00 00 00 02
 1.534588 1  264             Rx   d 8 01 28 00 1B 1E 00 00 00
 1.542591 1  251             Rx   d 8 00 00 00 00 00 00 00 00
 1.544592 1  252             Rx   d 8 00 00 00 02 00 00 00 00
 1.546592 1  253             Rx   d 8 00 00 00 01 00 00 00 00
 1.548575 1  254             Rx   d 8 00 00 00 03 00 00 00 00
 1.550586 1  241             Rx   d 8 AA 00 00 00 00 00 00 4E
 1.553885 1  221             Rx   d 8 00 00 00 00 00 00 00 00
 1.554163 1  311             Rx   d 8 00 00 00 00 00 00 00 02
 1.562623 1  251             Rx   d 8 00 00 00 00 00 00 00 00
 1.564618 1  252             Rx   d 8 00 00 00 02 00 00 00 00
 1.566620 1  253             Rx   d 8 00 00 00 01 00 00 00 00
 1.568618 1  254             Rx   d 8 00 00 00 03 00 00 00 00
 1.570669 1  241             Rx   d 8 AA 00 00 00 00 00 00 4F
 1.573898 1  221             Rx   d 8 00 00 00 00 00 00 00 00
 1.574144 1  311             Rx   d 8 00 00 00 00 00 00 00 02
 1.582610 1  251             Rx   d 8 00 00 00 00 00 00 00 00
 1.584608 1  252             Rx   d 8 00 00 00 02 00 00 00 00
 1.586610 1  253             Rx   d 8 00 00 00 01 00 00 00 00
 1.588639 1  254             Rx   d 8 00 00 00 03 00 00 00 00
 1.590718 1  241             Rx   d 8 AA 00 00 00 00 00 00 50
 1.593919 1  221             Rx   d 8 00 00 00 00 00 00 00 00
 1.594167 1  311             Rx   d 8 00 00 00 00 00 00 00 02
 1.601640 1  261             Rx   d 8 01 27 00 1B 1E 00 00 00
 1.602643 1  251             Rx   d 8 00 00 00 00 00 00 00 00
 1.604609 1  252             Rx   d 8 00 00 00 02 00 00 00 00
 1.606643 1  253             Rx   d 8 00 00 00 01 00 00 00 00
 1.608663 1  254             Rx   d 8 00 00 00 03 00 00 00 00
 1.610689 1  241             Rx   d 8 AA 00 00 00 00 00 00 51
 1.612640 1  262             Rx   d 8 01 2B 00 1B 1E 00 00 00
 1.613902 1  221             Rx   d 8 00 00 00 00 00 00 00 00
 1.614162 1  311             Rx   d 8 00 00 00 00 00 00 00 02
 1.622640 1  251             Rx   d 8 00 00 00 00 00 00 00 00
 1.623664 1  263             Rx   d 8 01 27 00 1B 1E 00 00 00
 1.624632 1  252             Rx   d 8 00 00 00 02 00 00 00 00
 1.626657 1  253             Rx   d 8 00 00 00 01 00 00 00 00
 1.628631 1  254             Rx   d 8 00 00 00 03 00 00 00 00
 1.630707 1  241             Rx   d 8 AA 00 00 00 00 00 00 52
 1.633883 1  221             Rx   d 8 00 00 00 00 00 00 00 00
 1.634131 1  311             Rx   d 8 00 00 00 00 00 00 00 02
 1.634654 1  264             Rx   d 8 01 28 00 1B 1E 00 00 00
 1.642691 1  251             Rx   d 8 00 00 00 00 00 00 00 00
 1.644659 1  252             Rx   d 8 00 00 00 02 00 00 00 00
 1.646660 1  253             Rx   d 8 00 00 00 01 00 00 00 00
 1.648657 1  254             Rx   d 8 00 00 00 03 00 00 00 00
 1.650734 1  241             Rx   d 8 AA 00 00 00 00 00 00 53
 1.653917 1  221             Rx   d 8 00 00 00 00 00 00 00 00
 1.654172 1  311             Rx   d 8 00 00 00 00 00 00 00 02
 1.662712 1  251             Rx   d 8 00 00 00 00 00 00 00 00
 1.664711 1  252             Rx   d 8 00 00 00 02 00 00 00 00
 1.666708 1  253             Rx   d 8 00 00 00 01 00 00 00 00
 1.668716 1  254             Rx   d 8 00 00 00 03 00 00 00 00
 1.670715 1  241             Rx   d 8 AA 00 00 00 00 00 00 54
 1.673914 1  221             Rx   d 8 00 00 00 00 00 00 00 00
 1.674161 1  311             Rx   d 8 00 00 00 00 00 00 00 02
 1.682740 1  251             Rx   d 8 00 00 00 00 00 00 00 00
 1.684740 1  252             Rx   d 8 00 00 00 02 00 00 00 00
 1.686743 1  253             Rx   d 8 00 00 00 01 00 00 00 00
 1.688710 1  254             Rx   d 8 00 00 00 03 00 00 00 00
 1.690842 1  241             Rx   d 8 AA 00 00 00 00 00 00 55
 1.693916 1  221             Rx   d 8 00 00 00 00 00 00 00 00
 1.694163 1  311             Rx   d 8 00 00 00 00 00 00 00 02
 1.701749 1  261             Rx   d 8 01 27 00 1B 1E 00 00 00
 1.702744 1  251             Rx   d 8 00 00 00 00 00 00 00 00
 1.704743 1  252             Rx   d 8 00 00 00 02 00 00 00 00
 1.706792 1  253             Rx   d 8 00 00 00 01 00 00 00 00
 1.708772 1  254             Rx   d 8 00 00 00 03 00 00 00 00
 1.710843 1  241             Rx   d 8 AA 00 00 00 00 00 00 56
 1.712744 1  262             Rx   d 8 01 2A 00 1A 1E 00 00 00
 1.713917 1  221             Rx   d 8 00 00 00 00 00 00 00 00
 1.714167 1  311             Rx   d 8 00 00 00 00 00 00 00 02
 1.720775 1  211             Rx   d 8 00 01 01 1E 00 00 00 00
 1.722769 1  251             Rx   d 8 00 00 00 00 00 00 00 00
 1.723766 1  263             Rx   d 8 01 27 00 1B 1E 00 00 00
 1.724770 1  252             Rx   d 8 00 00 00 02 00 00 00 00
 1.726772 1  253             Rx   d 8 00 00 00 01 00 00 00 00
 1.728771 1  254             Rx   d 8 00 00 00 03 00 00 00 00
 1.730845 1  241             Rx   d 8 AA 00 00 00 00 00 00 57
 1.733924 1  221             Rx   d 8 00 00 00 00 00 00 00 00
 1.734168 1  311             Rx   d 8 00 00 00 00 00 00 00 02
 1.734799 1  264             Rx   d 8 01 28 00 1B 1E 00 00 00
 1.740851 1  231             Rx   d 8 00 00 00 02 32 00 00 00
 1.742844 1  251             Rx   d 8 00 00 00 00 00 00 00 00
 1.744801 1  252             Rx   d 8 00 00 00 02 00 00 00 00
 1.746796 1  253             Rx   d 8 00 00 00 01 00 00 00 00
 1.748846 1  254             Rx   d 8 00 00 00 03 00 00 00 00
 1.750848 1  241             Rx   d 8 AA 00 00 00 00 00 00 58
 1.753904 1  221             Rx   d 8 00 00 00 00 00 00 00 00
 1.754168 1  311             Rx   d 8 00 00 00 00 00 00 00 02
 1.762848 1  251             Rx   d 8 00 00 00 00 00 00 00 00
 1.764876 1  252             Rx   d 8 00 00 00 02 00 00 00 00
 1.766847 1  253             Rx   d 8 00 00 00 01 00 00 00 00
 1.768846 1  254             Rx   d 8 00 00 00 03 00 00 00 00
 1.770871 1  241             Rx   d 8 AA 00 00 00 00 00 00 59
 1.773921 1  221             Rx   d 8 00 00 00 00 00 00 00 00
 1.774169 1  311             Rx   d 8 00 00 00 00 00 00 00 02
 1.782848 1  251             Rx   d 8 00 00 00 00 00 00 00 00
 1.784850 1  252             Rx   d 8 00 00 00 02 00 00 00 00
 1.786855 1  253             Rx   d 8 00 00 00 01 00 00 00 00
 1.788812 1  254             Rx   d 8 00 00 00 03 00 00 00 00
 1.790933 1  241             Rx   d 8 AA 00 00 00 00 00 00 5A
 1.793888 1  221             Rx   d 8 00 00 00 00 00 00 00 00
 1.794134 1  311             Rx   d 8 00 00 00 00 00 00 00 02
 1.801843 1  261             Rx   d 8 01 27 00 1B 1E 00 00 00
 1.802841 1  251             Rx   d 8 00 00 00 00 00 00 00 00
 1.804866 1  252             Rx   d 8 00 00 00 02 00 00 00 00
 1.806868 1  253             Rx   d 8 00 00 00 01 00 00 00 00
 1.808868 1  254             Rx   d 8 00 00 00 03 00 00 00 00
 1.810906 1  241             Rx   d 8 AA 00 00 00 00 00 00 5B
 1.812876 1  262             Rx   d 8 01 2B 00 1B 1E 00 00 00
 1.813917 1  221             Rx   d 8 00 00 00 00 00 00 00 00
 1.814157 1  311             Rx   d 8 00 00 00 00 00 00 00 02
 1.822873 1  251             Rx   d 8 00 00 00 00 00 00 00 00
 1.823870 1  263             Rx   d 8 01 27 00 1B 1E 00 00 00
 1.824872 1  252             Rx   d 8 00 00 00 02 00 00 00 00
 1.826873 1  253             Rx   d 8 00 00 00 01 00 00 00 00
 1.828882 1  254             Rx   d 8 00 00 00 03 00 00 00 00
 1.830898 1  241             Rx   d 8 AA 00 00 00 00 00 00 5C
 1.833952 1  221             Rx   d 8 00 00 00 00 00 00 00 00
 1.834139 1  311             Rx   d 8 00 00 00 00 00 00 00 02
 1.834839 1  264             Rx   d 8 01 28 00 1B 1E 00 00 00
 1.842865 1  251             Rx   d 8 00 00 00 00 00 00 00 00
 1.844864 1  252             Rx   d 8 00 00 00 02 00 00 00 00
 1.846894 1  253             Rx   d 8 00 00 00 01 00 00 00 00
 1.848891 1  254             Rx   d 8 00 00 00 03 00 00 00 00
 1.850943 1  241             Rx   d 8 AA 00 00 00 00 00 00 5D
 1.853916 1  221             Rx   d 8 00 00 00 00 00 00 00 00
 1.854154 1  311             Rx   d 8 00 00 00 00 00 00 00 02
 1.862964 1  251             Rx   d 8 00 00 00 00 00 00 00 00
 1.864929 1  252             Rx   d 8 00 00 00 02 00 00 00 00
 1.866923 1  253             Rx   d 8 00 00 00 01 00 00 00 00
 1.868910 1  254             Rx   d 8 00 00 00 03 00 00 00 00
 1.871046 1  241             Rx   d 8 AA 00 00 00 00 00 00 5E
 1.873946 1  221             Rx   d 8 00 00 00 00 00 00 00 00
 1.874189 1  311             Rx   d 8 00 00 00 00 00 00 00 02
 1.882953 1  251             Rx   d 8 00 00 00 00 00 00 00 00
 1.884948 1  252             Rx   d 8 00 00 00 02 00 00 00 00
 1.886945 1  253             Rx   d 8 00 00 00 01 00 00 00 00
 1.888915 1  254             Rx   d 8 00 00 00 03 00 00 00 00
 1.891052 1  241             Rx   d 8 AA 00 00 00 00 00 00 5F
 1.893919 1  221             Rx   d 8 00 00 00 00 00 00 00 00
 1.894194 1  311             Rx   d 8 00 00 00 00 00 00 00 02
 1.901946 1  261             Rx   d 8 01 27 00 1B 1E 00 00 00
 1.902943 1  251             Rx   d 8 00 00 00 00 00 00 00 00
 1.904965 1  252             Rx   d 8 00 00 00 02 00 00 00 00
 1.906944 1  253             Rx   d 8 00 00 00 01 00 00 00 00
 1.908986 1  254             Rx   d 8 00 00 00 03 00 00 00 00
 1.910991 1  241             Rx   d 8 AA 00 00 00 00 00 00 60
 1.912947 1  262             Rx   d 8 01 2B 00 1A 1E 00 00 00
 1.913916 1  221             Rx   d 8 00 00 00 00 00 00 00 00
 1.914182 1  311             Rx   d 8 00 00 00 00 00 00 00 02
 1.921043 1  211             Rx   d 8 00 01 01 1E 00 00 00 00
 1.922973 1  251             Rx   d 8 00 00 00 00 00 00 00 00
 1.923970 1  263             Rx   d 8 01 27 00 1B 1E 00 00 00
 1.924939 1  252             Rx   d 8 00 00 00 02 00 00 00 00
 1.926939 1  253             Rx   d 8 00 00 00 01 00 00 00 00
 1.928940 1  254             Rx   d 8 00 00 00 02 00 00 00 00
 1.931022 1  241             Rx   d 8 AA 00 00 00 00 00 00 61
 1.933916 1  221             Rx   d 8 00 00 00 00 00 00 00 00
 1.934161 1  311             Rx   d 8 00 00 00 00 00 00 00 02
 1.934940 1  264             Rx   d 8 01 28 00 1B 1E 00 00 00
 1.943000 1  251             Rx   d 8 00 00 00 00 00 00 00 00
 1.944968 1  252             Rx   d 8 00 00 00 02 00 00 00 00
 1.947003 1  253             Rx   d 8 00 00 00 01 00 00 00 00
 1.949002 1  254             Rx   d 8 00 00 00 02 00 00 00 00
 1.951049 1  241             Rx   d 8 AA 00 00 00 00 00 00 62
 1.953951 1  221             Rx   d 8 00 00 00 00 00 00 00 00
 1.954201 1  311             Rx   d 8 00 00 00 00 00 00 00 02
 1.963025 1  251             Rx   d 8 00 00 00 00 00 00 00 00
 1.965013 1  252             Rx   d 8 00 00 00 02 00 00 00 00
 1.967023 1  253             Rx   d 8 00 00 00 01 00 00 00 00
 1.969031 1  254             Rx   d 8 00 00 00 03 00 00 00 00
 1.971046 1  241             Rx   d 8 AA 00 00 00 00 00 00 63
 1.973945 1  221             Rx   d 8 00 00 00 00 00 00 00 00
 1.974163 1  311             Rx   d 8 00 00 00 00 00 00 00 02
 1.983022 1  251             Rx   d 8 00 00 00 00 00 00 00 00
 1.985023 1  252             Rx   d 8 00 00 00 02 00 00 00 00
 1.987023 1  253             Rx   d 8 00 00 00 01 00 00 00 00
 1.989022 1  254             Rx   d 8 00 00 00 03 00 00 00 00
 1.991042 1  241             Rx   d 8 AA 00 00 00 00 00 00 64
 1.993934 1  221             Rx   d 8 00 00 00 00 00 00 00 00
 1.994168 1  311             Rx   d 8 00 00 00 00 00 00 00 02
 2.002052 1  261             Rx   d 8 01 27 00 1B 1E 00 00 00
 2.003046 1  251             Rx   d 8 00 00 00 00 00 00 00 00
 2.005054 1  252             Rx   d 8 00 00 00 02 00 00 00 00
 2.007024 1  253             Rx   d 8 00 00 00 01 00 00 00 00
 2.009043 1  254             Rx   d 8 00 00 00 03 00 00 00 00
 2.011090 1  241             Rx   d 8 AA 00 00 00 00 00 00 65
 2.013072 1  262             Rx   d 8 01 2A 00 1A 1E 00 00 00
 2.013920 1  221             Rx   d 8 00 00 00 00 00 00 00 00
 2.014166 1  311             Rx   d 8 00 00 00 00 00 00 00 02
 2.023094 1  251             Rx   d 8 00 00 00 00 00 00 00 00
 2.024080 1  263             Rx   d 8 01 27 00 1B 1E 00 00 00
 2.025065 1  252             Rx   d 8 00 00 00 02 00 00 00 00
 2.027072 1  253             Rx   d 8 00 00 00 01 00 00 00 00
 2.029073 1  254             Rx   d 8 00 00 00 03 00 00 00 00
 2.031125 1  241             Rx   d 8 AA 00 00 00 00 00 00 66
 2.033950 1  221             Rx   d 8 00 00 00 00 00 00 00 00
 2.034195 1  311             Rx   d 8 00 00 00 00 00 00 00 02
 2.035078 1  264             Rx   d 8 01 28 00 1B 1E 00 00 00
 2.043071 1  251             Rx   d 8 00 00 00 00 00 00 00 00
 2.045070 1  252             Rx   d 8 00 00 00 02 00 00 00 00
 2.047099 1  253             Rx   d 8 00 00 00 01 00 00 00 00
 2.049105 1  254             Rx   d 8 00 00 00 03 00 00 00 00
 2.051146 1  241             Rx   d 8 AA 00 00 00 00 00 00 67
 2.053950 1  221             Rx   d 8 00 00 00 00 00 00 00 00
 2.054197 1  311             Rx   d 8 00 00 00 00 00 00 00 02
 2.063128 1  251             Rx   d 8 00 00 00 00 00 00 00 00
 2.065126 1  252             Rx   d 8 00 00 00 02 00 00 00 00
 2.067095 1  253             Rx   d 8 00 00 00 01 00 00 00 00
 2.069096 1  254             Rx   d 8 00 00 00 03 00 00 00 00
 2.071247 1  241             Rx   d 8 AA 00 00 00 00 00 00 68
 2.073954 1  221             Rx   d 8 00 00 00 00 00 00 00 00
 2.074195 1  311             Rx   d 8 00 00 00 00 00 00 00 02
 2.083094 1  251             Rx   d 8 00 00 00 00 00 00 00 00
 2.085191 1  252             Rx   d 8 00 00 00 02 00 00 00 00
 2.087121 1  253             Rx   d 8 00 00 00 01 00 00 00 00
 2.089122 1  254             Rx   d 8 00 00 00 03 00 00 00 00
 2.091197 1  241             Rx   d 8 AA 00 00 00 00 00 00 69
 2.093948 1  221             Rx   d 8 00 00 00 00 00 00 00 00
 2.094167 1  311             Rx   d 8 00 00 00 00 00 00 00 02
 2.102198 1  261             Rx   d 8 01 27 00 1B 1E 00 00 00
 2.103209 1  251             Rx   d 8 00 00 00 00 00 00 00 00
 2.105208 1  252             Rx   d 8 00 00 00 02 00 00 00 00
 2.107177 1  253             Rx   d 8 00 00 00 01 00 00 00 00
 2.109186 1  254             Rx   d 8 00 00 00 03 00 00 00 00
 2.111201 1  241             Rx   d 8 AA 00 00 00 00 00 00 6A
 2.113126 1  262             Rx   d 8 01 2A 00 1B 1E 00 00 00
 2.113969 1  221             Rx   d 8 00 00 00 00 00 00 00 00
 2.114192 1  311             Rx   d 8 00 00 00 00 00 00 00 02
 2.121217 1  211             Rx   d 8 00 01 01 1E 00 00 00 00
 2.123250 1  251             Rx   d 8 00 00 00 00 00 00 00 00
 2.124174 1  263             Rx   d 8 01 27 00 1B 1E 00 00 00
 2.125168 1  252             Rx   d 8 00 00 00 02 00 00 00 00
 2.127179 1  253             Rx   d 8 00 00 00 01 00 00 00 00
 2.129213 1  254             Rx   d 8 00 00 00 03 00 00 00 00
 2.131230 1  241             Rx   d 8 AA 00 00 00 00 00 00 6B
 2.133974 1  221             Rx   d 8 00 00 00 00 00 00 00 00
 2.134192 1  311             Rx   d 8 00 00 00 00 00 00 00 02
 2.135171 1  264             Rx   d 8 01 28 00 1B 1E 00 00 00
 2.143174 1  251             Rx   d 8 00 00 00 00 00 00 00 00
 2.145179 1  252             Rx   d 8 00 00 00 02 00 00 00 00
 2.147174 1  253             Rx   d 8 00 00 00 01 00 00 00 00
 2.149170 1  254             Rx   d 8 00 00 00 03 00 00 00 00
 2.151253 1  241             Rx   d 8 AA 00 00 00 00 00 00 6C
 2.153973 1  221             Rx   d 8 00 00 00 00 00 00 00 00
 2.154197 1  311             Rx   d 8 00 00 00 00 00 00 00 02
 2.163175 1  251             Rx   d 8 00 00 00 00 00 00 00 00
 2.165196 1  252             Rx   d 8 00 00 00 02 00 00 00 00
 2.167279 1  253             Rx   d 8 00 00 00 01 00 00 00 00
 2.169297 1  254             Rx   d 8 00 00 00 03 00 00 00 00
 2.171269 1  241             Rx   d 8 AA 00 00 00 00 00 00 6D
 2.173987 1  221             Rx   d 8 00 00 00 00 00 00 00 00
 2.174227 1  311             Rx   d 8 00 00 00 00 00 00 00 02
 2.183255 1  251             Rx   d 8 00 00 00 00 00 00 00 00
 2.185199 1  252             Rx   d 8 00 00 00 02 00 00 00 00
 2.187254 1  253             Rx   d 8 00 00 00 01 00 00 00 00
 2.189249 1  254             Rx   d 8 00 00 00 03 00 00 00 00
 2.191251 1  241             Rx   d 8 AA 00 00 00 00 00 00 6E
 2.193982 1  221             Rx   d 8 00 00 00 00 00 00 00 00
 2.194192 1  311             Rx   d 8 00 00 00 00 00 00 00 02
 2.202267 1  261             Rx   d 8 01 27 00 1B 1E 00 00 00
 2.203259 1  251             Rx   d 8 00 00 00 00 00 00 00 00
 2.205252 1  252             Rx   d 8 00 00 00 02 00 00 00 00
 2.207285 1  253             Rx   d 8 00 00 00 01 00 00 00 00
 2.209323 1  254             Rx   d 8 00 00 00 03 00 00 00 00
 2.211338 1  241             Rx   d 8 AA 00 00 00 00 00 00 6F
 2.213289 1  262             Rx   d 8 01 2A 00 1A 1E 00 00 00
 2.213981 1  221             Rx   d 8 00 00 00 00 00 00 00 00
 2.214195 1  311             Rx   d 8 00 00 00 00 00 00 00 02
 2.223283 1  251             Rx   d 8 00 00 00 00 00 00 00 00
 2.224282 1  263             Rx   d 8 01 27 00 1B 1E 00 00 00
 2.225250 1  252             Rx   d 8 00 00 00 02 00 00 00 00
 2.227275 1  253             Rx   d 8 00 00 00 01 00 00 00 00
 2.229284 1  254             Rx   d 8 00 00 00 03 00 00 00 00
 2.231349 1  241             Rx   d 8 AA 00 00 00 00 00 00 70
 2.234034 1  221             Rx   d 8 00 00 00 00 00 00 00 00
 2.234222 1  311             Rx   d 8 00 00 00 00 00 00 00 02
 2.235302 1  264             Rx   d 8 01 28 00 1B 1E 00 00 00
 2.241354 1  231             Rx   d 8 00 00 00 02 46 00 00 00
 2.243276 1  251             Rx   d 8 00 00 00 00 00 00 00 00
 2.245281 1  252             Rx   d 8 00 00 00 02 00 00 00 00
 2.247278 1  253             Rx   d 8 00 00 00 01 00 00 00 00
 2.249279 1  254             Rx   d 8 00 00 00 03 00 00 00 00
 2.251308 1  241             Rx   d 8 AA 00 00 00 00 00 00 71
 2.253952 1  221             Rx   d 8 00 00 00 00 00 00 00 00
 2.254223 1  311             Rx   d 8 00 00 00 00 00 00 00 02
 2.263329 1  251             Rx   d 8 00 00 00 00 00 00 00 00
 2.265334 1  252             Rx   d 8 00 00 00 02 00 00 00 00
 2.267326 1  253             Rx   d 8 00 00 00 01 00 00 00 00
 2.269304 1  254             Rx   d 8 00 00 00 03 00 00 00 00
 2.271355 1  241             Rx   d 8 AA 00 00 00 00 00 00 72
 2.273980 1  221             Rx   d 8 00 00 00 00 00 00 00 00
 2.274230 1  311             Rx   d 8 00 00 00 00 00 00 00 02
 2.283328 1  251             Rx   d 8 00 00 00 00 00 00 00 00
 2.285307 1  252             Rx   d 8 00 00 00 02 00 00 00 00
 2.287357 1  253             Rx   d 8 00 00 00 01 00 00 00 00
 2.289369 1  254             Rx   d 8 00 00 00 03 00 00 00 00
 2.291476 1  241             Rx   d 8 AA 00 00 00 00 00 00 73
 2.294039 1  221             Rx   d 8 00 00 00 00 00 00 00 00
 2.294196 1  311             Rx   d 8 00 00 00 00 00 00 00 02
 2.302359 1  261             Rx   d 8 01 27 00 1B 1E 00 00 00
 2.303404 1  251             Rx   d 8 00 00 00 00 00 00 00 00
 2.305378 1  252             Rx   d 8 00 00 00 02 00 00 00 00
 2.307365 1  253             Rx   d 8 00 00 00 01 00 00 00 00
 2.309386 1  254             Rx   d 8 00 00 00 03 00 00 00 00
 2.311409 1  241             Rx   d 8 AA 00 00 00 00 00 00 74
 2.313354 1  262             Rx   d 8 01 2B 00 1A 1E 00 00 00
 2.314042 1  221             Rx   d 8 00 00 00 00 00 00 00 00
 2.314229 1  311             Rx   d 8 00 00 00 00 00 00 00 02
 2.321412 1  211             Rx   d 8 00 01 01 1E 00 00 00 00
 2.323382 1  251             Rx   d 8 00 00 00 00 00 00 00 00
 2.324450 1  263             Rx   d 8 01 28 00 1B 1E 00 00 00
 2.325366 1  252             Rx   d 8 00 00 00 02 00 00 00 00
 2.327348 1  253             Rx   d 8 00 00 00 01 00 00 00 00
 2.329348 1  254             Rx   d 8 00 00 00 03 00 00 00 00
 2.331398 1  241             Rx   d 8 AA 00 00 00 00 00 00 75
 2.334027 1  221             Rx   d 8 00 00 00 00 00 00 00 00
 2.334229 1  311             Rx   d 8 00 00 00 00 00 00 00 02
 2.335383 1  264             Rx   d 8 01 28 00 1B 1E 00 00 00
 2.343410 1  251             Rx   d 8 00 00 00 00 00 00 00 00
 2.345376 1  252             Rx   d 8 00 00 00 02 00 00 00 00
 2.347404 1  253             Rx   d 8 00 00 00 01 00 00 00 00
 2.349411 1  254             Rx   d 8 00 00 00 03 00 00 00 00
 2.351459 1  241             Rx   d 8 AA 00 00 00 00 00 00 76
 2.353983 1  221             Rx   d 8 00 00 00 00 00 00 00 00
 2.354253 1  311             Rx   d 8 00 00 00 00 00 00 00 02
 2.363403 1  251             Rx   d 8 00 00 00 00 00 00 00 00
 2.365435 1  252             Rx   d 8 00 00 00 02 00 00 00 00
 2.367401 1  253             Rx   d 8 00 00 00 01 00 00 00 00
 2.369426 1  254             Rx   d 8 00 00 00 03 00 00 00 00
 2.371480 1  241             Rx   d 8 AA 00 00 00 00 00 00 77
 2.373980 1  221             Rx   d 8 00 00 00 00 00 00 00 00
 2.374228 1  311             Rx   d 8 00 00 00 00 00 00 00 02
 2.383430 1  251             Rx   d 8 00 00 00 00 00 00 00 00
 2.385453 1  252             Rx   d 8 00 00 00 02 00 00 00 00
 2.387432 1  253             Rx   d 8 00 00 00 01 00 00 00 00
 2.389457 1  254             Rx   d 8 00 00 00 03 00 00 00 00
 2.391507 1  241             Rx   d 8 AA 00 00 00 00 00 00 78
 2.394007 1  221             Rx   d 8 00 00 00 00 00 00 00 00
 2.394228 1  311             Rx   d 8 00 00 00 00 00 00 00 02
 2.402517 1  261             Rx   d 8 01 27 00 1B 1E 00 00 00
 2.403516 1  251             Rx   d 8 00 00 00 00 00 00 00 00
 2.405456 1  252             Rx   d 8 00 00 00 02 00 00 00 00
 2.407458 1  253             Rx   d 8 00 00 00 01 00 00 00 00
 2.409484 1  254             Rx   d 8 00 00 00 03 00 00 00 00
 2.411505 1  241             Rx   d 8 AA 00 00 00 00 00 00 79
 2.413460 1  262             Rx   d 8 01 2B 00 1A 1E 00 00 00
 2.414009 1  221             Rx   d 8 00 00 00 00 00 00 00 00
 2.414267 1  311             Rx   d 8 00 00 00 00 00 00 00 02
 2.423549 1  251             Rx   d 8 00 00 00 00 00 00 00 00
 2.424543 1  263             Rx   d 8 01 27 00 1B 1E 00 00 00
 2.425487 1  252             Rx   d 8 00 00 00 02 00 00 00 00
 2.427454 1  253             Rx   d 8 00 00 00 01 00 00 00 00
 2.429453 1  254             Rx   d 8 00 00 00 03 00 00 00 00
 2.431566 1  241             Rx   d 8 AA 00 00 00 00 00 00 7A
 2.434021 1  221             Rx   d 8 00 00 00 00 00 00 00 00
 2.434260 1  311             Rx   d 8 00 00 00 00 00 00 00 02
 2.435483 1  264             Rx   d 8 01 28 00 1B 1E 00 00 00
 2.443573 1  251             Rx   d 8 00 00 00 00 00 00 00 00
 2.445514 1  252             Rx   d 8 00 00 00 02 00 00 00 00
 2.447513 1  253             Rx   d 8 00 00 00 01 00 00 00 00
 2.449509 1  254             Rx   d 8 00 00 00 03 00 00 00 00
 2.451582 1  241             Rx   d 8 AA 00 00 00 00 00 00 7B
 2.453982 1  221             Rx   d 8 00 00 00 00 00 00 00 00
 2.454227 1  311             Rx   d 8 00 00 00 00 00 00 00 02
 2.463595 1  251             Rx   d 8 00 00 00 00 00 00 00 00
 2.465541 1  252             Rx   d 8 00 00 00 02 00 00 00 00
 2.467537 1  253             Rx   d 8 00 00 00 01 00 00 00 00
 2.469534 1  254             Rx   d 8 00 00 00 03 00 00 00 00
 2.471584 1  241             Rx   d 8 AA 00 00 00 00 00 00 7C
 2.474026 1  221             Rx   d 8 00 00 00 00 00 00 00 00
 2.474276 1  311             Rx   d 8 00 00 00 00 00 00 00 02
 2.483594 1  251             Rx   d 8 00 00 00 00 00 00 00 00
 2.485562 1  252             Rx   d 8 00 00 00 02 00 00 00 00
 2.487620 1  253             Rx   d 8 00 00 00 01 00 00 00 00
 2.489558 1  254             Rx   d 8 00 00 00 03 00 00 00 00
 2.491618 1  241             Rx   d 8 AA 00 00 00 00 00 00 7D
 2.494012 1  221             Rx   d 8 00 00 00 00 00 00 00 00
 2.494227 1  311             Rx   d 8 00 00 00 00 00 00 00 02
 2.502602 1  261             Rx   d 8 01 27 00 1B 1E 00 00 00
 2.503567 1  251             Rx   d 8 00 00 00 00 00 00 00 00
 2.505565 1  252             Rx   d 8 00 00 00 02 00 00 00 00
 2.507567 1  253             Rx   d 8 00 00 00 01 00 00 00 00
 2.509563 1  254             Rx   d 8 00 00 00 03 00 00 00 00
 2.511638 1  241             Rx   d 8 AA 00 00 00 00 00 00 7E
 2.513559 1  262             Rx   d 8 01 2B 00 1A 1E 00 00 00
 2.514022 1  221             Rx   d 8 00 00 00 00 00 00 00 00
 2.514296 1  311             Rx   d 8 00 00 00 00 00 00 00 02
 2.521635 1  211             Rx   d 8 00 01 01 1E 00 00 00 00
 2.523633 1  251             Rx   d 8 00 00 00 00 00 00 00 00
 2.524606 1  263             Rx   d 8 01 27 00 1B 1E 00 00 00
 2.525558 1  252             Rx   d 8 00 00 00 02 00 00 00 00
 2.527640 1  253             Rx   d 8 00 00 00 01 00 00 00 00
 2.529588 1  254             Rx   d 8 00 00 00 03 00 00 00 00
 2.531665 1  241             Rx   d 8 AA 00 00 00 00 00 00 7F
 2.534011 1  221             Rx   d 8 00 00 00 00 00 00 00 00
 2.534228 1  311             Rx   d 8 00 00 00 00 00 00 00 02
 2.535598 1  264             Rx   d 8 01 28 00 1B 1E 00 00 00
 2.543612 1  251             Rx   d 8 00 00 00 00 00 00 00 00
 2.545656 1  252             Rx   d 8 00 00 00 02 00 00 00 00
 2.547609 1  253             Rx   d 8 00 00 00 01 00 00 00 00
 2.549612 1  254             Rx   d 8 00 00 00 03 00 00 00 00
 2.551665 1  241             Rx   d 8 AA 00 00 00 00 00 00 80
 2.553982 1  221             Rx   d 8 00 00 00 00 00 00 00 00
 2.554227 1  311             Rx   d 8 00 00 00 00 00 00 00 02
 2.563638 1  251             Rx   d 8 00 00 00 00 00 00 00 00
 2.565637 1  252             Rx   d 8 00 00 00 02 00 00 00 00
 2.567677 1  253             Rx   d 8 00 00 00 01 00 00 00 00
 2.569701 1  254             Rx   d 8 00 00 00 03 00 00 00 00
 2.571750 1  241             Rx   d 8 AA 00 00 00 00 00 00 81
 2.574009 1  221             Rx   d 8 00 00 00 00 00 00 00 00
 2.574227 1  311             Rx   d 8 00 00 00 00 00 00 00 02
 2.583662 1  251             Rx   d 8 00 00 00 00 00 00 00 00
 2.585665 1  252             Rx   d 8 00 00 00 02 00 00 00 00
 2.587698 1  253             Rx   d 8 00 00 00 01 00 00 00 00
 2.589663 1  254             Rx   d 8 00 00 00 03 00 00 00 00
 2.591748 1  241             Rx   d 8 AA 00 00 00 00 00 00 82
 2.593988 1  221             Rx   d 8 00 00 00 00 00 00 00 00
 2.594253 1  311             Rx   d 8 00 00 00 00 00 00 00 02
 2.602668 1  261             Rx   d 8 01 28 00 1B 1E 00 00 00
 2.603661 1  251             Rx   d 8 00 00 00 00 00 00 00 00
 2.605682 1  252             Rx   d 8 00 00 00 02 00 00 00 00
 2.607635 1  253             Rx   d 8 00 00 00 01 00 00 00 00
 2.609751 1  254             Rx   d 8 00 00 00 03 00 00 00 00
 2.611689 1  241             Rx   d 8 AA 00 00 00 00 00 00 83
 2.613722 1  262             Rx   d 8 01 2B 00 1B 1E 00 00 00
 2.614020 1  221             Rx   d 8 00 00 00 00 00 00 00 00
 2.614231 1  311             Rx   d 8 00 00 00 00 00 00 00 02
 2.623695 1  251             Rx   d 8 00 00 00 00 00 00 00 00
 2.624687 1  263             Rx   d 8 01 27 00 1B 1E 00 00 00
 2.625689 1  252             Rx   d 8 00 00 00 02 00 00 00 00
 2.627689 1  253             Rx   d 8 00 00 00 01 00 00 00 00
 2.629747 1  254             Rx   d 8 00 00 00 03 00 00 00 00
 2.631792 1  241             Rx   d 8 AA 00 00 00 00 00 00 84
 2.634020 1  221             Rx   d 8 00 00 00 00 00 00 00 00
 2.634292 1  311             Rx   d 8 00 00 00 00 00 00 00 02
 2.635718 1  264             Rx   d 8 01 28 00 1B 1E 00 00 00
 2.643712 1  251             Rx   d 8 00 00 00 00 00 00 00 00
 2.645725 1  252             Rx   d 8 00 00 00 02 00 00 00 00
 2.647687 1  253             Rx   d 8 00 00 00 01 00 00 00 00
 2.649713 1  254             Rx   d 8 00 00 00 03 00 00 00 00
 2.651822 1  241             Rx   d 8 AA 00 00 00 00 00 00 85
 2.654098 1  221             Rx   d 8 00 00 00 00 00 00 00 00
 2.654255 1  311             Rx   d 8 00 00 00 00 00 00 00 02
 2.663718 1  251             Rx   d 8 00 00 00 00 00 00 00 00
 2.665746 1  252             Rx   d 8 00 00 00 02 00 00 00 00
 2.667746 1  253             Rx   d 8 00 00 00 01 00 00 00 00
 2.669743 1  254             Rx   d 8 00 00 00 03 00 00 00 00
 2.671799 1  241             Rx   d 8 AA 00 00 00 00 00 00 86
 2.674103 1  221             Rx   d 8 00 00 00 00 00 00 00 00
 2.674256 1  311             Rx   d 8 00 00 00 00 00 00 00 02
 2.683745 1  251             Rx   d 8 00 00 00 00 00 00 00 00
 2.685780 1  252             Rx   d 8 00 00 00 02 00 00 00 00
 2.687765 1  253             Rx   d 8 00 00 00 01 00 00 00 00
 2.689772 1  254             Rx   d 8 00 00 00 03 00 00 00 00
 2.691770 1  241             Rx   d 8 AA 00 00 00 00 00 00 87
 2.694102 1  221             Rx   d 8 00 00 00 00 00 00 00 00
 2.694256 1  311             Rx   d 8 00 00 00 00 00 00 00 02
 2.702770 1  261             Rx   d 8 01 27 00 1B 1E 00 00 00
 2.703757 1  251             Rx   d 8 00 00 00 00 00 00 00 00
 2.705761 1  252             Rx   d 8 00 00 00 02 00 00 00 00
 2.707768 1  253             Rx   d 8 00 00 00 01 00 00 00 00
 2.709768 1  254             Rx   d 8 00 00 00 03 00 00 00 00
 2.711797 1  241             Rx   d 8 AA 00 00 00 00 00 00 88
 2.713804 1  262             Rx   d 8 01 2B 00 1A 1E 00 00 00
 2.714009 1  221             Rx   d 8 00 00 00 00 00 00 00 00
 2.714257 1  311             Rx   d 8 00 00 00 00 00 00 00 02
 2.721824 1  211             Rx   d 8 00 01 01 1E 00 00 00 00
 2.723795 1  251             Rx   d 8 00 00 00 00 00 00 00 00
 2.724777 1  263             Rx   d 8 01 27 00 1B 1E 00 00 00
 2.725800 1  252             Rx   d 8 00 00 00 02 00 00 00 00
 2.727797 1  253             Rx   d 8 00 00 00 01 00 00 00 00
 2.729845 1  254             Rx   d 8 00 00 00 03 00 00 00 00
 2.731881 1  241             Rx   d 8 AA 00 00 00 00 00 00 89
 2.734049 1  221             Rx   d 8 00 00 00 00 00 00 00 00
 2.734307 1  311             Rx   d 8 00 00 00 00 00 00 00 02
 2.735820 1  264             Rx   d 8 01 28 00 1B 1E 00 00 00
 2.741920 1  231             Rx   d 8 00 00 00 02 5A 00 00 00
 2.743819 1  251             Rx   d 8 00 00 00 00 00 00 00 00
 2.745820 1  252             Rx   d 8 00 00 00 02 00 00 00 00
 2.747834 1  253             Rx   d 8 00 00 00 01 00 00 00 00
 2.749820 1  254             Rx   d 8 00 00 00 03 00 00 00 00
 2.751874 1  241             Rx   d 8 AA 00 00 00 00 00 00 8A
 2.754040 1  221             Rx   d 8 00 00 00 00 00 00 00 00
 2.754297 1  311             Rx   d 8 00 00 00 00 00 00 00 02
 2.763844 1  251             Rx   d 8 00 00 00 00 00 00 00 00
 2.765872 1  252             Rx   d 8 00 00 00 02 00 00 00 00
 2.767878 1  253             Rx   d 8 00 00 00 01 00 00 00 00
 2.769870 1  254             Rx   d 8 00 00 00 03 00 00 00 00
 2.771926 1  241             Rx   d 8 AA 00 00 00 00 00 00 8B
 2.774044 1  221             Rx   d 8 00 00 00 00 00 00 00 00
 2.774258 1  311             Rx   d 8 00 00 00 00 00 00 00 02
 2.783912 1  251             Rx   d 8 00 00 00 00 00 00 00 00
 2.785877 1  252             Rx   d 8 00 00 00 02 00 00 00 00
 2.787874 1  253             Rx   d 8 00 00 00 01 00 00 00 00
 2.789868 1  254             Rx   d 8 00 00 00 03 00 00 00 00
 2.791922 1  241             Rx   d 8 AA 00 00 00 00 00 00 8C
 2.794049 1  221             Rx   d 8 00 00 00 00 00 00 00 00
 2.794262 1  311             Rx   d 8 00 00 00 00 00 00 00 02
 2.802913 1  261             Rx   d 8 01 27 00 1B 1E 00 00 00
 2.803926 1  251             Rx   d 8 00 00 00 00 00 00 00 00
 2.805918 1  252             Rx   d 8 00 00 00 02 00 00 00 00
 2.807873 1  253             Rx   d 8 00 00 00 01 00 00 00 00
 2.809897 1  254             Rx   d 8 00 00 00 03 00 00 00 00
 2.811921 1  241             Rx   d 8 AA 00 00 00 00 00 00 8D
 2.813841 1  262             Rx   d 8 01 2B 00 1A 1E 00 00 00
 2.814131 1  221             Rx   d 8 00 00 00 00 00 00 00 00
 2.814338 1  311             Rx   d 8 00 00 00 00 00 00 00 02
 2.823900 1  251             Rx   d 8 00 00 00 00 00 00 00 00
 2.824952 1  263             Rx   d 8 01 27 00 1B 1E 00 00 00
 2.825897 1  252             Rx   d 8 00 00 00 02 00 00 00 00
 2.827908 1  253             Rx   d 8 00 00 00 01 00 00 00 00
 2.829900 1  254             Rx   d 8 00 00 00 03 00 00 00 00
 2.831949 1  241             Rx   d 8 AA 00 00 00 00 00 00 8E
 2.834016 1  221             Rx   d 8 00 00 00 00 00 00 00 00
 2.834297 1  311             Rx   d 8 00 00 00 00 00 00 00 02
 2.835896 1  264             Rx   d 8 01 28 00 1B 1E 00 00 00
 2.843991 1  251             Rx   d 8 00 00 00 00 00 00 00 00
 2.845992 1  252             Rx   d 8 00 00 00 02 00 00 00 00
 2.847929 1  253             Rx   d 8 00 00 00 01 00 00 00 00
 2.849923 1  254             Rx   d 8 00 00 00 03 00 00 00 00
 2.852036 1  241             Rx   d 8 AA 00 00 00 00 00 00 8F
 2.854050 1  221             Rx   d 8 00 00 00 00 00 00 00 00
 2.854296 1  311             Rx   d 8 00 00 00 00 00 00 00 02
 2.863988 1  251             Rx   d 8 00 00 00 00 00 00 00 00
 2.866008 1  252             Rx   d 8 00 00 00 02 00 00 00 00
 2.867950 1  253             Rx   d 8 00 00 00 01 00 00 00 00
 2.869955 1  254             Rx   d 8 00 00 00 03 00 00 00 00
 2.871998 1  241             Rx   d 8 AA 00 00 00 00 00 00 90
 2.874049 1  221             Rx   d 8 00 00 00 00 00 00 00 00
 2.874258 1  311             Rx   d 8 00 00 00 00 00 00 00 02
 2.884005 1  251             Rx   d 8 00 00 00 00 00 00 00 00
 2.886026 1  252             Rx   d 8 00 00 00 02 00 00 00 00
 2.888002 1  253             Rx   d 8 00 00 00 01 00 00 00 00
 2.889973 1  254             Rx   d 8 00 00 00 03 00 00 00 00
 2.892024 1  241             Rx   d 8 AA 00 00 00 00 00 00 91
 2.894066 1  221             Rx   d 8 00 00 00 00 00 00 00 00
 2.894288 1  311             Rx   d 8 00 00 00 00 00 00 00 02
 2.902970 1  261             Rx   d 8 01 27 00 1B 1E 00 00 00
 2.904015 1  251             Rx   d 8 00 00 00 00 00 00 00 00
 2.905986 1  252             Rx   d 8 00 00 00 02 00 00 00 00
 2.907971 1  253             Rx   d 8 00 00 00 01 00 00 00 00
 2.910058 1  254             Rx   d 8 00 00 00 03 00 00 00 00
 2.912020 1  241             Rx   d 8 AA 00 00 00 00 00 00 92
 2.913968 1  262             Rx   d 8 01 2B 00 1B 1E 00 00 00
 2.914223 1  221             Rx   d 8 00 00 00 00 00 00 00 00
 2.914484 1  311             Rx   d 8 00 00 00 00 00 00 00 02
 2.922046 1  211             Rx   d 8 00 01 01 1E 00 00 00 00
 2.923995 1  251             Rx   d 8 00 00 00 00 00 00 00 00
 2.924969 1  263             Rx   d 8 01 27 00 1B 1E 00 00 00
 2.925995 1  252             Rx   d 8 00 00 00 02 00 00 00 00
 2.928071 1  253             Rx   d 8 00 00 00 01 00 00 00 00
 2.930058 1  254             Rx   d 8 00 00 00 03 00 00 00 00
 2.932081 1  241             Rx   d 8 AA 00 00 00 00 00 00 93
 2.934075 1  221             Rx   d 8 00 00 00 00 00 00 00 00
 2.934289 1  311             Rx   d 8 00 00 00 00 00 00 00 02
 2.936002 1  264             Rx   d 8 01 28 00 1B 1E 00 00 00
 2.943993 1  251             Rx   d 8 00 00 00 00 00 00 00 00
 2.946079 1  252             Rx   d 8 00 00 00 02 00 00 00 00
 2.947989 1  253             Rx   d 8 00 00 00 01 00 00 00 00
 2.950026 1  254             Rx   d 8 00 00 00 03 00 00 00 00
 2.952068 1  241             Rx   d 8 AA 00 00 00 00 00 00 94
 2.954071 1  221             Rx   d 8 00 00 00 00 00 00 00 00
 2.954337 1  311             Rx   d 8 00 00 00 00 00 00 00 02
 2.964051 1  251             Rx   d 8 00 00 00 00 00 00 00 00
 2.966048 1  252             Rx   d 8 00 00 00 02 00 00 00 00
 2.968053 1  253             Rx   d 8 00 00 00 01 00 00 00 00
 2.970086 1  254             Rx   d 8 00 00 00 03 00 00 00 00
 2.972128 1  241             Rx   d 8 AA 00 00 00 00 00 00 95
 2.974129 1  221             Rx   d 8 00 00 00 00 00 00 00 00
 2.974307 1  311             Rx   d 8 00 00 00 00 00 00 00 02
 2.984076 1  251             Rx   d 8 00 00 00 00 00 00 00 00
 2.986047 1  252             Rx   d 8 00 00 00 02 00 00 00 00
 2.988113 1  253             Rx   d 8 00 00 00 01 00 00 00 00
 2.990059 1  254             Rx   d 8 00 00 00 03 00 00 00 00
 2.992129 1  241             Rx   d 8 AA 00 00 00 00 00 00 96
 2.994074 1  221             Rx   d 8 00 00 00 00 00 00 00 00
 2.994319 1  311             Rx   d 8 00 00 00 00 00 00 00 02
 3.003073 1  261             Rx   d 8 01 27 00 1B 1E 00 00 00
 3.004072 1  251             Rx   d 8 00 00 00 00 00 00 00 00
 3.006100 1  252             Rx   d 8 00 00 00 02 00 00 00 00
 3.008081 1  253             Rx   d 8 00 00 00 01 00 00 00 00
 3.010087 1  254             Rx   d 8 00 00 00 03 00 00 00 00
 3.012135 1  241             Rx   d 8 AA 00 00 00 00 00 00 97
 3.014072 1  221             Rx   d 8 00 00 00 00 00 00 00 00
 3.014290 1  311             Rx   d 8 00 00 00 00 00 00 00 02
 3.014570 1  262             Rx   d 8 01 2B 00 1B 1E 00 00 00
 3.024097 1  251             Rx   d 8 00 00 00 00 00 00 00 00
 3.025106 1  263             Rx   d 8 01 27 00 1B 1E 00 00 00
 3.026100 1  252             Rx   d 8 00 00 00 02 00 00 00 00
 3.028104 1  253             Rx   d 8 00 00 00 01 00 00 00 00
 3.030120 1  254             Rx   d 8 00 00 00 03 00 00 00 00
 3.032153 1  241             Rx   d 8 AA 00 00 00 00 00 00 98
 3.034133 1  221             Rx   d 8 00 00 00 00 00 00 00 00
 3.034289 1  311             Rx   d 8 00 00 00 00 00 00 00 02
 3.036105 1  264             Rx   d 8 01 28 00 1B 1E 00 00 00
 3.044125 1  251             Rx   d 8 00 00 00 00 00 00 00 00
 3.046093 1  252             Rx   d 8 00 00 00 02 00 00 00 00
 3.048123 1  253             Rx   d 8 00 00 00 01 00 00 00 00
 3.050123 1  254             Rx   d 8 00 00 00 03 00 00 00 00
 3.052181 1  241             Rx   d 8 AA 00 00 00 00 00 00 99
 3.054075 1  221             Rx   d 8 00 00 00 00 00 00 00 00
 3.054289 1  311             Rx   d 8 00 00 00 00 00 00 00 02
 3.064150 1  251             Rx   d 8 00 00 00 00 00 00 00 00
 3.066148 1  252             Rx   d 8 00 00 00 02 00 00 00 00
 3.068120 1  253             Rx   d 8 00 00 00 01 00 00 00 00
 3.070151 1  254             Rx   d 8 00 00 00 03 00 00 00 00
 3.072209 1  241             Rx   d 8 AA 00 00 00 00 00 00 9A
 3.074129 1  221             Rx   d 8 00 00 00 00 00 00 00 00
 3.074290 1  311             Rx   d 8 00 00 00 00 00 00 00 02
 3.084136 1  251             Rx   d 8 00 00 00 00 00 00 00 00
 3.086174 1  252             Rx   d 8 00 00 00 02 00 00 00 00
 3.088150 1  253             Rx   d 8 00 00 00 01 00 00 00 00
 3.090147 1  254             Rx   d 8 00 00 00 03 00 00 00 00
 3.092203 1  241             Rx   d 8 AA 00 00 00 00 00 00 9B
 3.094074 1  221             Rx   d 8 00 00 00 00 00 00 00 00
 3.094321 1  311             Rx   d 8 00 00 00 00 00 00 00 02
 3.103148 1  261             Rx   d 8 01 27 00 1B 1E 00 00 00
 3.104173 1  251             Rx   d 8 00 00 00 00 00 00 00 00
 3.106174 1  252             Rx   d 8 00 00 00 02 00 00 00 00
 3.108181 1  253             Rx   d 8 00 00 00 01 00 00 00 00
 3.110145 1  254             Rx   d 8 00 00 00 03 00 00 00 00
 3.112174 1  241             Rx   d 8 AA 00 00 00 00 00 00 9C
 3.114074 1  221             Rx   d 8 00 00 00 00 00 00 00 00
 3.114327 1  311             Rx   d 8 00 00 00 00 00 00 00 02
 3.114575 1  262             Rx   d 8 01 2B 00 1B 1E 00 00 00
 3.122257 1  211             Rx   d 8 00 01 01 1E 00 00 00 00
 3.124202 1  251             Rx   d 8 00 00 00 00 00 00 00 00
 3.125175 1  263             Rx   d 8 01 27 00 1B 1E 00 00 00
 3.126206 1  252             Rx   d 8 00 00 00 02 00 00 00 00
 3.128198 1  253             Rx   d 8 00 00 00 01 00 00 00 00
 3.130200 1  254             Rx   d 8 00 00 00 03 00 00 00 00
 3.132260 1  241             Rx   d 8 AA 00 00 00 00 00 00 9D
 3.134074 1  221             Rx   d 8 00 00 00 00 00 00 00 00
 3.134329 1  311             Rx   d 8 00 00 00 00 00 00 00 02
 3.136202 1  264             Rx   d 8 01 28 00 1B 1E 00 00 00
 3.144230 1  251             Rx   d 8 00 00 00 00 00 00 00 00
 3.146230 1  252             Rx   d 8 00 00 00 02 00 00 00 00
 3.148227 1  253             Rx   d 8 00 00 00 01 00 00 00 00
 3.150224 1  254             Rx   d 8 00 00 00 03 00 00 00 00
 3.152274 1  241             Rx   d 8 AA 00 00 00 00 00 00 9E
 3.154083 1  221             Rx   d 8 00 00 00 00 00 00 00 00
 3.154352 1  311             Rx   d 8 00 00 00 00 00 00 00 02
 3.164252 1  251             Rx   d 8 00 00 00 00 00 00 00 00
 3.166257 1  252             Rx   d 8 00 00 00 02 00 00 00 00
 3.168225 1  253             Rx   d 8 00 00 00 01 00 00 00 00
 3.170251 1  254             Rx   d 8 00 00 00 03 00 00 00 00
 3.172254 1  241             Rx   d 8 AA 00 00 00 00 00 00 9F
 3.174074 1  221             Rx   d 8 00 00 00 00 00 00 00 00
 3.174320 1  311             Rx   d 8 00 00 00 00 00 00 00 02
 3.184310 1  251             Rx   d 8 00 00 00 00 00 00 00 00
 3.186278 1  252             Rx   d 8 00 00 00 02 00 00 00 00
 3.188257 1  253             Rx   d 8 00 00 00 01 00 00 00 00
 3.190255 1  254             Rx   d 8 00 00 00 03 00 00 00 00
 3.192300 1  241             Rx   d 8 AA 00 00 00 00 00 00 A0
 3.194118 1  221             Rx   d 8 00 00 00 00 00 00 00 00
 3.194295 1  311             Rx   d 8 00 00 00 00 00 00 00 02
 3.203297 1  261             Rx   d 8 01 27 00 1B 1E 00 00 00
 3.204351 1  251             Rx   d 8 00 00 00 00 00 00 00 00
 3.206275 1  252             Rx   d 8 00 00 00 02 00 00 00 00
 3.208282 1  253             Rx   d 8 00 00 00 01 00 00 00 00
 3.210315 1  254             Rx   d 8 00 00 00 03 00 00 00 00
 3.212337 1  241             Rx   d 8 AA 00 00 00 00 00 00 A1
 3.214114 1  221             Rx   d 8 00 00 00 00 00 00 00 00
 3.214319 1  311             Rx   d 8 00 00 00 00 00 00 00 02
 3.214577 1  262             Rx   d 8 01 2B 00 1B 1E 00 00 00
 3.224272 1  251             Rx   d 8 00 00 00 00 00 00 00 00
 3.225290 1  263             Rx   d 8 01 28 00 1B 1E 00 00 00
 3.226303 1  252             Rx   d 8 00 00 00 02 00 00 00 00
 3.228304 1  253             Rx   d 8 00 00 00 01 00 00 00 00
 3.230303 1  254             Rx   d 8 00 00 00 03 00 00 00 00
 3.232355 1  241             Rx   d 8 AA 00 00 00 00 00 00 A2
 3.234112 1  221             Rx   d 8 00 00 00 00 00 00 00 00
 3.234318 1  311             Rx   d 8 00 00 00 00 00 00 00 02
 3.236305 1  264             Rx   d 8 01 28 00 1B 1E 00 00 00
 3.242360 1  231             Rx   d 8 00 00 00 02 5B 00 00 00
 3.244364 1  251             Rx   d 8 00 00 00 00 00 00 00 00
 3.246333 1  252             Rx   d 8 00 00 00 02 00 00 00 00
 3.248334 1  253             Rx   d 8 00 00 00 01 00 00 00 00
 3.250329 1  254             Rx   d 8 00 00 00 03 00 00 00 00
 3.252376 1  241             Rx   d 8 AA 00 00 00 00 00 00 A3
 3.254102 1  221             Rx   d 8 00 00 00 00 00 00 00 00
 3.254359 1  311             Rx   d 8 00 00 00 00 00 00 00 02
 3.264333 1  251             Rx   d 8 00 00 00 00 00 00 00 00
 3.266375 1  252             Rx   d 8 00 00 00 02 00 00 00 00
 3.268412 1  253             Rx   d 8 00 00 00 01 00 00 00 00
 3.270361 1  254             Rx   d 8 00 00 00 03 00 00 00 00
 3.272403 1  241             Rx   d 8 AA 00 00 00 00 00 00 A4
 3.274138 1  221             Rx   d 8 00 00 00 00 00 00 00 00
 3.274320 1  311             Rx   d 8 00 00 00 00 00 00 00 02
 3.284327 1  251             Rx   d 8 00 00 00 00 00 00 00 00
 3.286350 1  252             Rx   d 8 00 00 00 02 00 00 00 00
 3.288355 1  253             Rx   d 8 00 00 00 01 00 00 00 00
 3.290325 1  254             Rx   d 8 00 00 00 03 00 00 00 00
 3.292372 1  241             Rx   d 8 AA 00 00 00 00 00 00 A5
 3.294101 1  221             Rx   d 8 00 00 00 00 00 00 00 00
 3.294322 1  311             Rx   d 8 00 00 00 00 00 00 00 02
 3.303379 1  261             Rx   d 8 01 27 00 1B 1E 00 00 00
 3.304378 1  251             Rx   d 8 00 00 00 00 00 00 00 00
 3.306386 1  252             Rx   d 8 00 00 00 02 00 00 00 00
 3.308386 1  253             Rx   d 8 00 00 00 01 00 00 00 00
 3.310386 1  254             Rx   d 8 00 00 00 03 00 00 00 00
 3.312433 1  241             Rx   d 8 AA 00 00 00 00 00 00 A6
 3.314104 1  221             Rx   d 8 00 00 00 00 00 00 00 00
 3.314322 1  311             Rx   d 8 00 00 00 00 00 00 00 02
 3.314607 1  262             Rx   d 8 01 2B 00 1A 1E 00 00 00
 3.322455 1  211             Rx   d 8 00 01 01 1E 00 00 00 00
 3.324374 1  251             Rx   d 8 00 00 00 00 00 00 00 00
 3.325389 1  263             Rx   d 8 01 27 00 1B 1E 00 00 00
 3.326375 1  252             Rx   d 8 00 00 00 02 00 00 00 00
 3.328457 1  253             Rx   d 8 00 00 00 01 00 00 00 00
 3.330434 1  254             Rx   d 8 00 00 00 03 00 00 00 00
 3.332465 1  241             Rx   d 8 AA 00 00 00 00 00 00 A7
 3.334105 1  221             Rx   d 8 00 00 00 00 00 00 00 00
 3.334321 1  311             Rx   d 8 00 00 00 00 00 00 00 02
 3.336407 1  264             Rx   d 8 01 28 00 1B 1E 00 00 00
 3.344433 1  251             Rx   d 8 00 00 00 00 00 00 00 00
 3.346490 1  252             Rx   d 8 00 00 00 02 00 00 00 00
 3.348437 1  253             Rx   d 8 00 00 00 01 00 00 00 00
 3.350430 1  254             Rx   d 8 00 00 00 03 00 00 00 00
 3.352482 1  241             Rx   d 8 AA 00 00 00 00 00 00 A8
 3.354121 1  221             Rx   d 8 00 00 00 00 00 00 00 00
 3.354321 1  311             Rx   d 8 00 00 00 00 00 00 00 02
 3.364404 1  251             Rx   d 8 00 00 00 00 00 00 00 00
 3.366431 1  252             Rx   d 8 00 00 00 02 00 00 00 00
 3.368456 1  253             Rx   d 8 00 00 00 01 00 00 00 00
 3.370489 1  254             Rx   d 8 00 00 00 03 00 00 00 00
 3.372481 1  241             Rx   d 8 AA 00 00 00 00 00 00 A9
 3.374165 1  221             Rx   d 8 00 00 00 00 00 00 00 00
 3.374323 1  311             Rx   d 8 00 00 00 00 00 00 00 02
 3.384457 1  251             Rx   d 8 00 00 00 00 00 00 00 00
 3.386481 1  252             Rx   d 8 00 00 00 02 00 00 00 00
 3.388425 1  253             Rx   d 8 00 00 00 01 00 00 00 00
 3.390462 1  254             Rx   d 8 00 00 00 03 00 00 00 00
 3.392484 1  241             Rx   d 8 AA 00 00 00 00 00 00 AA
 3.394168 1  221             Rx   d 8 00 00 00 00 00 00 00 00
 3.394354 1  311             Rx   d 8 00 00 00 00 00 00 00 02
 3.403481 1  261             Rx   d 8 01 27 00 1B 1E 00 00 00
 3.404481 1  251             Rx   d 8 00 00 00 00 00 00 00 00
 3.406482 1  252             Rx   d 8 00 00 00 02 00 00 00 00
 3.408481 1  253             Rx   d 8 00 00 00 01 00 00 00 00
 3.410539 1  254             Rx   d 8 00 00 00 03 00 00 00 00
 3.412536 1  241             Rx   d 8 AA 00 00 00 00 00 00 AB
 3.414169 1  221             Rx   d 8 00 00 00 00 00 00 00 00
 3.414358 1  311             Rx   d 8 00 00 00 00 00 00 00 02
 3.414607 1  262             Rx   d 8 01 2B 00 1A 1E 00 00 00
 3.424514 1  251             Rx   d 8 00 00 00 00 00 00 00 00
 3.425484 1  263             Rx   d 8 01 27 00 1B 1E 00 00 00
 3.426508 1  252             Rx   d 8 00 00 00 02 00 00 00 00
 3.428482 1  253             Rx   d 8 00 00 00 01 00 00 00 00
 3.430486 1  254             Rx   d 8 00 00 00 03 00 00 00 00
 3.432532 1  241             Rx   d 8 AA 00 00 00 00 00 00 AC
 3.434079 1  221             Rx   d 8 00 00 00 00 00 00 00 00
 3.434325 1  311             Rx   d 8 00 00 00 00 00 00 00 02
 3.436477 1  264             Rx   d 8 01 28 00 1B 1E 00 00 00
 3.444483 1  251             Rx   d 8 00 00 00 00 00 00 00 00
 3.446503 1  252             Rx   d 8 00 00 00 02 00 00 00 00
 3.448504 1  253             Rx   d 8 00 00 00 01 00 00 00 00
 3.450509 1  254             Rx   d 8 00 00 00 03 00 00 00 00
 3.452555 1  241             Rx   d 8 AA 00 00 00 00 00 00 AD
 3.454104 1  221             Rx   d 8 00 00 00 00 00 00 00 00
 3.454325 1  311             Rx   d 8 00 00 00 00 00 00 00 02
 3.464555 1  251             Rx   d 8 00 00 00 00 00 00 00 00
 3.466535 1  252             Rx   d 8 00 00 00 02 00 00 00 00
 3.468554 1  253             Rx   d 8 00 00 00 01 00 00 00 00
 3.470534 1  254             Rx   d 8 00 00 00 03 00 00 00 00
 3.472607 1  241             Rx   d 8 AA 00 00 00 00 00 00 AE
 3.474131 1  221             Rx   d 8 00 00 00 00 00 00 00 00
 3.474325 1  311             Rx   d 8 00 00 00 00 00 00 00 02
 3.484555 1  251             Rx   d 8 00 00 00 00 00 00 00 00
 3.486586 1  252             Rx   d 8 00 00 00 02 00 00 00 00
 3.488564 1  253             Rx   d 8 00 00 00 01 00 00 00 00
 3.490579 1  254             Rx   d 8 00 00 00 03 00 00 00 00
 3.492628 1  241             Rx   d 8 AA 00 00 00 00 00 00 AF
 3.494193 1  221             Rx   d 8 00 00 00 00 00 00 00 00
 3.494384 1  311             Rx   d 8 00 00 00 00 00 00 00 02
 3.503634 1  261             Rx   d 8 01 27 00 1B 1E 00 00 00
 3.504584 1  251             Rx   d 8 00 00 00 00 00 00 00 00
 3.506599 1  252             Rx   d 8 00 00 00 02 00 00 00 00
 3.508590 1  253             Rx   d 8 00 00 00 01 00 00 00 00
 3.510592 1  254             Rx   d 8 00 00 00 03 00 00 00 00
 3.512638 1  241             Rx   d 8 AA 00 00 00 00 00 00 B0
 3.514138 1  221             Rx   d 8 00 00 00 00 00 00 00 00
 3.514384 1  311             Rx   d 8 00 00 00 00 00 00 00 02
 3.514606 1  262             Rx   d 8 01 2B 00 1B 1E 00 00 00
 3.522700 1  211             Rx   d 8 00 01 01 1E 00 00 00 00
 3.524622 1  251             Rx   d 8 00 00 00 00 00 00 00 00
 3.525586 1  263             Rx   d 8 01 27 00 1B 1E 00 00 00
 3.526612 1  252             Rx   d 8 00 00 00 02 00 00 00 00
 3.528616 1  253             Rx   d 8 00 00 00 01 00 00 00 00
 3.530619 1  254             Rx   d 8 00 00 00 03 00 00 00 00
 3.532663 1  241             Rx   d 8 AA 00 00 00 00 00 00 B1
 3.534139 1  221             Rx   d 8 00 00 00 00 00 00 00 00
 3.534391 1  311             Rx   d 8 00 00 00 00 00 00 00 02
 3.536668 1  264             Rx   d 8 01 28 00 1B 1E 00 00 00
 3.544617 1  251             Rx   d 8 00 00 00 00 00 00 00 00
 3.546644 1  252             Rx   d 8 00 00 00 02 00 00 00 00
 3.548654 1  253             Rx   d 8 00 00 00 01 00 00 00 00
 3.550637 1  254             Rx   d 8 00 00 00 03 00 00 00 00
 3.552634 1  241             Rx   d 8 AA 00 00 00 00 00 00 B2
 3.554138 1  221             Rx   d 8 00 00 00 00 00 00 00 00
 3.554387 1  311             Rx   d 8 00 00 00 00 00 00 00 02
 3.564640 1  251             Rx   d 8 00 00 00 00 00 00 00 00
 3.566665 1  252             Rx   d 8 00 00 00 02 00 00 00 00
 3.568641 1  253             Rx   d 8 00 00 00 01 00 00 00 00
 3.570664 1  254             Rx   d 8 00 00 00 03 00 00 00 00
 3.572692 1  241             Rx   d 8 AA 00 00 00 00 00 00 B3
 3.574144 1  221             Rx   d 8 00 00 00 00 00 00 00 00
 3.574384 1  311             Rx   d 8 00 00 00 00 00 00 00 02
 3.584718 1  251             Rx   d 8 00 00 00 00 00 00 00 00
 3.586665 1  252             Rx   d 8 00 00 00 02 00 00 00 00
 3.588665 1  253             Rx   d 8 00 00 00 01 00 00 00 00
 3.590664 1  254             Rx   d 8 00 00 00 03 00 00 00 00
 3.592738 1  241             Rx   d 8 AA 00 00 00 00 00 00 B4
 3.594134 1  221             Rx   d 8 00 00 00 00 00 00 00 00
 3.594390 1  311             Rx   d 8 00 00 00 00 00 00 00 02
 3.603743 1  261             Rx   d 8 01 27 00 1B 1E 00 00 00
 3.604656 1  251             Rx   d 8 00 00 00 00 00 00 00 00
 3.606690 1  252             Rx   d 8 00 00 00 02 00 00 00 00
 3.608685 1  253             Rx   d 8 00 00 00 01 00 00 00 00
 3.610685 1  254             Rx   d 8 00 00 00 03 00 00 00 00
 3.612736 1  241             Rx   d 8 AA 00 00 00 00 00 00 B5
 3.614133 1  221             Rx   d 8 00 00 00 00 00 00 00 00
 3.614355 1  311             Rx   d 8 00 00 00 00 00 00 00 02
 3.614691 1  262             Rx   d 8 01 2B 00 1B 1E 00 00 00
 3.624782 1  251             Rx   d 8 00 00 00 00 00 00 00 00
 3.625688 1  263             Rx   d 8 01 27 00 1B 1E 00 00 00
 3.626774 1  252             Rx   d 8 00 00 00 02 00 00 00 00
 3.628713 1  253             Rx   d 8 00 00 00 01 00 00 00 00
 3.630712 1  254             Rx   d 8 00 00 00 03 00 00 00 00
 3.632831 1  241             Rx   d 8 AA 00 00 00 00 00 00 B6
 3.634139 1  221             Rx   d 8 00 00 00 00 00 00 00 00
 3.634401 1  311             Rx   d 8 00 00 00 00 00 00 00 02
 3.636713 1  264             Rx   d 8 01 28 00 1B 1E 00 00 00
 3.644769 1  251             Rx   d 8 00 00 00 00 00 00 00 00
 3.646738 1  252             Rx   d 8 00 00 00 02 00 00 00 00
 3.648739 1  253             Rx   d 8 00 00 00 01 00 00 00 00
 3.650751 1  254             Rx   d 8 00 00 00 03 00 00 00 00
 3.652791 1  241             Rx   d 8 AA 00 00 00 00 00 00 B7
 3.654138 1  221             Rx   d 8 00 00 00 00 00 00 00 00
 3.654390 1  311             Rx   d 8 00 00 00 00 00 00 00 02
 3.664744 1  251             Rx   d 8 00 00 00 00 00 00 00 00
 3.666798 1  252             Rx   d 8 00 00 00 02 00 00 00 00
 3.668823 1  253             Rx   d 8 00 00 00 01 00 00 00 00
 3.670766 1  254             Rx   d 8 00 00 00 03 00 00 00 00
 3.672789 1  241             Rx   d 8 AA 00 00 00 00 00 00 B8
 3.674143 1  221             Rx   d 8 00 00 00 00 00 00 00 00
 3.674386 1  311             Rx   d 8 00 00 00 00 00 00 00 02
 3.684825 1  251             Rx   d 8 00 00 00 00 00 00 00 00
 3.686785 1  252             Rx   d 8 00 00 00 02 00 00 00 00
 3.688731 1  253             Rx   d 8 00 00 00 01 00 00 00 00
 3.690768 1  254             Rx   d 8 00 00 00 03 00 00 00 00
 3.692820 1  241             Rx   d 8 AA 00 00 00 00 00 00 B9
 3.694138 1  221             Rx   d 8 00 00 00 00 00 00 00 00
 3.694417 1  311             Rx   d 8 00 00 00 00 00 00 00 02
 3.703766 1  261             Rx   d 8 01 27 00 1B 1E 00 00 00
 3.704792 1  251             Rx   d 8 00 00 00 00 00 00 00 00
 3.706795 1  252             Rx   d 8 00 00 00 02 00 00 00 00
 3.708791 1  253             Rx   d 8 00 00 00 01 00 00 00 00
 3.710854 1  254             Rx   d 8 00 00 00 03 00 00 00 00
 3.712844 1  241             Rx   d 8 AA 00 00 00 00 00 00 BA
 3.714146 1  221             Rx   d 8 00 00 00 00 00 00 00 00
 3.714390 1  311             Rx   d 8 00 00 00 00 00 00 00 02
 3.714790 1  262             Rx   d 8 01 2B 00 1A 1E 00 00 00
 3.722889 1  211             Rx   d 8 00 01 01 1E 00 00 00 00
 3.724815 1  251             Rx   d 8 00 00 00 00 00 00 00 00
 3.725797 1  263             Rx   d 8 01 28 00 1B 1E 00 00 00
 3.726857 1  252             Rx   d 8 00 00 00 02 00 00 00 00
 3.728872 1  253             Rx   d 8 00 00 00 01 00 00 00 00
 3.730877 1  254             Rx   d 8 00 00 00 03 00 00 00 00
 3.732902 1  241             Rx   d 8 AA 00 00 00 00 00 00 BB
 3.734168 1  221             Rx   d 8 00 00 00 00 00 00 00 00
 3.734414 1  311             Rx   d 8 00 00 00 00 00 00 00 02
 3.736818 1  264             Rx   d 8 01 28 00 1B 1E 00 00 00
 3.742894 1  231             Rx   d 8 00 00 00 02 47 00 00 00
 3.744839 1  251             Rx   d 8 00 00 00 00 00 00 00 00
 3.746839 1  252             Rx   d 8 00 00 00 02 00 00 00 00
 3.748960 1  253             Rx   d 8 00 00 00 01 00 00 00 00
 3.750898 1  254             Rx   d 8 00 00 00 03 00 00 00 00
 3.752948 1  241             Rx   d 8 AA 00 00 00 00 00 00 BC
 3.754169 1  221             Rx   d 8 00 00 00 00 00 00 00 00
 3.754415 1  311             Rx   d 8 00 00 00 00 00 00 00 02
 3.764898 1  251             Rx   d 8 00 00 00 00 00 00 00 00
 3.766892 1  252             Rx   d 8 00 00 00 02 00 00 00 00
 3.768840 1  253             Rx   d 8 00 00 00 01 00 00 00 00
 3.770937 1  254             Rx   d 8 00 00 00 03 00 00 00 00
 3.772890 1  241             Rx   d 8 AA 00 00 00 00 00 00 BD
 3.774227 1  221             Rx   d 8 00 00 00 00 00 00 00 00
 3.774419 1  311             Rx   d 8 00 00 00 00 00 00 00 02
 3.784890 1  251             Rx   d 8 00 00 00 00 00 00 00 00
 3.786891 1  252             Rx   d 8 00 00 00 02 00 00 00 00
 3.788890 1  253             Rx   d 8 00 00 00 01 00 00 00 00
 3.790894 1  254             Rx   d 8 00 00 00 03 00 00 00 00
 3.792943 1  241             Rx   d 8 AA 00 00 00 00 00 00 BE
 3.794224 1  221             Rx   d 8 00 00 00 00 00 00 00 00
 3.794412 1  311             Rx   d 8 00 00 00 00 00 00 00 02
 3.803894 1  261             Rx   d 8 01 28 00 1B 1E 00 00 00
 3.804895 1  251             Rx   d 8 00 00 00 00 00 00 00 00
 3.806893 1  252             Rx   d 8 00 00 00 02 00 00 00 00
 3.808898 1  253             Rx   d 8 00 00 00 01 00 00 00 00
 3.810950 1  254             Rx   d 8 00 00 00 03 00 00 00 00
 3.812999 1  241             Rx   d 8 AA 00 00 00 00 00 00 BF
 3.814224 1  221             Rx   d 8 00 00 00 00 00 00 00 00
 3.814414 1  311             Rx   d 8 00 00 00 00 00 00 00 02
 3.814919 1  262             Rx   d 8 01 2B 00 1A 1E 00 00 00
 3.824921 1  251             Rx   d 8 00 00 00 00 00 00 00 00
 3.825895 1  263             Rx   d 8 01 27 00 1B 1E 00 00 00
 3.826921 1  252             Rx   d 8 00 00 00 02 00 00 00 00
 3.828921 1  253             Rx   d 8 00 00 00 01 00 00 00 00
 3.830917 1  254             Rx   d 8 00 00 00 03 00 00 00 00
 3.832961 1  241             Rx   d 8 AA 00 00 00 00 00 00 C0
 3.834224 1  221             Rx   d 8 00 00 00 00 00 00 00 00
 3.834417 1  311             Rx   d 8 00 00 00 00 00 00 00 02
 3.836974 1  264             Rx   d 8 01 28 00 1B 1E 00 00 00
 3.844918 1  251             Rx   d 8 00 00 00 00 00 00 00 00
 3.846942 1  252             Rx   d 8 00 00 00 02 00 00 00 00
 3.848941 1  253             Rx   d 8 00 00 00 01 00 00 00 00
 3.850950 1  254             Rx   d 8 00 00 00 03 00 00 00 00
 3.853000 1  241             Rx   d 8 AA 00 00 00 00 00 00 C1
 3.854234 1  221             Rx   d 8 00 00 00 00 00 00 00 00
 3.854415 1  311             Rx   d 8 00 00 00 00 00 00 00 02
 3.864949 1  251             Rx   d 8 00 00 00 00 00 00 00 00
 3.866973 1  252             Rx   d 8 00 00 00 02 00 00 00 00
 3.868946 1  253             Rx   d 8 00 00 00 01 00 00 00 00
 3.870974 1  254             Rx   d 8 00 00 00 03 00 00 00 00
 3.872998 1  241             Rx   d 8 AA 00 00 00 00 00 00 C2
 3.874227 1  221             Rx   d 8 00 00 00 00 00 00 00 00
 3.874385 1  311             Rx   d 8 00 00 00 00 00 00 00 02
 3.884976 1  251             Rx   d 8 00 00 00 00 00 00 00 00
 3.886968 1  252             Rx   d 8 00 00 00 02 00 00 00 00
 3.888969 1  253             Rx   d 8 00 00 00 01 00 00 00 00
 3.890967 1  254             Rx   d 8 00 00 00 03 00 00 00 00
 3.893017 1  241             Rx   d 8 AA 00 00 00 00 00 00 C3
 3.894182 1  221             Rx   d 8 00 00 00 00 00 00 00 00
 3.894388 1  311             Rx   d 8 00 00 00 00 00 00 00 02
 3.903970 1  261             Rx   d 8 01 28 00 1B 1E 00 00 00
 3.904994 1  251             Rx   d 8 00 00 00 00 00 00 00 00
 3.907041 1  252             Rx   d 8 00 00 00 02 00 00 00 00
 3.909005 1  253             Rx   d 8 00 00 00 01 00 00 00 00
 3.910994 1  254             Rx   d 8 00 00 00 03 00 00 00 00
 3.913042 1  241             Rx   d 8 AA 00 00 00 00 00 00 C4
 3.914182 1  221             Rx   d 8 00 00 00 00 00 00 00 00
 3.914418 1  311             Rx   d 8 00 00 00 00 00 00 00 02
 3.914993 1  262             Rx   d 8 01 2B 00 1A 1E 00 00 00
 3.923045 1  211             Rx   d 8 00 01 01 1E 00 00 00 00
 3.925000 1  251             Rx   d 8 00 00 00 00 00 00 00 00
 3.925994 1  263             Rx   d 8 01 27 00 1B 1E 00 00 00
 3.927018 1  252             Rx   d 8 00 00 00 02 00 00 00 00
 3.929019 1  253             Rx   d 8 00 00 00 01 00 00 00 00
 3.931020 1  254             Rx   d 8 00 00 00 03 00 00 00 00
 3.933037 1  241             Rx   d 8 AA 00 00 00 00 00 00 C5
 3.934168 1  221             Rx   d 8 00 00 00 00 00 00 00 00
 3.934420 1  311             Rx   d 8 00 00 00 00 00 00 00 02
 3.937080 1  264             Rx   d 8 01 28 00 1B 1E 00 00 00
 3.945045 1  251             Rx   d 8 00 00 00 00 00 00 00 00
 3.947046 1  252             Rx   d 8 00 00 00 02 00 00 00 00
 3.949112 1  253             Rx   d 8 00 00 00 01 00 00 00 00
 3.951043 1  254             Rx   d 8 00 00 00 03 00 00 00 00
 3.953073 1  241             Rx   d 8 AA 00 00 00 00 00 00 C6
 3.954171 1  221             Rx   d 8 00 00 00 00 00 00 00 00
 3.954423 1  311             Rx   d 8 00 00 00 00 00 00 00 02
 3.965050 1  251             Rx   d 8 00 00 00 00 00 00 00 00
 3.967049 1  252             Rx   d 8 00 00 00 02 00 00 00 00
 3.969070 1  253             Rx   d 8 00 00 00 01 00 00 00 00
 3.971046 1  254             Rx   d 8 00 00 00 03 00 00 00 00
 3.973119 1  241             Rx   d 8 AA 00 00 00 00 00 00 C7
 3.974142 1  221             Rx   d 8 00 00 00 00 00 00 00 00
 3.974389 1  311             Rx   d 8 00 00 00 00 00 00 00 02
 3.985128 1  251             Rx   d 8 00 00 00 00 00 00 00 00
 3.987073 1  252             Rx   d 8 00 00 00 02 00 00 00 00
 3.989087 1  253             Rx   d 8 00 00 00 01 00 00 00 00
 3.991075 1  254             Rx   d 8 00 00 00 03 00 00 00 00
 3.993140 1  241             Rx   d 8 AA 00 00 00 00 00 00 C8
 3.994197 1  221             Rx   d 8 00 00 00 00 00 00 00 00
 3.994418 1  311             Rx   d 8 00 00 00 00 00 00 00 02
 4.004152 1  261             Rx   d 8 01 27 00 1B 1E 00 00 00
 4.005067 1  251             Rx   d 8 00 00 00 00 00 00 00 00
 4.007144 1  252             Rx   d 8 00 00 00 02 00 00 00 00
 4.009097 1  253             Rx   d 8 00 00 00 01 00 00 00 00
 4.011063 1  254             Rx   d 8 00 00 00 03 00 00 00 00
 4.013094 1  241             Rx   d 8 AA 00 00 00 00 00 00 C9
 4.014164 1  221             Rx   d 8 00 00 00 00 00 00 00 00
 4.014386 1  311             Rx   d 8 00 00 00 00 00 00 00 02
 4.015064 1  262             Rx   d 8 01 2B 00 1B 1E 00 00 00
 4.025131 1  251             Rx   d 8 00 00 00 00 00 00 00 00
 4.026069 1  263             Rx   d 8 01 27 00 1B 1E 00 00 00
 4.027099 1  252             Rx   d 8 00 00 00 02 00 00 00 00
 4.029089 1  253             Rx   d 8 00 00 00 01 00 00 00 00
 4.031090 1  254             Rx   d 8 00 00 00 03 00 00 00 00
 4.033134 1  241             Rx   d 8 AA 00 00 00 00 00 00 CA
 4.034191 1  221             Rx   d 8 00 00 00 00 00 00 00 00
 4.034410 1  311             Rx   d 8 00 00 00 00 00 00 00 02
 4.037122 1  264             Rx   d 8 01 28 00 1B 1E 00 00 00
 4.045114 1  251             Rx   d 8 00 00 00 00 00 00 00 00
 4.047139 1  252             Rx   d 8 00 00 00 02 00 00 00 00
 4.049183 1  253             Rx   d 8 00 00 00 01 00 00 00 00
