date Mon Nov 13 03:40:20.617 PM 2023
base hex  timestamps absolute
internal events logged
Begin Triggerblock Mon Nov 13 03:40:20.584 PM 2023
 0.000000 Start of measurement
 0.000000 1  251             Rx   d 8 00 00 00 00 00 00 00 00
 0.001975 1  252             Rx   d 8 00 00 00 01 00 00 00 00
 0.003974 1  253             Rx   d 8 00 00 00 00 00 00 00 00
 0.005978 1  254             Rx   d 8 00 00 00 02 00 00 00 00
 0.008026 1  241             Rx   d 8 AA 00 00 00 00 00 00 ED
 0.011042 1  221             Rx   d 8 00 00 00 00 00 00 00 00
 0.011269 1  311             Rx   d 8 00 01 0D D4 00 01 31 C2
 0.019004 1  261             Rx   d 8 01 23 00 19 1E 00 00 00
 0.020000 1  251             Rx   d 8 00 00 00 00 00 00 00 00
 0.021974 1  252             Rx   d 8 00 00 00 01 00 00 00 00
 0.024008 1  253             Rx   d 8 00 00 00 00 00 00 00 00
 0.026026 1  254             Rx   d 8 00 00 00 02 00 00 00 00
 0.028047 1  241             Rx   d 8 AA 00 00 00 00 00 00 EE
 0.029979 1  262             Rx   d 8 01 22 00 1A 1E 00 00 00
 0.031080 1  221             Rx   d 8 00 00 00 00 00 00 00 00
 0.031304 1  311             Rx   d 8 00 01 0D D4 00 01 31 C2
 0.038053 1  211             Rx   d 8 00 01 01 19 00 00 00 00
 0.040023 1  251             Rx   d 8 00 00 00 00 00 00 00 00
 0.041022 1  263             Rx   d 8 01 23 00 19 1E 00 00 00
 0.042028 1  252             Rx   d 8 00 00 00 01 00 00 00 00
 0.044026 1  253             Rx   d 8 00 00 00 00 00 00 00 00
 0.046031 1  254             Rx   d 8 00 00 00 02 00 00 00 00
 0.048159 1  241             Rx   d 8 AA 00 00 00 00 00 00 EF
 0.051112 1  221             Rx   d 8 00 00 00 00 00 00 00 00
 0.051304 1  311             Rx   d 8 00 01 0D D4 00 01 31 C2
 0.052076 1  264             Rx   d 8 01 21 00 19 1E 00 00 00
 0.060057 1  251             Rx   d 8 00 00 00 00 00 00 00 00
 0.062052 1  252             Rx   d 8 00 00 00 01 00 00 00 00
 0.064059 1  253             Rx   d 8 00 00 00 00 00 00 00 00
 0.066053 1  254             Rx   d 8 00 00 00 02 00 00 00 00
 0.068102 1  241             Rx   d 8 AA 00 00 00 00 00 00 F0
 0.071074 1  221             Rx   d 8 00 00 00 00 00 00 00 00
 0.071298 1  311             Rx   d 8 00 01 0D D4 00 01 31 C2
 0.080076 1  251             Rx   d 8 00 00 00 00 00 00 00 00
 0.082053 1  252             Rx   d 8 00 00 00 01 00 00 00 00
 0.084081 1  253             Rx   d 8 00 00 00 00 00 00 00 00
 0.086079 1  254             Rx   d 8 00 00 00 02 00 00 00 00
 0.088103 1  241             Rx   d 8 AA 00 00 00 00 00 00 F1
 0.091136 1  221             Rx   d 8 00 00 00 00 00 00 00 00
 0.091307 1  311             Rx   d 8 00 01 0D D4 00 01 31 C2
 0.100061 1  251             Rx   d 8 00 00 00 00 00 00 00 00
 0.102054 1  252             Rx   d 8 00 00 00 01 00 00 00 00
 0.104104 1  253             Rx   d 8 00 00 00 00 00 00 00 00
 0.106081 1  254             Rx   d 8 00 00 00 02 00 00 00 00
 0.108175 1  241             Rx   d 8 AA 00 00 00 00 00 00 F2
 0.111092 1  221             Rx   d 8 00 00 00 00 00 00 00 00
 0.111313 1  311             Rx   d 8 00 01 0D D4 00 01 31 C2
 0.119099 1  261             Rx   d 8 01 24 00 19 1E 00 00 00
 0.120109 1  251             Rx   d 8 00 00 00 00 00 00 00 00
 0.122103 1  252             Rx   d 8 00 00 00 01 00 00 00 00
 0.124115 1  253             Rx   d 8 00 00 00 00 00 00 00 00
 0.126102 1  254             Rx   d 8 00 00 00 02 00 00 00 00
 0.128193 1  241             Rx   d 8 AA 00 00 00 00 00 00 F3
 0.130244 1  262             Rx   d 8 01 22 00 1A 1E 00 00 00
 0.131095 1  221             Rx   d 8 00 00 00 00 00 00 00 00
 0.131327 1  311             Rx   d 8 00 01 0D D4 00 01 31 C2
 0.140190 1  251             Rx   d 8 00 00 00 00 00 00 00 00
 0.141099 1  263             Rx   d 8 01 23 00 19 1E 00 00 00
 0.142182 1  252             Rx   d 8 00 00 00 01 00 00 00 00
 0.144128 1  253             Rx   d 8 00 00 00 00 00 00 00 00
 0.146129 1  254             Rx   d 8 00 00 00 02 00 00 00 00
 0.148139 1  241             Rx   d 8 AA 00 00 00 00 00 00 F4
 0.151077 1  221             Rx   d 8 00 00 00 00 00 00 00 00
 0.151304 1  311             Rx   d 8 00 01 0D D4 00 01 31 C2
 0.152140 1  264             Rx   d 8 01 21 00 19 1E 00 00 00
 0.160186 1  251             Rx   d 8 00 00 00 00 00 00 00 00
 0.162182 1  252             Rx   d 8 00 00 00 01 00 00 00 00
 0.164183 1  253             Rx   d 8 00 00 00 00 00 00 00 00
 0.166185 1  254             Rx   d 8 00 00 00 02 00 00 00 00
 0.168211 1  241             Rx   d 8 AA 00 00 00 00 00 00 F5
 0.171080 1  221             Rx   d 8 00 00 00 00 00 00 00 00
 0.171308 1  311             Rx   d 8 00 01 0D D4 00 01 31 C2
 0.180178 1  251             Rx   d 8 00 00 00 00 00 00 00 00
 0.182184 1  252             Rx   d 8 00 00 00 01 00 00 00 00
 0.184185 1  253             Rx   d 8 00 00 00 00 00 00 00 00
 0.186187 1  254             Rx   d 8 00 00 00 02 00 00 00 00
 0.188305 1  241             Rx   d 8 AA 00 00 00 00 00 00 F6
 0.191099 1  221             Rx   d 8 00 00 00 00 00 00 00 00
 0.191315 1  311             Rx   d 8 00 01 0D D4 00 01 31 C2
 0.200202 1  251             Rx   d 8 00 00 00 00 00 00 00 00
 0.202183 1  252             Rx   d 8 00 00 00 01 00 00 00 00
 0.204180 1  253             Rx   d 8 00 00 00 00 00 00 00 00
 0.206205 1  254             Rx   d 8 00 00 00 02 00 00 00 00
 0.208239 1  241             Rx   d 8 AA 00 00 00 00 00 00 F7
 0.211085 1  221             Rx   d 8 00 00 00 00 00 00 00 00
 0.211309 1  311             Rx   d 8 00 01 0D D4 00 01 31 C2
 0.219276 1  261             Rx   d 8 01 24 00 19 1E 00 00 00
 0.220276 1  251             Rx   d 8 00 00 00 00 00 00 00 00
 0.222210 1  252             Rx   d 8 00 00 00 01 00 00 00 00
 0.224213 1  253             Rx   d 8 00 00 00 00 00 00 00 00
 0.226223 1  254             Rx   d 8 00 00 00 02 00 00 00 00
 0.228252 1  241             Rx   d 8 AA 00 00 00 00 00 00 F8
 0.230209 1  262             Rx   d 8 01 22 00 1A 1E 00 00 00
 0.231077 1  221             Rx   d 8 00 00 00 00 00 00 00 00
 0.231332 1  311             Rx   d 8 00 01 0D D4 00 01 31 C2
 0.238327 1  211             Rx   d 8 00 01 01 19 00 00 00 00
 0.240274 1  251             Rx   d 8 00 00 00 00 00 00 00 00
 0.241311 1  263             Rx   d 8 01 23 00 1A 1E 00 00 00
 0.242316 1  252             Rx   d 8 00 00 00 01 00 00 00 00
 0.244308 1  253             Rx   d 8 00 00 00 00 00 00 00 00
 0.246274 1  254             Rx   d 8 00 00 00 02 00 00 00 00
 0.248293 1  241             Rx   d 8 AA 00 00 00 00 00 00 F9
 0.251082 1  221             Rx   d 8 00 00 00 00 00 00 00 00
 0.251311 1  311             Rx   d 8 00 01 0D D4 00 01 31 C2
 0.252235 1  264             Rx   d 8 01 22 00 19 1E 00 00 00
 0.260324 1  251             Rx   d 8 00 00 00 00 00 00 00 00
 0.262341 1  252             Rx   d 8 00 00 00 01 00 00 00 00
 0.264320 1  253             Rx   d 8 00 00 00 00 00 00 00 00
 0.266455 1  254             Rx   d 8 00 00 00 02 00 00 00 00
 0.268341 1  241             Rx   d 8 AA 00 00 00 00 00 00 FA
 0.271094 1  221             Rx   d 8 00 00 00 00 00 00 00 00
 0.271316 1  311             Rx   d 8 00 01 0D D4 00 01 31 C2
 0.280263 1  251             Rx   d 8 00 00 00 00 00 00 00 00
 0.282338 1  252             Rx   d 8 00 00 00 01 00 00 00 00
 0.284326 1  253             Rx   d 8 00 00 00 00 00 00 00 00
 0.286335 1  254             Rx   d 8 00 00 00 02 00 00 00 00
 0.288285 1  241             Rx   d 8 AA 00 00 00 00 00 00 FB
 0.291094 1  221             Rx   d 8 00 00 00 00 00 00 00 00
 0.291342 1  311             Rx   d 8 00 01 0D D4 00 01 31 C2
 0.300251 1  251             Rx   d 8 00 00 00 00 00 00 00 00
 0.302336 1  252             Rx   d 8 00 00 00 01 00 00 00 00
 0.304288 1  253             Rx   d 8 00 00 00 00 00 00 00 00
 0.306338 1  254             Rx   d 8 00 00 00 02 00 00 00 00
 0.308327 1  241             Rx   d 8 AA 00 00 00 00 00 00 FC
 0.311165 1  221             Rx   d 8 00 00 00 00 00 00 00 00
 0.311339 1  311             Rx   d 8 00 01 0D D4 00 01 31 C2
 0.319312 1  261             Rx   d 8 01 24 00 19 1E 00 00 00
 0.320310 1  251             Rx   d 8 00 00 00 00 00 00 00 00
 0.322312 1  252             Rx   d 8 00 00 00 01 00 00 00 00
 0.324282 1  253             Rx   d 8 00 00 00 00 00 00 00 00
 0.326354 1  254             Rx   d 8 00 00 00 02 00 00 00 00
 0.328365 1  241             Rx   d 8 AA 00 00 00 00 00 00 FD
 0.330312 1  262             Rx   d 8 01 22 00 1A 1E 00 00 00
 0.331125 1  221             Rx   d 8 00 00 00 00 00 00 00 00
 0.331362 1  311             Rx   d 8 00 01 0D D4 00 01 31 C2
 0.340341 1  251             Rx   d 8 00 00 00 00 00 00 00 00
 0.341312 1  263             Rx   d 8 01 23 00 1A 1E 00 00 00
 0.342335 1  252             Rx   d 8 00 00 00 01 00 00 00 00
 0.344353 1  253             Rx   d 8 00 00 00 00 00 00 00 00
 0.346408 1  254             Rx   d 8 00 00 00 02 00 00 00 00
 0.348387 1  241             Rx   d 8 AA 00 00 00 00 00 00 FE
 0.351165 1  221             Rx   d 8 00 00 00 00 00 00 00 00
 0.351352 1  311             Rx   d 8 00 01 0D D4 00 01 31 C2
 0.352368 1  264             Rx   d 8 01 22 00 19 1E 00 00 00
 0.358415 1  231             Rx   d 8 00 00 00 02 21 00 00 00
 0.360336 1  251             Rx   d 8 00 00 00 00 00 00 00 00
 0.362363 1  252             Rx   d 8 00 00 00 01 00 00 00 00
 0.364364 1  253             Rx   d 8 00 00 00 00 00 00 00 00
 0.366417 1  254             Rx   d 8 00 00 00 02 00 00 00 00
 0.368374 1  241             Rx   d 8 AA 00 00 00 00 00 00 FF
 0.371168 1  221             Rx   d 8 00 00 00 00 00 00 00 00
 0.371336 1  311             Rx   d 8 00 01 0D D4 00 01 31 C2
 0.380399 1  251             Rx   d 8 00 00 00 00 00 00 00 00
 0.382366 1  252             Rx   d 8 00 00 00 01 00 00 00 00
 0.384392 1  253             Rx   d 8 00 00 00 00 00 00 00 00
 0.386367 1  254             Rx   d 8 00 00 00 02 00 00 00 00
 0.388425 1  241             Rx   d 8 AA 00 00 00 00 00 00 00
 0.391167 1  221             Rx   d 8 00 00 00 00 00 00 00 00
 0.391344 1  311             Rx   d 8 00 01 0D D4 00 01 31 C2
 0.400396 1  251             Rx   d 8 00 00 00 00 00 00 00 00
 0.402395 1  252             Rx   d 8 00 00 00 01 00 00 00 00
 0.404391 1  253             Rx   d 8 00 00 00 00 00 00 00 00
 0.406395 1  254             Rx   d 8 00 00 00 02 00 00 00 00
 0.408444 1  241             Rx   d 8 AA 00 00 00 00 00 00 01
 0.411118 1  221             Rx   d 8 00 00 00 00 00 00 00 00
 0.411344 1  311             Rx   d 8 00 01 0D D4 00 01 31 C2
 0.419427 1  261             Rx   d 8 01 24 00 19 1E 00 00 00
 0.420417 1  251             Rx   d 8 00 00 00 00 00 00 00 00
 0.422417 1  252             Rx   d 8 00 00 00 01 00 00 00 00
 0.424417 1  253             Rx   d 8 00 00 00 00 00 00 00 00
 0.426417 1  254             Rx   d 8 00 00 00 02 00 00 00 00
 0.428466 1  241             Rx   d 8 AA 00 00 00 00 00 00 02
 0.430416 1  262             Rx   d 8 01 22 00 1A 1E 00 00 00
 0.431164 1  221             Rx   d 8 00 00 00 00 00 00 00 00
 0.431343 1  311             Rx   d 8 00 01 0D D4 00 01 31 C2
 0.438463 1  211             Rx   d 8 00 01 01 19 00 00 00 00
 0.440438 1  251             Rx   d 8 00 00 00 00 00 00 00 00
 0.441438 1  263             Rx   d 8 01 23 00 19 1E 00 00 00
 0.442438 1  252             Rx   d 8 00 00 00 01 00 00 00 00
 0.444439 1  253             Rx   d 8 00 00 00 00 00 00 00 00
 0.446439 1  254             Rx   d 8 00 00 00 02 00 00 00 00
 0.448498 1  241             Rx   d 8 AA 00 00 00 00 00 00 03
 0.451169 1  221             Rx   d 8 00 00 00 00 00 00 00 00
 0.451343 1  311             Rx   d 8 00 01 0D D4 00 01 31 C2
 0.452444 1  264             Rx   d 8 01 22 00 19 1E 00 00 00
 0.460450 1  251             Rx   d 8 00 00 00 00 00 00 00 00
 0.462474 1  252             Rx   d 8 00 00 00 01 00 00 00 00
 0.464466 1  253             Rx   d 8 00 00 00 00 00 00 00 00
 0.466477 1  254             Rx   d 8 00 00 00 02 00 00 00 00
 0.468493 1  241             Rx   d 8 AA 00 00 00 00 00 00 04
 0.471120 1  221             Rx   d 8 00 00 00 00 00 00 00 00
 0.471345 1  311             Rx   d 8 00 01 0D D4 00 01 31 C2
 0.480481 1  251             Rx   d 8 00 00 00 00 00 00 00 00
 0.482471 1  252             Rx   d 8 00 00 00 01 00 00 00 00
 0.484492 1  253             Rx   d 8 00 00 00 00 00 00 00 00
 0.486495 1  254             Rx   d 8 00 00 00 02 00 00 00 00
 0.488518 1  241             Rx   d 8 AA 00 00 00 00 00 00 05
 0.491118 1  221             Rx   d 8 00 00 00 00 00 00 00 00
 0.491347 1  311             Rx   d 8 00 01 0D D4 00 01 31 C2
 0.500505 1  251             Rx   d 8 00 00 00 00 00 00 00 00
 0.502496 1  252             Rx   d 8 00 00 00 01 00 00 00 00
 0.504519 1  253             Rx   d 8 00 00 00 00 00 00 00 00
 0.506518 1  254             Rx   d 8 00 00 00 02 00 00 00 00
 0.508569 1  241             Rx   d 8 AA 00 00 00 00 00 00 06
 0.511117 1  221             Rx   d 8 00 00 00 00 00 00 00 00
 0.511349 1  311             Rx   d 8 00 01 0D D4 00 01 31 C2
 0.519570 1  261             Rx   d 8 01 24 00 19 1E 00 00 00
 0.520640 1  251             Rx   d 8 00 00 00 00 00 00 00 00
 0.522515 1  252             Rx   d 8 00 00 00 01 00 00 00 00
 0.524519 1  253             Rx   d 8 00 00 00 00 00 00 00 00
 0.526519 1  254             Rx   d 8 00 00 00 02 00 00 00 00
 0.528544 1  241             Rx   d 8 AA 00 00 00 00 00 00 07
 0.530520 1  262             Rx   d 8 01 22 00 1A 1E 00 00 00
 0.531118 1  221             Rx   d 8 00 00 00 00 00 00 00 00
 0.531376 1  311             Rx   d 8 00 01 0D D4 00 01 31 C2
 0.540538 1  251             Rx   d 8 00 00 00 00 00 00 00 00
 0.541518 1  263             Rx   d 8 01 23 00 19 1E 00 00 00
 0.542548 1  252             Rx   d 8 00 00 00 01 00 00 00 00
 0.544539 1  253             Rx   d 8 00 00 00 00 00 00 00 00
 0.546540 1  254             Rx   d 8 00 00 00 02 00 00 00 00
 0.548590 1  241             Rx   d 8 AA 00 00 00 00 00 00 08
 0.551140 1  221             Rx   d 8 00 00 00 00 00 00 00 00
 0.551365 1  311             Rx   d 8 00 01 0D D4 00 01 31 C2
 0.552540 1  264             Rx   d 8 01 22 00 19 1E 00 00 00
 0.560662 1  251             Rx   d 8 00 00 00 00 00 00 00 00
 0.562691 1  252             Rx   d 8 00 00 00 01 00 00 00 00
 0.564577 1  253             Rx   d 8 00 00 00 00 00 00 00 00
 0.566566 1  254             Rx   d 8 00 00 00 02 00 00 00 00
 0.568614 1  241             Rx   d 8 AA 00 00 00 00 00 00 09
 0.571115 1  221             Rx   d 8 00 00 00 00 00 00 00 00
 0.571373 1  311             Rx   d 8 00 01 0D D4 00 01 31 C2
 0.580593 1  251             Rx   d 8 00 00 00 00 00 00 00 00
 0.582571 1  252             Rx   d 8 00 00 00 01 00 00 00 00
 0.584687 1  253             Rx   d 8 00 00 00 00 00 00 00 00
 0.586608 1  254             Rx   d 8 00 00 00 02 00 00 00 00
 0.588619 1  241             Rx   d 8 AA 00 00 00 00 00 00 0A
 0.591111 1  221             Rx   d 8 00 00 00 00 00 00 00 00
 0.591368 1  311             Rx   d 8 00 01 0D D4 00 01 31 C2
 0.593189 1  421             Tx   d 1 01
 0.600588 1  251             Rx   d 8 00 00 00 00 00 00 00 00
 0.602657 1  252             Rx   d 8 00 00 00 01 00 00 00 00
 0.604589 1  253             Rx   d 8 00 00 00 00 00 00 00 00
 0.606636 1  254             Rx   d 8 00 00 00 02 00 00 00 00
 0.608637 1  241             Rx   d 8 AA 00 00 00 00 00 00 0B
 0.611132 1  221             Rx   d 8 00 00 00 00 00 00 00 00
 0.611357 1  311             Rx   d 8 00 01 0D D4 00 01 31 C2
 0.619664 1  261             Rx   d 8 01 23 00 19 1E 00 00 00
 0.620614 1  251             Rx   d 8 00 00 00 00 00 00 00 00
 0.622610 1  252             Rx   d 8 00 00 00 02 00 00 00 00
 0.624634 1  253             Rx   d 8 00 00 00 00 00 00 00 00
 0.626613 1  254             Rx   d 8 00 00 00 02 00 00 00 00
 0.628663 1  241             Rx   d 8 AA 00 00 00 00 00 00 0C
 0.630611 1  262             Rx   d 8 01 22 00 1A 1E 00 00 00
 0.631144 1  221             Rx   d 8 00 00 00 00 00 00 00 00
 0.631364 1  311             Rx   d 8 00 01 0D D4 00 01 31 C2
 0.638689 1  211             Rx   d 8 00 01 01 19 00 00 00 00
 0.640636 1  251             Rx   d 8 00 00 00 00 00 00 00 00
 0.641666 1  263             Rx   d 8 01 23 00 1A 1E 00 00 00
 0.642661 1  252             Rx   d 8 00 00 00 02 00 00 00 00
 0.644697 1  253             Rx   d 8 00 00 00 00 00 00 00 00
 0.646639 1  254             Rx   d 8 00 00 00 02 00 00 00 00
 0.648700 1  241             Rx   d 8 AA 00 00 00 00 00 00 0D
 0.651141 1  221             Rx   d 8 00 00 00 00 00 00 00 00
 0.651368 1  311             Rx   d 8 00 01 0D D4 00 01 31 C2
 0.652643 1  264             Rx   d 8 01 22 00 19 1E 00 00 00
 0.660646 1  251             Rx   d 8 00 00 00 00 00 00 00 00
 0.662696 1  252             Rx   d 8 00 00 00 02 00 00 00 00
 0.664738 1  253             Rx   d 8 00 00 00 00 00 00 00 00
 0.666669 1  254             Rx   d 8 00 00 00 02 00 00 00 00
 0.668721 1  241             Rx   d 8 AA 00 00 00 00 00 00 0E
 0.671220 1  221             Rx   d 8 00 00 00 00 00 00 00 00
 0.671379 1  311             Rx   d 8 00 01 0D D4 00 01 31 C2
 0.680695 1  251             Rx   d 8 00 00 00 00 00 00 00 00
 0.682662 1  252             Rx   d 8 00 00 00 01 00 00 00 00
 0.684669 1  253             Rx   d 8 00 00 00 00 00 00 00 00
 0.686665 1  254             Rx   d 8 00 00 00 02 00 00 00 00
 0.688693 1  241             Rx   d 8 AA 00 00 00 00 00 00 0F
 0.691139 1  221             Rx   d 8 00 00 00 00 00 00 00 00
 0.691368 1  311             Rx   d 8 00 01 0D D4 00 01 31 C2
 0.700689 1  251             Rx   d 8 00 00 00 00 00 00 00 00
 0.702659 1  252             Rx   d 8 00 00 00 01 00 00 00 00
 0.704658 1  253             Rx   d 8 00 00 00 00 00 00 00 00
 0.706690 1  254             Rx   d 8 00 00 00 02 00 00 00 00
 0.708777 1  241             Rx   d 8 AA 00 00 00 00 00 00 10
 0.711138 1  221             Rx   d 8 00 00 00 00 00 00 00 00
 0.711364 1  311             Rx   d 8 00 01 0D D4 00 01 31 C2
 0.719691 1  261             Rx   d 8 01 23 00 19 1E 00 00 00
 0.720716 1  251             Rx   d 8 00 00 00 00 00 00 00 00
 0.722715 1  252             Rx   d 8 00 00 00 01 00 00 00 00
 0.724736 1  253             Rx   d 8 00 00 00 00 00 00 00 00
 0.726773 1  254             Rx   d 8 00 00 00 02 00 00 00 00
 0.728790 1  241             Rx   d 8 AA 00 00 00 00 00 00 11
 0.730771 1  262             Rx   d 8 01 22 00 1A 1E 00 00 00
 0.731212 1  221             Rx   d 8 00 00 00 00 00 00 00 00
 0.731369 1  311             Rx   d 8 00 01 0D D4 00 01 31 C2
 0.740746 1  251             Rx   d 8 00 00 00 00 00 00 00 00
 0.741725 1  263             Rx   d 8 01 23 00 1A 1E 00 00 00
 0.742744 1  252             Rx   d 8 00 00 00 01 00 00 00 00
 0.744745 1  253             Rx   d 8 00 00 00 00 00 00 00 00
 0.746799 1  254             Rx   d 8 00 00 00 02 00 00 00 00
 0.748802 1  241             Rx   d 8 AA 00 00 00 00 00 00 12
 0.751146 1  221             Rx   d 8 00 00 00 00 00 00 00 00
 0.751369 1  311             Rx   d 8 00 01 0D D4 00 01 31 C2
 0.752708 1  264             Rx   d 8 01 22 00 19 1E 00 00 00
 0.760718 1  251             Rx   d 8 00 00 00 00 00 00 00 00
 0.762749 1  252             Rx   d 8 00 00 00 01 00 00 00 00
 0.764729 1  253             Rx   d 8 00 00 00 00 00 00 00 00
 0.766734 1  254             Rx   d 8 00 00 00 02 00 00 00 00
 0.768785 1  241             Rx   d 8 AA 00 00 00 00 00 00 13
 0.771117 1  221             Rx   d 8 00 00 00 00 00 00 00 00
 0.771363 1  311             Rx   d 8 00 01 0D D4 00 01 31 C2
 0.780738 1  251             Rx   d 8 00 00 00 00 00 00 00 00
 0.782736 1  252             Rx   d 8 00 00 00 01 00 00 00 00
 0.784769 1  253             Rx   d 8 00 00 00 00 00 00 00 00
 0.786762 1  254             Rx   d 8 00 00 00 02 00 00 00 00
 0.788784 1  241             Rx   d 8 AA 00 00 00 00 00 00 14
 0.791109 1  221             Rx   d 8 00 00 00 00 00 00 00 00
 0.791358 1  311             Rx   d 8 00 01 0D D4 00 01 31 C2
 0.800774 1  251             Rx   d 8 00 00 00 00 00 00 00 00
 0.802763 1  252             Rx   d 8 00 00 00 01 00 00 00 00
 0.804761 1  253             Rx   d 8 00 00 00 00 00 00 00 00
 0.806783 1  254             Rx   d 8 00 00 00 02 00 00 00 00
 0.808835 1  241             Rx   d 8 AA 00 00 00 00 00 00 15
 0.811109 1  221             Rx   d 8 00 00 00 00 00 00 00 00
 0.811359 1  311             Rx   d 8 00 01 0D D4 00 01 31 C2
 0.819789 1  261             Rx   d 8 01 23 00 19 1E 00 00 00
 0.820784 1  251             Rx   d 8 00 00 00 00 00 00 00 00
 0.822784 1  252             Rx   d 8 00 00 00 01 00 00 00 00
 0.824784 1  253             Rx   d 8 00 00 00 00 00 00 00 00
 0.826785 1  254             Rx   d 8 00 00 00 02 00 00 00 00
 0.828836 1  241             Rx   d 8 AA 00 00 00 00 00 00 16
 0.830821 1  262             Rx   d 8 01 22 00 1A 1E 00 00 00
 0.831160 1  221             Rx   d 8 00 00 00 00 00 00 00 00
 0.831358 1  311             Rx   d 8 00 01 0D D4 00 01 31 C2
 0.838891 1  211             Rx   d 8 00 01 01 19 00 00 00 00
 0.840842 1  251             Rx   d 8 00 00 00 00 00 00 00 00
 0.841802 1  263             Rx   d 8 01 23 00 19 1E 00 00 00
 0.842847 1  252             Rx   d 8 00 00 00 01 00 00 00 00
 0.844843 1  253             Rx   d 8 00 00 00 00 00 00 00 00
 0.846842 1  254             Rx   d 8 00 00 00 02 00 00 00 00
 0.848893 1  241             Rx   d 8 AA 00 00 00 00 00 00 17
 0.851142 1  221             Rx   d 8 00 00 00 00 00 00 00 00
 0.851392 1  311             Rx   d 8 00 01 0D D4 00 01 31 C2
 0.852846 1  264             Rx   d 8 01 21 00 19 1E 00 00 00
 0.858914 1  231             Rx   d 8 00 00 00 02 0D 00 00 00
 0.860848 1  251             Rx   d 8 00 00 00 00 00 00 00 00
 0.862838 1  252             Rx   d 8 00 00 00 01 00 00 00 00
 0.864862 1  253             Rx   d 8 00 00 00 00 00 00 00 00
 0.866864 1  254             Rx   d 8 00 00 00 02 00 00 00 00
 0.868870 1  241             Rx   d 8 AA 00 00 00 00 00 00 18
 0.871141 1  221             Rx   d 8 00 00 00 00 00 00 00 00
 0.871383 1  311             Rx   d 8 00 01 0D D4 00 01 31 C2
 0.880873 1  251             Rx   d 8 00 00 00 00 00 00 00 00
 0.882867 1  252             Rx   d 8 00 00 00 01 00 00 00 00
 0.884838 1  253             Rx   d 8 00 00 00 00 00 00 00 00
 0.886862 1  254             Rx   d 8 00 00 00 02 00 00 00 00
 0.888918 1  241             Rx   d 8 AA 00 00 00 00 00 00 19
 0.891196 1  221             Rx   d 8 00 00 00 00 00 00 00 00
 0.891393 1  311             Rx   d 8 00 01 0D D4 00 01 31 C2
 0.900896 1  251             Rx   d 8 00 00 00 00 00 00 00 00
 0.902862 1  252             Rx   d 8 00 00 00 01 00 00 00 00
 0.904862 1  253             Rx   d 8 00 00 00 00 00 00 00 00
 0.906861 1  254             Rx   d 8 00 00 00 02 00 00 00 00
 0.908937 1  241             Rx   d 8 AA 00 00 00 00 00 00 1A
 0.911162 1  221             Rx   d 8 00 00 00 00 00 00 00 00
 0.911358 1  311             Rx   d 8 00 01 0D D4 00 01 31 C2
 0.919897 1  261             Rx   d 8 01 23 00 19 1E 00 00 00
 0.920919 1  251             Rx   d 8 00 00 00 00 00 00 00 00
 0.922912 1  252             Rx   d 8 00 00 00 01 00 00 00 00
 0.924887 1  253             Rx   d 8 00 00 00 00 00 00 00 00
 0.926936 1  254             Rx   d 8 00 00 00 02 00 00 00 00
 0.928967 1  241             Rx   d 8 AA 00 00 00 00 00 00 1B
 0.930918 1  262             Rx   d 8 01 22 00 1A 1E 00 00 00
 0.931192 1  221             Rx   d 8 00 00 00 00 00 00 00 00
 0.931391 1  311             Rx   d 8 00 01 0D D4 00 01 31 C2
 0.940945 1  251             Rx   d 8 00 00 00 00 00 00 00 00
 0.941935 1  263             Rx   d 8 01 22 00 19 1E 00 00 00
 0.942913 1  252             Rx   d 8 00 00 00 01 00 00 00 00
 0.944912 1  253             Rx   d 8 00 00 00 00 00 00 00 00
 0.946950 1  254             Rx   d 8 00 00 00 02 00 00 00 00
 0.948994 1  241             Rx   d 8 AA 00 00 00 00 00 00 1C
 0.951192 1  221             Rx   d 8 00 00 00 00 00 00 00 00
 0.951384 1  311             Rx   d 8 00 01 0D D4 00 01 31 C2
 0.952913 1  264             Rx   d 8 01 22 00 19 1E 00 00 00
 0.960972 1  251             Rx   d 8 00 00 00 00 00 00 00 00
 0.962976 1  252             Rx   d 8 00 00 00 01 00 00 00 00
 0.964939 1  253             Rx   d 8 00 00 00 00 00 00 00 00
 0.966937 1  254             Rx   d 8 00 00 00 02 00 00 00 00
 0.968989 1  241             Rx   d 8 AA 00 00 00 00 00 00 1D
 0.971162 1  221             Rx   d 8 00 00 00 00 00 00 00 00
 0.971386 1  311             Rx   d 8 00 01 0D D4 00 01 31 C2
 0.980988 1  251             Rx   d 8 00 00 00 00 00 00 00 00
 0.982997 1  252             Rx   d 8 00 00 00 01 00 00 00 00
 0.984969 1  253             Rx   d 8 00 00 00 00 00 00 00 00
 0.986968 1  254             Rx   d 8 00 00 00 02 00 00 00 00
 0.989045 1  241             Rx   d 8 AA 00 00 00 00 00 00 1E
 0.991198 1  221             Rx   d 8 00 00 00 00 00 00 00 00
 0.991378 1  311             Rx   d 8 00 01 0D D4 00 01 31 C2
 1.001004 1  251             Rx   d 8 00 00 00 00 00 00 00 00
 1.003000 1  252             Rx   d 8 00 00 00 01 00 00 00 00
 1.005014 1  253             Rx   d 8 00 00 00 00 00 00 00 00
 1.006999 1  254             Rx   d 8 00 00 00 02 00 00 00 00
 1.009075 1  241             Rx   d 8 AA 00 00 00 00 00 00 1F
 1.011201 1  221             Rx   d 8 00 00 00 00 00 00 00 00
 1.011397 1  311             Rx   d 8 00 01 0D D4 00 01 31 C2
 1.020003 1  261             Rx   d 8 01 23 00 19 1E 00 00 00
 1.020990 1  251             Rx   d 8 00 00 00 00 00 00 00 00
 1.023022 1  252             Rx   d 8 00 00 00 01 00 00 00 00
 1.025027 1  253             Rx   d 8 00 00 00 00 00 00 00 00
 1.027025 1  254             Rx   d 8 00 00 00 02 00 00 00 00
 1.029043 1  241             Rx   d 8 AA 00 00 00 00 00 00 20
 1.031014 1  262             Rx   d 8 01 22 00 1A 1E 00 00 00
 1.031284 1  221             Rx   d 8 00 00 00 00 00 00 00 00
 1.031497 1  311             Rx   d 8 00 01 0D D4 00 01 31 C2
 1.039074 1  211             Rx   d 8 00 01 01 19 00 00 00 00
 1.041050 1  251             Rx   d 8 00 00 00 00 00 00 00 00
 1.041995 1  263             Rx   d 8 01 23 00 1A 1E 00 00 00
 1.043050 1  252             Rx   d 8 00 00 00 01 00 00 00 00
 1.045015 1  253             Rx   d 8 00 00 00 00 00 00 00 00
 1.047014 1  254             Rx   d 8 00 00 00 02 00 00 00 00
 1.049048 1  241             Rx   d 8 AA 00 00 00 00 00 00 21
 1.051200 1  221             Rx   d 8 00 00 00 00 00 00 00 00
 1.051422 1  311             Rx   d 8 00 01 0D D4 00 01 31 C2
 1.053050 1  264             Rx   d 8 01 22 00 19 1E 00 00 00
 1.061049 1  251             Rx   d 8 00 00 00 00 00 00 00 00
 1.063041 1  252             Rx   d 8 00 00 00 01 00 00 00 00
 1.065076 1  253             Rx   d 8 00 00 00 00 00 00 00 00
 1.067076 1  254             Rx   d 8 00 00 00 02 00 00 00 00
 1.069103 1  241             Rx   d 8 AA 00 00 00 00 00 00 22
 1.071167 1  221             Rx   d 8 00 00 00 00 00 00 00 00
 1.071413 1  311             Rx   d 8 00 01 0D D4 00 01 31 C2
 1.081076 1  251             Rx   d 8 00 00 00 00 00 00 00 00
 1.083075 1  252             Rx   d 8 00 00 00 01 00 00 00 00
 1.085077 1  253             Rx   d 8 00 00 00 00 00 00 00 00
 1.087100 1  254             Rx   d 8 00 00 00 02 00 00 00 00
 1.089138 1  241             Rx   d 8 AA 00 00 00 00 00 00 23
 1.091166 1  221             Rx   d 8 00 00 00 00 00 00 00 00
 1.091386 1  311             Rx   d 8 00 01 0D D4 00 01 31 C2
 1.101099 1  251             Rx   d 8 00 00 00 00 00 00 00 00
 1.103103 1  252             Rx   d 8 00 00 00 01 00 00 00 00
 1.105105 1  253             Rx   d 8 00 00 00 00 00 00 00 00
 1.107104 1  254             Rx   d 8 00 00 00 02 00 00 00 00
 1.109208 1  241             Rx   d 8 AA 00 00 00 00 00 00 24
 1.111198 1  221             Rx   d 8 00 00 00 00 00 00 00 00
 1.111421 1  311             Rx   d 8 00 01 0D D4 00 01 31 C2
 1.120104 1  261             Rx   d 8 01 24 00 19 1E 00 00 00
 1.121131 1  251             Rx   d 8 00 00 00 00 00 00 00 00
 1.123130 1  252             Rx   d 8 00 00 00 01 00 00 00 00
 1.125093 1  253             Rx   d 8 00 00 00 00 00 00 00 00
 1.127117 1  254             Rx   d 8 00 00 00 02 00 00 00 00
 1.129167 1  241             Rx   d 8 AA 00 00 00 00 00 00 25
 1.131128 1  262             Rx   d 8 01 22 00 1A 1E 00 00 00
 1.131383 1  221             Rx   d 8 00 00 00 00 00 00 00 00
 1.131608 1  311             Rx   d 8 00 01 0D D4 00 01 31 C2
 1.141203 1  251             Rx   d 8 00 00 00 00 00 00 00 00
 1.142149 1  263             Rx   d 8 01 23 00 19 1E 00 00 00
 1.143202 1  252             Rx   d 8 00 00 00 01 00 00 00 00
 1.145202 1  253             Rx   d 8 00 00 00 00 00 00 00 00
 1.147202 1  254             Rx   d 8 00 00 00 02 00 00 00 00
 1.149202 1  241             Rx   d 8 AA 00 00 00 00 00 00 26
 1.151200 1  221             Rx   d 8 00 00 00 00 00 00 00 00
 1.151424 1  311             Rx   d 8 00 01 0D D4 00 01 31 C2
 1.153167 1  264             Rx   d 8 01 22 00 19 1E 00 00 00
 1.161206 1  251             Rx   d 8 00 00 00 00 00 00 00 00
 1.163198 1  252             Rx   d 8 00 00 00 01 00 00 00 00
 1.165200 1  253             Rx   d 8 00 00 00 00 00 00 00 00
 1.167186 1  254             Rx   d 8 00 00 00 02 00 00 00 00
 1.169202 1  241             Rx   d 8 AA 00 00 00 00 00 00 27
 1.171200 1  221             Rx   d 8 00 00 00 00 00 00 00 00
 1.171424 1  311             Rx   d 8 00 01 0D D4 00 01 31 C2
 1.181203 1  251             Rx   d 8 00 00 00 00 00 00 00 00
 1.183197 1  252             Rx   d 8 00 00 00 01 00 00 00 00
 1.185203 1  253             Rx   d 8 00 00 00 00 00 00 00 00
 1.187200 1  254             Rx   d 8 00 00 00 02 00 00 00 00
 1.189257 1  241             Rx   d 8 AA 00 00 00 00 00 00 28
 1.191169 1  221             Rx   d 8 00 00 00 00 00 00 00 00
 1.191416 1  311             Rx   d 8 00 01 0D D4 00 01 31 C2
 1.201198 1  251             Rx   d 8 00 00 00 00 00 00 00 00
 1.203203 1  252             Rx   d 8 00 00 00 01 00 00 00 00
 1.205199 1  253             Rx   d 8 00 00 00 00 00 00 00 00
 1.207196 1  254             Rx   d 8 00 00 00 02 00 00 00 00
 1.209274 1  241             Rx   d 8 AA 00 00 00 00 00 00 29
 1.211198 1  221             Rx   d 8 00 00 00 00 00 00 00 00
 1.211448 1  311             Rx   d 8 00 01 0D D4 00 01 31 C2
 1.220234 1  261             Rx   d 8 01 24 00 19 1E 00 00 00
 1.221222 1  251             Rx   d 8 00 00 00 00 00 00 00 00
 1.223193 1  252             Rx   d 8 00 00 00 01 00 00 00 00
 1.225224 1  253             Rx   d 8 00 00 00 00 00 00 00 00
 1.227217 1  254             Rx   d 8 00 00 00 02 00 00 00 00
 1.229272 1  241             Rx   d 8 AA 00 00 00 00 00 00 2A
 1.231200 1  221             Rx   d 8 00 00 00 00 00 00 00 00
 1.231439 1  311             Rx   d 8 00 01 0D D4 00 01 31 C2
 1.231689 1  262             Rx   d 8 01 22 00 1A 1E 00 00 00
 1.239319 1  211             Rx   d 8 00 01 01 19 00 00 00 00
 1.241237 1  251             Rx   d 8 00 00 00 00 00 00 00 00
 1.242240 1  263             Rx   d 8 01 23 00 1A 1E 00 00 00
 1.243265 1  252             Rx   d 8 00 00 00 01 00 00 00 00
 1.245265 1  253             Rx   d 8 00 00 00 00 00 00 00 00
 1.247266 1  254             Rx   d 8 00 00 00 02 00 00 00 00
 1.249292 1  241             Rx   d 8 AA 00 00 00 00 00 00 2B
 1.251204 1  221             Rx   d 8 00 00 00 00 00 00 00 00
 1.251462 1  311             Rx   d 8 00 01 0D D4 00 01 31 C2
 1.253270 1  264             Rx   d 8 01 21 00 19 1E 00 00 00
 1.261291 1  251             Rx   d 8 00 00 00 00 00 00 00 00
 1.263288 1  252             Rx   d 8 00 00 00 01 00 00 00 00
 1.265291 1  253             Rx   d 8 00 00 00 00 00 00 00 00
 1.267281 1  254             Rx   d 8 00 00 00 02 00 00 00 00
 1.269315 1  241             Rx   d 8 AA 00 00 00 00 00 00 2C
 1.271217 1  221             Rx   d 8 00 00 00 00 00 00 00 00
 1.271439 1  311             Rx   d 8 00 01 0D D4 00 01 31 C2
 1.281245 1  251             Rx   d 8 00 00 00 00 00 00 00 00
 1.283246 1  252             Rx   d 8 00 00 00 01 00 00 00 00
 1.285245 1  253             Rx   d 8 00 00 00 00 00 00 00 00
 1.287246 1  254             Rx   d 8 00 00 00 02 00 00 00 00
 1.289293 1  241             Rx   d 8 AA 00 00 00 00 00 00 2D
 1.291169 1  221             Rx   d 8 00 00 00 00 00 00 00 00
 1.291417 1  311             Rx   d 8 00 01 0D D4 00 01 31 C2
 1.301270 1  251             Rx   d 8 00 00 00 00 00 00 00 00
 1.303273 1  252             Rx   d 8 00 00 00 01 00 00 00 00
 1.305269 1  253             Rx   d 8 00 00 00 00 00 00 00 00
 1.307269 1  254             Rx   d 8 00 00 00 02 00 00 00 00
 1.309344 1  241             Rx   d 8 AA 00 00 00 00 00 00 2E
 1.311168 1  221             Rx   d 8 00 00 00 00 00 00 00 00
 1.311416 1  311             Rx   d 8 00 01 0D D4 00 01 31 C2
 1.320272 1  261             Rx   d 8 01 23 00 19 1E 00 00 00
 1.321293 1  251             Rx   d 8 00 00 00 00 00 00 00 00
 1.323294 1  252             Rx   d 8 00 00 00 01 00 00 00 00
 1.325297 1  253             Rx   d 8 00 00 00 00 00 00 00 00
 1.327296 1  254             Rx   d 8 00 00 00 02 00 00 00 00
 1.329321 1  241             Rx   d 8 AA 00 00 00 00 00 00 2F
 1.331191 1  221             Rx   d 8 00 00 00 00 00 00 00 00
 1.331437 1  311             Rx   d 8 00 01 0D D4 00 01 31 C2
 1.331668 1  262             Rx   d 8 01 22 00 1A 1E 00 00 00
 1.341329 1  251             Rx   d 8 00 00 00 00 00 00 00 00
 1.342326 1  263             Rx   d 8 01 23 00 1A 1E 00 00 00
 1.343351 1  252             Rx   d 8 00 00 00 01 00 00 00 00
 1.345330 1  253             Rx   d 8 00 00 00 00 00 00 00 00
 1.347356 1  254             Rx   d 8 00 00 00 02 00 00 00 00
 1.349408 1  241             Rx   d 8 AA 00 00 00 00 00 00 30
 1.351231 1  221             Rx   d 8 00 00 00 00 00 00 00 00
 1.351455 1  311             Rx   d 8 00 01 0D D4 00 01 31 C2
 1.353354 1  264             Rx   d 8 01 22 00 19 1E 00 00 00
 1.359432 1  231             Rx   d 8 00 00 00 02 07 00 00 00
 1.361358 1  251             Rx   d 8 00 00 00 00 00 00 00 00
 1.363357 1  252             Rx   d 8 00 00 00 01 00 00 00 00
 1.365357 1  253             Rx   d 8 00 00 00 00 00 00 00 00
 1.367351 1  254             Rx   d 8 00 00 00 02 00 00 00 00
 1.369403 1  241             Rx   d 8 AA 00 00 00 00 00 00 31
 1.371201 1  221             Rx   d 8 00 00 00 00 00 00 00 00
 1.371449 1  311             Rx   d 8 00 01 0D D4 00 01 31 C2
 1.381385 1  251             Rx   d 8 00 00 00 00 00 00 00 00
 1.383385 1  252             Rx   d 8 00 00 00 01 00 00 00 00
 1.385381 1  253             Rx   d 8 00 00 00 00 00 00 00 00
 1.387403 1  254             Rx   d 8 00 00 00 02 00 00 00 00
 1.389459 1  241             Rx   d 8 AA 00 00 00 00 00 00 32
 1.391222 1  221             Rx   d 8 00 00 00 00 00 00 00 00
 1.391445 1  311             Rx   d 8 00 01 0D D4 00 01 31 C2
 1.401410 1  251             Rx   d 8 00 00 00 00 00 00 00 00
 1.403408 1  252             Rx   d 8 00 00 00 01 00 00 00 00
 1.405410 1  253             Rx   d 8 00 00 00 00 00 00 00 00
 1.407411 1  254             Rx   d 8 00 00 00 02 00 00 00 00
 1.409461 1  241             Rx   d 8 AA 00 00 00 00 00 00 33
 1.411243 1  221             Rx   d 8 00 00 00 00 00 00 00 00
 1.411455 1  311             Rx   d 8 00 01 0D D4 00 01 31 C2
 1.420407 1  261             Rx   d 8 01 23 00 19 1E 00 00 00
 1.421426 1  251             Rx   d 8 00 00 00 00 00 00 00 00
 1.423435 1  252             Rx   d 8 00 00 00 01 00 00 00 00
 1.425441 1  253             Rx   d 8 00 00 00 00 00 00 00 00
 1.427434 1  254             Rx   d 8 00 00 00 02 00 00 00 00
 1.429430 1  241             Rx   d 8 AA 00 00 00 00 00 00 34
 1.431233 1  221             Rx   d 8 00 00 00 00 00 00 00 00
 1.431454 1  311             Rx   d 8 00 01 0D D4 00 01 31 C2
 1.431705 1  262             Rx   d 8 01 22 00 1A 1E 00 00 00
 1.439434 1  211             Rx   d 8 00 01 01 19 00 00 00 00
 1.441432 1  251             Rx   d 8 00 00 00 00 00 00 00 00
 1.442434 1  263             Rx   d 8 01 23 00 1A 1E 00 00 00
 1.443458 1  252             Rx   d 8 00 00 00 01 00 00 00 00
 1.445459 1  253             Rx   d 8 00 00 00 00 00 00 00 00
 1.447458 1  254             Rx   d 8 00 00 00 02 00 00 00 00
 1.449488 1  241             Rx   d 8 AA 00 00 00 00 00 00 35
 1.451234 1  221             Rx   d 8 00 00 00 00 00 00 00 00
 1.451460 1  311             Rx   d 8 00 01 0D D4 00 01 31 C2
 1.453463 1  264             Rx   d 8 01 21 00 19 1E 00 00 00
 1.461458 1  251             Rx   d 8 00 00 00 00 00 00 00 00
 1.463427 1  252             Rx   d 8 00 00 00 01 00 00 00 00
 1.465459 1  253             Rx   d 8 00 00 00 00 00 00 00 00
 1.467488 1  254             Rx   d 8 00 00 00 02 00 00 00 00
 1.469535 1  241             Rx   d 8 AA 00 00 00 00 00 00 36
 1.471233 1  221             Rx   d 8 00 00 00 00 00 00 00 00
 1.471457 1  311             Rx   d 8 00 01 0D D4 00 01 31 C2
 1.481484 1  251             Rx   d 8 00 00 00 00 00 00 00 00
 1.483482 1  252             Rx   d 8 00 00 00 01 00 00 00 00
 1.485483 1  253             Rx   d 8 00 00 00 00 00 00 00 00
 1.487484 1  254             Rx   d 8 00 00 00 02 00 00 00 00
 1.489483 1  241             Rx   d 8 AA 00 00 00 00 00 00 37
 1.491233 1  221             Rx   d 8 00 00 00 00 00 00 00 00
 1.491457 1  311             Rx   d 8 00 01 0D D4 00 01 31 C2
 1.501509 1  251             Rx   d 8 00 00 00 00 00 00 00 00
 1.503512 1  252             Rx   d 8 00 00 00 01 00 00 00 00
 1.505506 1  253             Rx   d 8 00 00 00 00 00 00 00 00
 1.507511 1  254             Rx   d 8 00 00 00 02 00 00 00 00
 1.509557 1  241             Rx   d 8 AA 00 00 00 00 00 00 38
 1.511251 1  221             Rx   d 8 00 00 00 00 00 00 00 00
 1.511457 1  311             Rx   d 8 00 01 0D D4 00 01 31 C2
 1.520508 1  261             Rx   d 8 01 23 00 19 1E 00 00 00
 1.521497 1  251             Rx   d 8 00 00 00 00 00 00 00 00
 1.523534 1  252             Rx   d 8 00 00 00 01 00 00 00 00
 1.525534 1  253             Rx   d 8 00 00 00 00 00 00 00 00
 1.527538 1  254             Rx   d 8 00 00 00 02 00 00 00 00
 1.529583 1  241             Rx   d 8 AA 00 00 00 00 00 00 39
 1.531232 1  221             Rx   d 8 00 00 00 00 00 00 00 00
 1.531483 1  311             Rx   d 8 00 01 0D D4 00 01 31 C2
 1.531711 1  262             Rx   d 8 01 22 00 1A 1E 00 00 00
 1.541534 1  251             Rx   d 8 00 00 00 00 00 00 00 00
 1.542533 1  263             Rx   d 8 01 23 00 19 1E 00 00 00
 1.543558 1  252             Rx   d 8 00 00 00 01 00 00 00 00
 1.545564 1  253             Rx   d 8 00 00 00 00 00 00 00 00
 1.547532 1  254             Rx   d 8 00 00 00 02 00 00 00 00
 1.549609 1  241             Rx   d 8 AA 00 00 00 00 00 00 3A
 1.551236 1  221             Rx   d 8 00 00 00 00 00 00 00 00
 1.551482 1  311             Rx   d 8 00 01 0D D4 00 01 31 C2
 1.553559 1  264             Rx   d 8 01 22 00 19 1E 00 00 00
 1.561563 1  251             Rx   d 8 00 00 00 00 00 00 00 00
 1.563559 1  252             Rx   d 8 00 00 00 01 00 00 00 00
 1.565591 1  253             Rx   d 8 00 00 00 00 00 00 00 00
 1.567586 1  254             Rx   d 8 00 00 00 02 00 00 00 00
 1.569611 1  241             Rx   d 8 AA 00 00 00 00 00 00 3B
 1.571234 1  221             Rx   d 8 00 00 00 00 00 00 00 00
 1.571483 1  311             Rx   d 8 00 01 0D D4 00 01 31 C2
 1.581587 1  251             Rx   d 8 00 00 00 00 00 00 00 00
 1.583586 1  252             Rx   d 8 00 00 00 01 00 00 00 00
 1.585586 1  253             Rx   d 8 00 00 00 00 00 00 00 00
 1.587611 1  254             Rx   d 8 00 00 00 02 00 00 00 00
 1.589660 1  241             Rx   d 8 AA 00 00 00 00 00 00 3C
 1.591268 1  221             Rx   d 8 00 00 00 00 00 00 00 00
 1.591494 1  311             Rx   d 8 00 01 0D D4 00 01 31 C2
 1.601612 1  251             Rx   d 8 00 00 00 00 00 00 00 00
 1.603610 1  252             Rx   d 8 00 00 00 01 00 00 00 00
 1.605613 1  253             Rx   d 8 00 00 00 00 00 00 00 00
 1.607608 1  254             Rx   d 8 00 00 00 02 00 00 00 00
 1.609662 1  241             Rx   d 8 AA 00 00 00 00 00 00 3D
 1.611240 1  221             Rx   d 8 00 00 00 00 00 00 00 00
 1.611496 1  311             Rx   d 8 00 01 0D D4 00 01 31 C2
 1.620615 1  261             Rx   d 8 01 23 00 19 1E 00 00 00
 1.621576 1  251             Rx   d 8 00 00 00 00 00 00 00 00
 1.623639 1  252             Rx   d 8 00 00 00 01 00 00 00 00
 1.625637 1  253             Rx   d 8 00 00 00 00 00 00 00 00
 1.627638 1  254             Rx   d 8 00 00 00 02 00 00 00 00
 1.629687 1  241             Rx   d 8 AA 00 00 00 00 00 00 3E
 1.631235 1  221             Rx   d 8 00 00 00 00 00 00 00 00
 1.631483 1  311             Rx   d 8 00 01 0D D4 00 01 31 C2
 1.631741 1  262             Rx   d 8 01 22 00 1A 1E 00 00 00
 1.639712 1  211             Rx   d 8 00 01 01 19 00 00 00 00
 1.641635 1  251             Rx   d 8 00 00 00 00 00 00 00 00
 1.642638 1  263             Rx   d 8 01 23 00 1A 1E 00 00 00
 1.643659 1  252             Rx   d 8 00 00 00 01 00 00 00 00
 1.645665 1  253             Rx   d 8 00 00 00 00 00 00 00 00
 1.647663 1  254             Rx   d 8 00 00 00 02 00 00 00 00
 1.649710 1  241             Rx   d 8 AA 00 00 00 00 00 00 3F
 1.651263 1  221             Rx   d 8 00 00 00 00 00 00 00 00
 1.651478 1  311             Rx   d 8 00 01 0D D4 00 01 31 C2
 1.653662 1  264             Rx   d 8 01 22 00 19 1E 00 00 00
 1.661667 1  251             Rx   d 8 00 00 00 00 00 00 00 00
 1.663662 1  252             Rx   d 8 00 00 00 01 00 00 00 00
 1.665661 1  253             Rx   d 8 00 00 00 00 00 00 00 00
 1.667689 1  254             Rx   d 8 00 00 00 02 00 00 00 00
 1.669715 1  241             Rx   d 8 AA 00 00 00 00 00 00 40
 1.671260 1  221             Rx   d 8 00 00 00 00 00 00 00 00
 1.671482 1  311             Rx   d 8 00 01 0D D4 00 01 31 C2
 1.681691 1  251             Rx   d 8 00 00 00 00 00 00 00 00
 1.683683 1  252             Rx   d 8 00 00 00 01 00 00 00 00
 1.685720 1  253             Rx   d 8 00 00 00 00 00 00 00 00
 1.687712 1  254             Rx   d 8 00 00 00 02 00 00 00 00
 1.689762 1  241             Rx   d 8 AA 00 00 00 00 00 00 41
 1.691257 1  221             Rx   d 8 00 00 00 00 00 00 00 00
 1.691485 1  311             Rx   d 8 00 01 0D D4 00 01 31 C2
 1.701713 1  251             Rx   d 8 00 00 00 00 00 00 00 00
 1.703713 1  252             Rx   d 8 00 00 00 01 00 00 00 00
 1.705715 1  253             Rx   d 8 00 00 00 00 00 00 00 00
 1.707716 1  254             Rx   d 8 00 00 00 02 00 00 00 00
 1.709763 1  241             Rx   d 8 AA 00 00 00 00 00 00 42
 1.711261 1  221             Rx   d 8 00 00 00 00 00 00 00 00
 1.711488 1  311             Rx   d 8 00 01 0D D4 00 01 31 C2
 1.720720 1  261             Rx   d 8 01 23 00 19 1E 00 00 00
 1.721730 1  251             Rx   d 8 00 00 00 00 00 00 00 00
 1.723741 1  252             Rx   d 8 00 00 00 01 00 00 00 00
 1.725738 1  253             Rx   d 8 00 00 00 00 00 00 00 00
 1.727740 1  254             Rx   d 8 00 00 00 02 00 00 00 00
 1.729788 1  241             Rx   d 8 AA 00 00 00 00 00 00 43
 1.731264 1  221             Rx   d 8 00 00 00 00 00 00 00 00
 1.731485 1  311             Rx   d 8 00 01 0D D4 00 01 31 C2
 1.731738 1  262             Rx   d 8 01 22 00 1A 1E 00 00 00
 1.741741 1  251             Rx   d 8 00 00 00 00 00 00 00 00
 1.742741 1  263             Rx   d 8 01 23 00 1A 1E 00 00 00
 1.743740 1  252             Rx   d 8 00 00 00 01 00 00 00 00
 1.745739 1  253             Rx   d 8 00 00 00 00 00 00 00 00
 1.747738 1  254             Rx   d 8 00 00 00 02 00 00 00 00
 1.749763 1  241             Rx   d 8 AA 00 00 00 00 00 00 44
 1.751263 1  221             Rx   d 8 00 00 00 00 00 00 00 00
 1.751487 1  311             Rx   d 8 00 01 0D D4 00 01 31 C2
 1.753764 1  264             Rx   d 8 01 21 00 19 1E 00 00 00
 1.761769 1  251             Rx   d 8 00 00 00 00 00 00 00 00
 1.763765 1  252             Rx   d 8 00 00 00 01 00 00 00 00
 1.765766 1  253             Rx   d 8 00 00 00 00 00 00 00 00
 1.767766 1  254             Rx   d 8 00 00 00 02 00 00 00 00
 1.769778 1  241             Rx   d 8 AA 00 00 00 00 00 00 45
 1.771279 1  221             Rx   d 8 00 00 00 00 00 00 00 00
 1.771511 1  311             Rx   d 8 00 01 0D D4 00 01 31 C2
 1.781790 1  251             Rx   d 8 00 00 00 00 00 00 00 00
 1.783756 1  252             Rx   d 8 00 00 00 02 00 00 00 00
 1.785778 1  253             Rx   d 8 00 00 00 00 00 00 00 00
 1.787794 1  254             Rx   d 8 00 00 00 02 00 00 00 00
 1.789865 1  241             Rx   d 8 AA 00 00 00 00 00 00 46
 1.791263 1  221             Rx   d 8 00 00 00 00 00 00 00 00
 1.791489 1  311             Rx   d 8 00 01 0D D4 00 01 31 C2
 1.801779 1  251             Rx   d 8 00 00 00 00 00 00 00 00
 1.803816 1  252             Rx   d 8 00 00 00 02 00 00 00 00
 1.805818 1  253             Rx   d 8 00 00 00 00 00 00 00 00
 1.807816 1  254             Rx   d 8 00 00 00 02 00 00 00 00
 1.809871 1  241             Rx   d 8 AA 00 00 00 00 00 00 47
 1.811260 1  221             Rx   d 8 00 00 00 00 00 00 00 00
 1.811517 1  311             Rx   d 8 00 01 0D D4 00 01 31 C2
 1.820826 1  261             Rx   d 8 01 23 00 19 1E 00 00 00
 1.821814 1  251             Rx   d 8 00 00 00 00 00 00 00 00
 1.823841 1  252             Rx   d 8 00 00 00 01 00 00 00 00
 1.825841 1  253             Rx   d 8 00 00 00 00 00 00 00 00
 1.827841 1  254             Rx   d 8 00 00 00 02 00 00 00 00
 1.829889 1  241             Rx   d 8 AA 00 00 00 00 00 00 48
 1.831288 1  221             Rx   d 8 00 00 00 00 00 00 00 00
 1.831511 1  311             Rx   d 8 00 01 0D D4 00 01 31 C2
 1.831836 1  262             Rx   d 8 01 22 00 1A 1E 00 00 00
 1.839892 1  211             Rx   d 8 00 01 01 18 00 00 00 00
 1.841844 1  251             Rx   d 8 00 00 00 00 00 00 00 00
 1.842839 1  263             Rx   d 8 01 22 00 19 1E 00 00 00
 1.843839 1  252             Rx   d 8 00 00 00 01 00 00 00 00
 1.845841 1  253             Rx   d 8 00 00 00 00 00 00 00 00
 1.847871 1  254             Rx   d 8 00 00 00 02 00 00 00 00
 1.849888 1  241             Rx   d 8 AA 00 00 00 00 00 00 49
 1.851263 1  221             Rx   d 8 00 00 00 00 00 00 00 00
 1.851511 1  311             Rx   d 8 00 01 0D D4 00 01 31 C2
 1.853865 1  264             Rx   d 8 01 21 00 19 1E 00 00 00
 1.859945 1  231             Rx   d 8 00 00 00 02 1B 00 00 00
 1.861864 1  251             Rx   d 8 00 00 00 00 00 00 00 00
 1.863874 1  252             Rx   d 8 00 00 00 01 00 00 00 00
 1.865865 1  253             Rx   d 8 00 00 00 00 00 00 00 00
 1.867892 1  254             Rx   d 8 00 00 00 02 00 00 00 00
 1.869926 1  241             Rx   d 8 AA 00 00 00 00 00 00 4A
 1.871269 1  221             Rx   d 8 00 00 00 00 00 00 00 00
 1.871516 1  311             Rx   d 8 00 01 0D D4 00 01 31 C2
 1.881903 1  251             Rx   d 8 00 00 00 00 00 00 00 00
 1.883891 1  252             Rx   d 8 00 00 00 01 00 00 00 00
 1.885896 1  253             Rx   d 8 00 00 00 00 00 00 00 00
 1.887889 1  254             Rx   d 8 00 00 00 02 00 00 00 00
 1.889968 1  241             Rx   d 8 AA 00 00 00 00 00 00 4B
 1.891291 1  221             Rx   d 8 00 00 00 00 00 00 00 00
 1.891517 1  311             Rx   d 8 00 01 0D D4 00 01 31 C2
 1.901917 1  251             Rx   d 8 00 00 00 00 00 00 00 00
 1.903925 1  252             Rx   d 8 00 00 00 01 00 00 00 00
 1.905919 1  253             Rx   d 8 00 00 00 00 00 00 00 00
 1.907917 1  254             Rx   d 8 00 00 00 02 00 00 00 00
 1.909994 1  241             Rx   d 8 AA 00 00 00 00 00 00 4C
 1.911291 1  221             Rx   d 8 00 00 00 00 00 00 00 00
 1.911543 1  311             Rx   d 8 00 01 0D D4 00 01 31 C2
 1.920914 1  261             Rx   d 8 01 23 00 19 1E 00 00 00
 1.921939 1  251             Rx   d 8 00 00 00 00 00 00 00 00
 1.923945 1  252             Rx   d 8 00 00 00 01 00 00 00 00
 1.925947 1  253             Rx   d 8 00 00 00 00 00 00 00 00
 1.927943 1  254             Rx   d 8 00 00 00 02 00 00 00 00
 1.929991 1  241             Rx   d 8 AA 00 00 00 00 00 00 4D
 1.931233 1  221             Rx   d 8 00 00 00 00 00 00 00 00
 1.931515 1  311             Rx   d 8 00 01 0D D4 00 01 31 C2
 1.931938 1  262             Rx   d 8 01 22 00 1A 1E 00 00 00
 1.941947 1  251             Rx   d 8 00 00 00 00 00 00 00 00
 1.942943 1  263             Rx   d 8 01 22 00 1A 1E 00 00 00
 1.943943 1  252             Rx   d 8 00 00 00 01 00 00 00 00
 1.945943 1  253             Rx   d 8 00 00 00 00 00 00 00 00
 1.947968 1  254             Rx   d 8 00 00 00 02 00 00 00 00
 1.950007 1  241             Rx   d 8 AA 00 00 00 00 00 00 4E
 1.951294 1  221             Rx   d 8 00 00 00 00 00 00 00 00
 1.951518 1  311             Rx   d 8 00 01 0D D4 00 01 31 C2
 1.953940 1  264             Rx   d 8 01 21 00 19 1E 00 00 00
 1.961973 1  251             Rx   d 8 00 00 00 00 00 00 00 00
 1.963969 1  252             Rx   d 8 00 00 00 01 00 00 00 00
 1.965992 1  253             Rx   d 8 00 00 00 00 00 00 00 00
 1.967968 1  254             Rx   d 8 00 00 00 02 00 00 00 00
 1.970018 1  241             Rx   d 8 AA 00 00 00 00 00 00 4F
 1.971304 1  221             Rx   d 8 00 00 00 00 00 00 00 00
 1.971519 1  311             Rx   d 8 00 01 0D D4 00 01 31 C2
 1.981985 1  251             Rx   d 8 00 00 00 00 00 00 00 00
 1.983992 1  252             Rx   d 8 00 00 00 01 00 00 00 00
 1.986007 1  253             Rx   d 8 00 00 00 00 00 00 00 00
 1.988018 1  254             Rx   d 8 00 00 00 02 00 00 00 00
 1.990046 1  241             Rx   d 8 AA 00 00 00 00 00 00 50
 1.991292 1  221             Rx   d 8 00 00 00 00 00 00 00 00
 1.991481 1  311             Rx   d 8 00 01 0D D4 00 01 31 C2
 2.002020 1  251             Rx   d 8 00 00 00 00 00 00 00 00
 2.004022 1  252             Rx   d 8 00 00 00 01 00 00 00 00
 2.006020 1  253             Rx   d 8 00 00 00 00 00 00 00 00
 2.008018 1  254             Rx   d 8 00 00 00 02 00 00 00 00
 2.010091 1  241             Rx   d 8 AA 00 00 00 00 00 00 51
 2.011295 1  221             Rx   d 8 00 00 00 00 00 00 00 00
 2.011514 1  311             Rx   d 8 00 01 0D D4 00 01 31 C2
 2.021019 1  261             Rx   d 8 01 23 00 19 1E 00 00 00
 2.022047 1  251             Rx   d 8 00 00 00 00 00 00 00 00
 2.024042 1  252             Rx   d 8 00 00 00 01 00 00 00 00
 2.026028 1  253             Rx   d 8 00 00 00 00 00 00 00 00
 2.028044 1  254             Rx   d 8 00 00 00 02 00 00 00 00
 2.030037 1  241             Rx   d 8 AA 00 00 00 00 00 00 52
 2.031258 1  221             Rx   d 8 00 00 00 00 00 00 00 00
 2.031508 1  311             Rx   d 8 00 01 0D D4 00 01 31 C2
 2.032032 1  262             Rx   d 8 01 22 00 1A 1E 00 00 00
 2.040045 1  211             Rx   d 8 00 01 01 19 00 00 00 00
 2.042047 1  251             Rx   d 8 00 00 00 00 00 00 00 00
 2.043011 1  263             Rx   d 8 01 23 00 19 1E 00 00 00
 2.044044 1  252             Rx   d 8 00 00 00 01 00 00 00 00
 2.046072 1  253             Rx   d 8 00 00 00 00 00 00 00 00
 2.048076 1  254             Rx   d 8 00 00 00 02 00 00 00 00
 2.050034 1  241             Rx   d 8 AA 00 00 00 00 00 00 53
 2.051288 1  221             Rx   d 8 00 00 00 00 00 00 00 00
 2.051541 1  311             Rx   d 8 00 01 0D D4 00 01 31 C2
 2.054071 1  264             Rx   d 8 01 21 00 19 1E 00 00 00
 2.062072 1  251             Rx   d 8 00 00 00 00 00 00 00 00
 2.064070 1  252             Rx   d 8 00 00 00 01 00 00 00 00
 2.066065 1  253             Rx   d 8 00 00 00 00 00 00 00 00
 2.068034 1  254             Rx   d 8 00 00 00 02 00 00 00 00
 2.070140 1  241             Rx   d 8 AA 00 00 00 00 00 00 54
 2.071258 1  221             Rx   d 8 00 00 00 00 00 00 00 00
 2.071506 1  311             Rx   d 8 00 01 0D D4 00 01 31 C2
 2.082097 1  251             Rx   d 8 00 00 00 00 00 00 00 00
 2.084096 1  252             Rx   d 8 00 00 00 01 00 00 00 00
 2.086095 1  253             Rx   d 8 00 00 00 00 00 00 00 00
 2.088097 1  254             Rx   d 8 00 00 00 02 00 00 00 00
 2.090110 1  241             Rx   d 8 AA 00 00 00 00 00 00 55
 2.091258 1  221             Rx   d 8 00 00 00 00 00 00 00 00
 2.091507 1  311             Rx   d 8 00 01 0D D4 00 01 31 C2
 2.102088 1  251             Rx   d 8 00 00 00 00 00 00 00 00
 2.104092 1  252             Rx   d 8 00 00 00 01 00 00 00 00
 2.106122 1  253             Rx   d 8 00 00 00 00 00 00 00 00
 2.108092 1  254             Rx   d 8 00 00 00 02 00 00 00 00
 2.110185 1  241             Rx   d 8 AA 00 00 00 00 00 00 56
 2.111264 1  221             Rx   d 8 00 00 00 00 00 00 00 00
 2.111527 1  311             Rx   d 8 00 01 0D D4 00 01 31 C2
 2.121118 1  261             Rx   d 8 01 24 00 19 1E 00 00 00
 2.122098 1  251             Rx   d 8 00 00 00 00 00 00 00 00
 2.124110 1  252             Rx   d 8 00 00 00 01 00 00 00 00
 2.126110 1  253             Rx   d 8 00 00 00 00 00 00 00 00
 2.128109 1  254             Rx   d 8 00 00 00 02 00 00 00 00
 2.130183 1  241             Rx   d 8 AA 00 00 00 00 00 00 57
 2.131258 1  221             Rx   d 8 00 00 00 00 00 00 00 00
 2.131505 1  311             Rx   d 8 00 01 0D D4 00 01 31 C2
 2.132107 1  262             Rx   d 8 01 22 00 1A 1E 00 00 00
 2.142167 1  251             Rx   d 8 00 00 00 00 00 00 00 00
 2.143112 1  263             Rx   d 8 01 23 00 19 1E 00 00 00
 2.144111 1  252             Rx   d 8 00 00 00 01 00 00 00 00
 2.146111 1  253             Rx   d 8 00 00 00 00 00 00 00 00
 2.148184 1  254             Rx   d 8 00 00 00 02 00 00 00 00
 2.150186 1  241             Rx   d 8 AA 00 00 00 00 00 00 58
 2.151260 1  221             Rx   d 8 00 00 00 00 00 00 00 00
 2.151508 1  311             Rx   d 8 00 01 0D D4 00 01 31 C2
 2.154109 1  264             Rx   d 8 01 21 00 19 1E 00 00 00
 2.162218 1  251             Rx   d 8 00 00 00 00 00 00 00 00
 2.164221 1  252             Rx   d 8 00 00 00 01 00 00 00 00
 2.166216 1  253             Rx   d 8 00 00 00 00 00 00 00 00
 2.168228 1  254             Rx   d 8 00 00 00 02 00 00 00 00
 2.170210 1  241             Rx   d 8 AA 00 00 00 00 00 00 59
 2.171284 1  221             Rx   d 8 00 00 00 00 00 00 00 00
 2.171507 1  311             Rx   d 8 00 01 0D D4 00 01 31 C2
 2.182187 1  251             Rx   d 8 00 00 00 00 00 00 00 00
 2.184221 1  252             Rx   d 8 00 00 00 01 00 00 00 00
 2.186216 1  253             Rx   d 8 00 00 00 00 00 00 00 00
 2.188221 1  254             Rx   d 8 00 00 00 02 00 00 00 00
 2.190267 1  241             Rx   d 8 AA 00 00 00 00 00 00 5A
 2.191318 1  221             Rx   d 8 00 00 00 00 00 00 00 00
 2.191542 1  311             Rx   d 8 00 01 0D D4 00 01 31 C2
 2.202214 1  251             Rx   d 8 00 00 00 00 00 00 00 00
 2.204210 1  252             Rx   d 8 00 00 00 01 00 00 00 00
 2.206187 1  253             Rx   d 8 00 00 00 00 00 00 00 00
 2.208185 1  254             Rx   d 8 00 00 00 02 00 00 00 00
 2.210260 1  241             Rx   d 8 AA 00 00 00 00 00 00 5B
 2.211286 1  221             Rx   d 8 00 00 00 00 00 00 00 00
 2.211509 1  311             Rx   d 8 00 01 0D D4 00 01 31 C2
 2.221185 1  261             Rx   d 8 01 23 00 19 1E 00 00 00
 2.222210 1  251             Rx   d 8 00 00 00 00 00 00 00 00
 2.224211 1  252             Rx   d 8 00 00 00 01 00 00 00 00
 2.226212 1  253             Rx   d 8 00 00 00 00 00 00 00 00
 2.228213 1  254             Rx   d 8 00 00 00 02 00 00 00 00
 2.230211 1  241             Rx   d 8 AA 00 00 00 00 00 00 5C
 2.231285 1  221             Rx   d 8 00 00 00 00 00 00 00 00
 2.231508 1  311             Rx   d 8 00 01 0D D4 00 01 31 C2
 2.232212 1  262             Rx   d 8 01 22 00 1A 1E 00 00 00
 2.240263 1  211             Rx   d 8 00 01 01 19 00 00 00 00
 2.242236 1  251             Rx   d 8 00 00 00 00 00 00 00 00
 2.243211 1  263             Rx   d 8 01 23 00 19 1E 00 00 00
 2.244236 1  252             Rx   d 8 00 00 00 01 00 00 00 00
 2.246212 1  253             Rx   d 8 00 00 00 00 00 00 00 00
 2.248237 1  254             Rx   d 8 00 00 00 02 00 00 00 00
 2.250236 1  241             Rx   d 8 AA 00 00 00 00 00 00 5D
 2.251287 1  221             Rx   d 8 00 00 00 00 00 00 00 00
 2.251509 1  311             Rx   d 8 00 01 0D D4 00 01 31 C2
 2.254212 1  264             Rx   d 8 01 21 00 19 1E 00 00 00
 2.262236 1  251             Rx   d 8 00 00 00 00 00 00 00 00
 2.264236 1  252             Rx   d 8 00 00 00 01 00 00 00 00
 2.266235 1  253             Rx   d 8 00 00 00 00 00 00 00 00
 2.268236 1  254             Rx   d 8 00 00 00 02 00 00 00 00
 2.270311 1  241             Rx   d 8 AA 00 00 00 00 00 00 5E
 2.271286 1  221             Rx   d 8 00 00 00 00 00 00 00 00
 2.271511 1  311             Rx   d 8 00 01 0D D4 00 01 31 C2
 2.282261 1  251             Rx   d 8 00 00 00 00 00 00 00 00
 2.284262 1  252             Rx   d 8 00 00 00 01 00 00 00 00
 2.286261 1  253             Rx   d 8 00 00 00 00 00 00 00 00
 2.288261 1  254             Rx   d 8 00 00 00 02 00 00 00 00
 2.290312 1  241             Rx   d 8 AA 00 00 00 00 00 00 5F
 2.291312 1  221             Rx   d 8 00 00 00 00 00 00 00 00
 2.291535 1  311             Rx   d 8 00 01 0D D4 00 01 31 C2
 2.302287 1  251             Rx   d 8 00 00 00 00 00 00 00 00
 2.304287 1  252             Rx   d 8 00 00 00 01 00 00 00 00
 2.306288 1  253             Rx   d 8 00 00 00 00 00 00 00 00
 2.308303 1  254             Rx   d 8 00 00 00 02 00 00 00 00
 2.310362 1  241             Rx   d 8 AA 00 00 00 00 00 00 60
 2.311287 1  221             Rx   d 8 00 00 00 00 00 00 00 00
 2.311535 1  311             Rx   d 8 00 01 0D D4 00 01 31 C2
 2.321288 1  261             Rx   d 8 01 23 00 19 1E 00 00 00
 2.322312 1  251             Rx   d 8 00 00 00 00 00 00 00 00
 2.324313 1  252             Rx   d 8 00 00 00 01 00 00 00 00
 2.326311 1  253             Rx   d 8 00 00 00 00 00 00 00 00
 2.328311 1  254             Rx   d 8 00 00 00 02 00 00 00 00
 2.330312 1  241             Rx   d 8 AA 00 00 00 00 00 00 61
 2.331288 1  221             Rx   d 8 00 00 00 00 00 00 00 00
 2.331512 1  311             Rx   d 8 00 01 0D D4 00 01 31 C2
 2.332313 1  262             Rx   d 8 01 22 00 1A 1E 00 00 00
 2.342315 1  251             Rx   d 8 00 00 00 00 00 00 00 00
 2.343344 1  263             Rx   d 8 01 22 00 19 1E 00 00 00
 2.344337 1  252             Rx   d 8 00 00 00 01 00 00 00 00
 2.346313 1  253             Rx   d 8 00 00 00 00 00 00 00 00
 2.348338 1  254             Rx   d 8 00 00 00 02 00 00 00 00
 2.350389 1  241             Rx   d 8 AA 00 00 00 00 00 00 62
 2.351288 1  221             Rx   d 8 00 00 00 00 00 00 00 00
 2.351536 1  311             Rx   d 8 00 01 0D D4 00 01 31 C2
 2.354338 1  264             Rx   d 8 01 21 00 19 1E 00 00 00
 2.360390 1  231             Rx   d 8 00 00 00 02 2F 00 00 00
 2.362339 1  251             Rx   d 8 00 00 00 00 00 00 00 00
 2.364337 1  252             Rx   d 8 00 00 00 01 00 00 00 00
 2.366337 1  253             Rx   d 8 00 00 00 00 00 00 00 00
 2.368338 1  254             Rx   d 8 00 00 00 02 00 00 00 00
 2.370413 1  241             Rx   d 8 AA 00 00 00 00 00 00 63
 2.371289 1  221             Rx   d 8 00 00 00 00 00 00 00 00
 2.371538 1  311             Rx   d 8 00 01 0D D4 00 01 31 C2
 2.382363 1  251             Rx   d 8 00 00 00 00 00 00 00 00
 2.384364 1  252             Rx   d 8 00 00 00 01 00 00 00 00
 2.386364 1  253             Rx   d 8 00 00 00 00 00 00 00 00
 2.388364 1  254             Rx   d 8 00 00 00 02 00 00 00 00
 2.390414 1  241             Rx   d 8 AA 00 00 00 00 00 00 64
 2.391314 1  221             Rx   d 8 00 00 00 00 00 00 00 00
 2.391538 1  311             Rx   d 8 00 01 0D D4 00 01 31 C2
 2.402391 1  251             Rx   d 8 00 00 00 00 00 00 00 00
 2.404389 1  252             Rx   d 8 00 00 00 01 00 00 00 00
 2.406389 1  253             Rx   d 8 00 00 00 00 00 00 00 00
 2.408389 1  254             Rx   d 8 00 00 00 02 00 00 00 00
 2.410438 1  241             Rx   d 8 AA 00 00 00 00 00 00 65
 2.411289 1  221             Rx   d 8 00 00 00 00 00 00 00 00
 2.411537 1  311             Rx   d 8 00 01 0D D4 00 01 31 C2
 2.421391 1  261             Rx   d 8 01 23 00 19 1E 00 00 00
 2.422415 1  251             Rx   d 8 00 00 00 00 00 00 00 00
 2.424414 1  252             Rx   d 8 00 00 00 01 00 00 00 00
 2.426414 1  253             Rx   d 8 00 00 00 00 00 00 00 00
 2.428414 1  254             Rx   d 8 00 00 00 02 00 00 00 00
 2.430440 1  241             Rx   d 8 AA 00 00 00 00 00 00 66
 2.431323 1  221             Rx   d 8 00 00 00 00 00 00 00 00
 2.431537 1  311             Rx   d 8 00 01 0D D4 00 01 31 C2
 2.432392 1  262             Rx   d 8 01 22 00 1A 1E 00 00 00
 2.440489 1  211             Rx   d 8 00 01 01 18 00 00 00 00
 2.442414 1  251             Rx   d 8 00 00 00 00 00 00 00 00
 2.443415 1  263             Rx   d 8 01 22 00 1A 1E 00 00 00
 2.444416 1  252             Rx   d 8 00 00 00 01 00 00 00 00
 2.446413 1  253             Rx   d 8 00 00 00 00 00 00 00 00
 2.448443 1  254             Rx   d 8 00 00 00 02 00 00 00 00
 2.450467 1  241             Rx   d 8 AA 00 00 00 00 00 00 67
 2.451316 1  221             Rx   d 8 00 00 00 00 00 00 00 00
 2.451538 1  311             Rx   d 8 00 01 0D D4 00 01 31 C2
 2.454415 1  264             Rx   d 8 01 21 00 19 1E 00 00 00
 2.462440 1  251             Rx   d 8 00 00 00 00 00 00 00 00
 2.464439 1  252             Rx   d 8 00 00 00 01 00 00 00 00
 2.466448 1  253             Rx   d 8 00 00 00 00 00 00 00 00
 2.468441 1  254             Rx   d 8 00 00 00 02 00 00 00 00
 2.470490 1  241             Rx   d 8 AA 00 00 00 00 00 00 68
 2.471316 1  221             Rx   d 8 00 00 00 00 00 00 00 00
 2.471538 1  311             Rx   d 8 00 01 0D D4 00 01 31 C2
 2.482465 1  251             Rx   d 8 00 00 00 00 00 00 00 00
 2.484466 1  252             Rx   d 8 00 00 00 01 00 00 00 00
 2.486466 1  253             Rx   d 8 00 00 00 00 00 00 00 00
 2.488465 1  254             Rx   d 8 00 00 00 02 00 00 00 00
 2.490515 1  241             Rx   d 8 AA 00 00 00 00 00 00 69
 2.491315 1  221             Rx   d 8 00 00 00 00 00 00 00 00
 2.491540 1  311             Rx   d 8 00 01 0D D4 00 01 31 C2
 2.502468 1  251             Rx   d 8 00 00 00 00 00 00 00 00
 2.504491 1  252             Rx   d 8 00 00 00 01 00 00 00 00
 2.506490 1  253             Rx   d 8 00 00 00 00 00 00 00 00
 2.508492 1  254             Rx   d 8 00 00 00 02 00 00 00 00
 2.510566 1  241             Rx   d 8 AA 00 00 00 00 00 00 6A
 2.511316 1  221             Rx   d 8 00 00 00 00 00 00 00 00
 2.511539 1  311             Rx   d 8 00 01 0D D4 00 01 31 C2
 2.521492 1  261             Rx   d 8 01 23 00 19 1E 00 00 00
 2.522516 1  251             Rx   d 8 00 00 00 00 00 00 00 00
 2.524491 1  252             Rx   d 8 00 00 00 01 00 00 00 00
 2.526516 1  253             Rx   d 8 00 00 00 00 00 00 00 00
 2.528517 1  254             Rx   d 8 00 00 00 02 00 00 00 00
 2.530541 1  241             Rx   d 8 AA 00 00 00 00 00 00 6B
 2.531317 1  221             Rx   d 8 00 00 00 00 00 00 00 00
 2.531541 1  311             Rx   d 8 00 01 0D D4 00 01 31 C2
 2.532517 1  262             Rx   d 8 01 22 00 19 1E 00 00 00
 2.542516 1  251             Rx   d 8 00 00 00 00 00 00 00 00
 2.543517 1  263             Rx   d 8 01 22 00 19 1E 00 00 00
 2.544518 1  252             Rx   d 8 00 00 00 01 00 00 00 00
 2.546522 1  253             Rx   d 8 00 00 00 00 00 00 00 00
 2.548542 1  254             Rx   d 8 00 00 00 02 00 00 00 00
 2.550591 1  241             Rx   d 8 AA 00 00 00 00 00 00 6C
 2.551318 1  221             Rx   d 8 00 00 00 00 00 00 00 00
 2.551541 1  311             Rx   d 8 00 01 0D D4 00 01 31 C2
 2.554543 1  264             Rx   d 8 01 21 00 19 1E 00 00 00
 2.562541 1  251             Rx   d 8 00 00 00 00 00 00 00 00
 2.564542 1  252             Rx   d 8 00 00 00 01 00 00 00 00
 2.566544 1  253             Rx   d 8 00 00 00 00 00 00 00 00
 2.568541 1  254             Rx   d 8 00 00 00 02 00 00 00 00
 2.570592 1  241             Rx   d 8 AA 00 00 00 00 00 00 6D
 2.571317 1  221             Rx   d 8 00 00 00 00 00 00 00 00
 2.571539 1  311             Rx   d 8 00 01 0D D4 00 01 31 C2
 2.582567 1  251             Rx   d 8 00 00 00 00 00 00 00 00
 2.584566 1  252             Rx   d 8 00 00 00 01 00 00 00 00
 2.586568 1  253             Rx   d 8 00 00 00 00 00 00 00 00
 2.588567 1  254             Rx   d 8 00 00 00 02 00 00 00 00
 2.590672 1  241             Rx   d 8 AA 00 00 00 00 00 00 6E
 2.591317 1  221             Rx   d 8 00 00 00 00 00 00 00 00
 2.591541 1  311             Rx   d 8 00 01 0D D4 00 01 31 C2
 2.602593 1  251             Rx   d 8 00 00 00 00 00 00 00 00
 2.604593 1  252             Rx   d 8 00 00 00 01 00 00 00 00
 2.606593 1  253             Rx   d 8 00 00 00 00 00 00 00 00
 2.608593 1  254             Rx   d 8 00 00 00 02 00 00 00 00
 2.610616 1  241             Rx   d 8 AA 00 00 00 00 00 00 6F
 2.611317 1  221             Rx   d 8 00 00 00 00 00 00 00 00
 2.611565 1  311             Rx   d 8 00 01 0D D4 00 01 31 C2
 2.621595 1  261             Rx   d 8 01 23 00 19 1E 00 00 00
 2.622594 1  251             Rx   d 8 00 00 00 00 00 00 00 00
 2.624618 1  252             Rx   d 8 00 00 00 01 00 00 00 00
 2.626618 1  253             Rx   d 8 00 00 00 00 00 00 00 00
 2.628618 1  254             Rx   d 8 00 00 00 02 00 00 00 00
 2.630669 1  241             Rx   d 8 AA 00 00 00 00 00 00 70
 2.631319 1  221             Rx   d 8 00 00 00 00 00 00 00 00
 2.631568 1  311             Rx   d 8 00 01 0D D4 00 01 31 C2
 2.632620 1  262             Rx   d 8 01 22 00 1A 1E 00 00 00
 2.640693 1  211             Rx   d 8 00 01 01 18 00 00 00 00
 2.642619 1  251             Rx   d 8 00 00 00 00 00 00 00 00
 2.643620 1  263             Rx   d 8 01 22 00 19 1E 00 00 00
 2.644620 1  252             Rx   d 8 00 00 00 01 00 00 00 00
 2.646643 1  253             Rx   d 8 00 00 00 00 00 00 00 00
 2.648644 1  254             Rx   d 8 00 00 00 02 00 00 00 00
 2.650694 1  241             Rx   d 8 AA 00 00 00 00 00 00 71
 2.651320 1  221             Rx   d 8 00 00 00 00 00 00 00 00
 2.651568 1  311             Rx   d 8 00 01 0D D4 00 01 31 C2
 2.654644 1  264             Rx   d 8 01 21 00 19 1E 00 00 00
 2.662646 1  251             Rx   d 8 00 00 00 00 00 00 00 00
 2.664644 1  252             Rx   d 8 00 00 00 01 00 00 00 00
 2.666645 1  253             Rx   d 8 00 00 00 00 00 00 00 00
 2.668669 1  254             Rx   d 8 00 00 00 02 00 00 00 00
 2.670694 1  241             Rx   d 8 AA 00 00 00 00 00 00 72
 2.671319 1  221             Rx   d 8 00 00 00 00 00 00 00 00
 2.671567 1  311             Rx   d 8 00 01 0D D4 00 01 31 C2
 2.682668 1  251             Rx   d 8 00 00 00 00 00 00 00 00
 2.684669 1  252             Rx   d 8 00 00 00 01 00 00 00 00
 2.686671 1  253             Rx   d 8 00 00 00 00 00 00 00 00
 2.688669 1  254             Rx   d 8 00 00 00 02 00 00 00 00
 2.690746 1  241             Rx   d 8 AA 00 00 00 00 00 00 73
 2.691344 1  221             Rx   d 8 00 00 00 00 00 00 00 00
 2.691567 1  311             Rx   d 8 00 01 0D D4 00 01 31 C2
 2.702698 1  251             Rx   d 8 00 00 00 00 00 00 00 00
 2.704697 1  252             Rx   d 8 00 00 00 01 00 00 00 00
 2.706694 1  253             Rx   d 8 00 00 00 00 00 00 00 00
 2.708698 1  254             Rx   d 8 00 00 00 02 00 00 00 00
 2.710720 1  241             Rx   d 8 AA 00 00 00 00 00 00 74
 2.711320 1  221             Rx   d 8 00 00 00 00 00 00 00 00
 2.711568 1  311             Rx   d 8 00 01 0D D4 00 01 31 C2
 2.721696 1  261             Rx   d 8 01 23 00 19 1E 00 00 00
 2.722696 1  251             Rx   d 8 00 00 00 00 00 00 00 00
 2.724720 1  252             Rx   d 8 00 00 00 01 00 00 00 00
 2.726720 1  253             Rx   d 8 00 00 00 00 00 00 00 00
 2.728720 1  254             Rx   d 8 00 00 00 03 00 00 00 00
 2.730772 1  241             Rx   d 8 AA 00 00 00 00 00 00 75
 2.731345 1  221             Rx   d 8 00 00 00 00 00 00 00 00
 2.731570 1  311             Rx   d 8 00 01 0D D4 00 01 31 C2
 2.732697 1  262             Rx   d 8 01 22 00 1A 1E 00 00 00
 2.742719 1  251             Rx   d 8 00 00 00 00 00 00 00 00
 2.743722 1  263             Rx   d 8 01 22 00 19 1E 00 00 00
 2.744723 1  252             Rx   d 8 00 00 00 01 00 00 00 00
 2.746722 1  253             Rx   d 8 00 00 00 00 00 00 00 00
 2.748746 1  254             Rx   d 8 00 00 00 03 00 00 00 00
 2.750772 1  241             Rx   d 8 AA 00 00 00 00 00 00 76
 2.751345 1  221             Rx   d 8 00 00 00 00 00 00 00 00
 2.751568 1  311             Rx   d 8 00 01 0D D4 00 01 31 C2
 2.754745 1  264             Rx   d 8 01 21 00 19 1E 00 00 00
 2.762747 1  251             Rx   d 8 00 00 00 00 00 00 00 00
 2.764745 1  252             Rx   d 8 00 00 00 01 00 00 00 00
 2.766747 1  253             Rx   d 8 00 00 00 00 00 00 00 00
 2.768747 1  254             Rx   d 8 00 00 00 02 00 00 00 00
 2.770796 1  241             Rx   d 8 AA 00 00 00 00 00 00 77
 2.771346 1  221             Rx   d 8 00 00 00 00 00 00 00 00
 2.771569 1  311             Rx   d 8 00 01 0D D4 00 01 31 C2
 2.782771 1  251             Rx   d 8 00 00 00 00 00 00 00 00
 2.784772 1  252             Rx   d 8 00 00 00 01 00 00 00 00
 2.786773 1  253             Rx   d 8 00 00 00 00 00 00 00 00
 2.788772 1  254             Rx   d 8 00 00 00 02 00 00 00 00
 2.790822 1  241             Rx   d 8 AA 00 00 00 00 00 00 78
 2.791346 1  221             Rx   d 8 00 00 00 00 00 00 00 00
 2.791569 1  311             Rx   d 8 00 01 0D D4 00 01 31 C2
 2.802799 1  251             Rx   d 8 00 00 00 00 00 00 00 00
 2.804798 1  252             Rx   d 8 00 00 00 01 00 00 00 00
 2.806797 1  253             Rx   d 8 00 00 00 00 00 00 00 00
 2.808796 1  254             Rx   d 8 00 00 00 02 00 00 00 00
 2.810848 1  241             Rx   d 8 AA 00 00 00 00 00 00 79
 2.811347 1  221             Rx   d 8 00 00 00 00 00 00 00 00
 2.811570 1  311             Rx   d 8 00 01 0D D4 00 01 31 C2
 2.821797 1  261             Rx   d 8 01 23 00 19 1E 00 00 00
 2.822797 1  251             Rx   d 8 00 00 00 00 00 00 00 00
 2.824821 1  252             Rx   d 8 00 00 00 01 00 00 00 00
 2.826822 1  253             Rx   d 8 00 00 00 00 00 00 00 00
 2.828822 1  254             Rx   d 8 00 00 00 02 00 00 00 00
 2.830874 1  241             Rx   d 8 AA 00 00 00 00 00 00 7A
 2.831346 1  221             Rx   d 8 00 00 00 00 00 00 00 00
 2.831612 1  311             Rx   d 8 00 01 0D D4 00 01 31 C2
 2.832798 1  262             Rx   d 8 01 22 00 19 1E 00 00 00
 2.840849 1  211             Rx   d 8 00 01 01 18 00 00 00 00
 2.842824 1  251             Rx   d 8 00 00 00 00 00 00 00 00
 2.843823 1  263             Rx   d 8 01 22 00 19 1E 00 00 00
 2.844849 1  252             Rx   d 8 00 00 00 01 00 00 00 00
 2.846880 1  253             Rx   d 8 00 00 00 00 00 00 00 00
 2.848879 1  254             Rx   d 8 00 00 00 02 00 00 00 00
 2.850880 1  241             Rx   d 8 AA 00 00 00 00 00 00 7B
 2.851378 1  221             Rx   d 8 00 00 00 00 00 00 00 00
 2.851629 1  311             Rx   d 8 00 01 0D D4 00 01 31 C2
 2.854855 1  264             Rx   d 8 01 21 00 19 1E 00 00 00
 2.860931 1  231             Rx   d 8 00 00 00 02 43 00 00 00
 2.862884 1  251             Rx   d 8 00 00 00 00 00 00 00 00
 2.864880 1  252             Rx   d 8 00 00 00 01 00 00 00 00
 2.866881 1  253             Rx   d 8 00 00 00 00 00 00 00 00
 2.868880 1  254             Rx   d 8 00 00 00 02 00 00 00 00
 2.870955 1  241             Rx   d 8 AA 00 00 00 00 00 00 7C
 2.871381 1  221             Rx   d 8 00 00 00 00 00 00 00 00
 2.871629 1  311             Rx   d 8 00 01 0D D4 00 01 31 C2
 2.882906 1  251             Rx   d 8 00 00 00 00 00 00 00 00
 2.884906 1  252             Rx   d 8 00 00 00 01 00 00 00 00
 2.886909 1  253             Rx   d 8 00 00 00 00 00 00 00 00
 2.888906 1  254             Rx   d 8 00 00 00 02 00 00 00 00
 2.890965 1  241             Rx   d 8 AA 00 00 00 00 00 00 7D
 2.891379 1  221             Rx   d 8 00 00 00 00 00 00 00 00
 2.891626 1  311             Rx   d 8 00 01 0D D4 00 01 31 C2
 2.902933 1  251             Rx   d 8 00 00 00 00 00 00 00 00
 2.904937 1  252             Rx   d 8 00 00 00 01 00 00 00 00
 2.906929 1  253             Rx   d 8 00 00 00 00 00 00 00 00
 2.908931 1  254             Rx   d 8 00 00 00 02 00 00 00 00
 2.911019 1  241             Rx   d 8 AA 00 00 00 00 00 00 7E
 2.911381 1  221             Rx   d 8 00 00 00 00 00 00 00 00
 2.911628 1  311             Rx   d 8 00 01 0D D4 00 01 31 C2
 2.921929 1  261             Rx   d 8 01 24 00 19 1E 00 00 00
 2.922931 1  251             Rx   d 8 00 00 00 00 00 00 00 00
 2.924957 1  252             Rx   d 8 00 00 00 02 00 00 00 00
 2.926959 1  253             Rx   d 8 00 00 00 00 00 00 00 00
 2.928960 1  254             Rx   d 8 00 00 00 02 00 00 00 00
 2.931011 1  241             Rx   d 8 AA 00 00 00 00 00 00 7F
 2.931386 1  221             Rx   d 8 00 00 00 00 00 00 00 00
 2.931632 1  311             Rx   d 8 00 01 0D D4 00 01 31 C2
 2.932962 1  262             Rx   d 8 01 22 00 1A 1E 00 00 00
 2.942962 1  251             Rx   d 8 00 00 00 00 00 00 00 00
 2.943964 1  263             Rx   d 8 01 22 00 19 1E 00 00 00
 2.944988 1  252             Rx   d 8 00 00 00 02 00 00 00 00
 2.946926 1  253             Rx   d 8 00 00 00 00 00 00 00 00
 2.948960 1  254             Rx   d 8 00 00 00 02 00 00 00 00
 2.951035 1  241             Rx   d 8 AA 00 00 00 00 00 00 80
 2.951388 1  221             Rx   d 8 00 00 00 00 00 00 00 00
 2.951633 1  311             Rx   d 8 00 01 0D D4 00 01 31 C2
 2.954971 1  264             Rx   d 8 01 21 00 19 1E 00 00 00
 2.962985 1  251             Rx   d 8 00 00 00 00 00 00 00 00
 2.964987 1  252             Rx   d 8 00 00 00 02 00 00 00 00
 2.966951 1  253             Rx   d 8 00 00 00 00 00 00 00 00
 2.968989 1  254             Rx   d 8 00 00 00 02 00 00 00 00
 2.971073 1  241             Rx   d 8 AA 00 00 00 00 00 00 81
 2.971412 1  221             Rx   d 8 00 00 00 00 00 00 00 00
 2.971635 1  311             Rx   d 8 00 01 0D D4 00 01 31 C2
 2.983016 1  251             Rx   d 8 00 00 00 00 00 00 00 00
 2.985014 1  252             Rx   d 8 00 00 00 01 00 00 00 00
 2.987239 1  253             Rx   d 8 00 00 00 00 00 00 00 00
 2.989024 1  254             Rx   d 8 00 00 00 02 00 00 00 00
 2.991067 1  241             Rx   d 8 AA 00 00 00 00 00 00 82
 2.991412 1  221             Rx   d 8 00 00 00 00 00 00 00 00
 2.991635 1  311             Rx   d 8 00 01 0D D4 00 01 31 C2
 3.003039 1  251             Rx   d 8 00 00 00 00 00 00 00 00
 3.005038 1  252             Rx   d 8 00 00 00 01 00 00 00 00
 3.007036 1  253             Rx   d 8 00 00 00 00 00 00 00 00
 3.009001 1  254             Rx   d 8 00 00 00 02 00 00 00 00
 3.011087 1  241             Rx   d 8 AA 00 00 00 00 00 00 83
 3.011416 1  221             Rx   d 8 00 00 00 00 00 00 00 00
 3.011637 1  311             Rx   d 8 00 01 0D D4 00 01 31 C2
 3.022037 1  261             Rx   d 8 01 23 00 19 1E 00 00 00
 3.023069 1  251             Rx   d 8 00 00 00 00 00 00 00 00
 3.025041 1  252             Rx   d 8 00 00 00 01 00 00 00 00
 3.027058 1  253             Rx   d 8 00 00 00 00 00 00 00 00
 3.029059 1  254             Rx   d 8 00 00 00 02 00 00 00 00
 3.031085 1  241             Rx   d 8 AA 00 00 00 00 00 00 84
 3.031408 1  221             Rx   d 8 00 00 00 00 00 00 00 00
 3.031635 1  311             Rx   d 8 00 01 0D D4 00 01 31 C2
 3.033058 1  262             Rx   d 8 01 22 00 1A 1E 00 00 00
 3.041118 1  211             Rx   d 8 00 01 01 18 00 00 00 00
 3.043064 1  251             Rx   d 8 00 00 00 00 00 00 00 00
 3.044063 1  263             Rx   d 8 01 23 00 19 1E 00 00 00
 3.045064 1  252             Rx   d 8 00 00 00 01 00 00 00 00
 3.047063 1  253             Rx   d 8 00 00 00 00 00 00 00 00
 3.049034 1  254             Rx   d 8 00 00 00 02 00 00 00 00
 3.051114 1  241             Rx   d 8 AA 00 00 00 00 00 00 85
 3.051412 1  221             Rx   d 8 00 00 00 00 00 00 00 00
 3.051636 1  311             Rx   d 8 00 01 0D D4 00 01 31 C2
 3.055060 1  264             Rx   d 8 01 21 00 19 1E 00 00 00
 3.063092 1  251             Rx   d 8 00 00 00 00 00 00 00 00
 3.065085 1  252             Rx   d 8 00 00 00 01 00 00 00 00
 3.067091 1  253             Rx   d 8 00 00 00 00 00 00 00 00
 3.069089 1  254             Rx   d 8 00 00 00 02 00 00 00 00
 3.071140 1  241             Rx   d 8 AA 00 00 00 00 00 00 86
 3.071413 1  221             Rx   d 8 00 00 00 00 00 00 00 00
 3.071662 1  311             Rx   d 8 00 01 0D D4 00 01 31 C2
 3.083085 1  251             Rx   d 8 00 00 00 00 00 00 00 00
 3.085114 1  252             Rx   d 8 00 00 00 02 00 00 00 00
 3.087113 1  253             Rx   d 8 00 00 00 00 00 00 00 00
 3.089118 1  254             Rx   d 8 00 00 00 02 00 00 00 00
 3.091148 1  241             Rx   d 8 AA 00 00 00 00 00 00 87
 3.091422 1  221             Rx   d 8 00 00 00 00 00 00 00 00
 3.091648 1  311             Rx   d 8 00 01 0D D4 00 01 31 C2
 3.103145 1  251             Rx   d 8 00 00 00 00 00 00 00 00
 3.105141 1  252             Rx   d 8 00 00 00 02 00 00 00 00
 3.107107 1  253             Rx   d 8 00 00 00 00 00 00 00 00
 3.109140 1  254             Rx   d 8 00 00 00 02 00 00 00 00
 3.111240 1  241             Rx   d 8 AA 00 00 00 00 00 00 88
 3.111467 1  221             Rx   d 8 00 00 00 00 00 00 00 00
 3.111689 1  311             Rx   d 8 00 01 0D D4 00 01 31 C2
 3.122145 1  261             Rx   d 8 01 24 00 19 1E 00 00 00
 3.123167 1  251             Rx   d 8 00 00 00 00 00 00 00 00
 3.125141 1  252             Rx   d 8 00 00 00 01 00 00 00 00
 3.127171 1  253             Rx   d 8 00 00 00 00 00 00 00 00
 3.129164 1  254             Rx   d 8 00 00 00 02 00 00 00 00
 3.131239 1  241             Rx   d 8 AA 00 00 00 00 00 00 89
 3.131487 1  221             Rx   d 8 00 00 00 00 00 00 00 00
 3.131710 1  311             Rx   d 8 00 01 0D D4 00 01 31 C2
 3.133139 1  262             Rx   d 8 01 22 00 1A 1E 00 00 00
 3.143167 1  251             Rx   d 8 00 00 00 00 00 00 00 00
 3.144165 1  263             Rx   d 8 01 23 00 19 1E 00 00 00
 3.145179 1  252             Rx   d 8 00 00 00 01 00 00 00 00
 3.147131 1  253             Rx   d 8 00 00 00 00 00 00 00 00
 3.149184 1  254             Rx   d 8 00 00 00 02 00 00 00 00
 3.151250 1  241             Rx   d 8 AA 00 00 00 00 00 00 8A
 3.151485 1  221             Rx   d 8 00 00 00 00 00 00 00 00
 3.151711 1  311             Rx   d 8 00 01 0D D4 00 01 31 C2
 3.155168 1  264             Rx   d 8 01 22 00 19 1E 00 00 00
 3.163247 1  251             Rx   d 8 00 00 00 00 00 00 00 00
 3.165256 1  252             Rx   d 8 00 00 00 01 00 00 00 00
 3.167243 1  253             Rx   d 8 00 00 00 00 00 00 00 00
 3.169197 1  254             Rx   d 8 00 00 00 02 00 00 00 00
 3.171240 1  241             Rx   d 8 AA 00 00 00 00 00 00 8B
 3.171487 1  221             Rx   d 8 00 00 00 00 00 00 00 00
 3.171717 1  311             Rx   d 8 00 01 0D D4 00 01 31 C2
 3.183243 1  251             Rx   d 8 00 00 00 00 00 00 00 00
 3.185238 1  252             Rx   d 8 00 00 00 01 00 00 00 00
 3.187249 1  253             Rx   d 8 00 00 00 00 00 00 00 00
 3.189239 1  254             Rx   d 8 00 00 00 02 00 00 00 00
 3.191265 1  241             Rx   d 8 AA 00 00 00 00 00 00 8C
 3.191510 1  221             Rx   d 8 00 00 00 00 00 00 00 00
 3.191761 1  311             Rx   d 8 00 01 0D D4 00 01 31 C2
 3.203243 1  251             Rx   d 8 00 00 00 00 00 00 00 00
 3.205240 1  252             Rx   d 8 00 00 00 01 00 00 00 00
 3.207254 1  253             Rx   d 8 00 00 00 00 00 00 00 00
 3.209243 1  254             Rx   d 8 00 00 00 02 00 00 00 00
 3.211289 1  241             Rx   d 8 AA 00 00 00 00 00 00 8D
 3.211540 1  221             Rx   d 8 00 00 00 00 00 00 00 00
 3.211762 1  311             Rx   d 8 00 01 0D D4 00 01 31 C2
 3.222243 1  261             Rx   d 8 01 23 00 19 1E 00 00 00
 3.223212 1  251             Rx   d 8 00 00 00 00 00 00 00 00
 3.225278 1  252             Rx   d 8 00 00 00 01 00 00 00 00
 3.227239 1  253             Rx   d 8 00 00 00 00 00 00 00 00
 3.229231 1  254             Rx   d 8 00 00 00 02 00 00 00 00
 3.231321 1  241             Rx   d 8 AA 00 00 00 00 00 00 8E
 3.231567 1  221             Rx   d 8 00 00 00 00 00 00 00 00
 3.231790 1  311             Rx   d 8 00 01 0D D4 00 01 31 C2
 3.233238 1  262             Rx   d 8 01 22 00 1A 1E 00 00 00
 3.241272 1  211             Rx   d 8 00 01 01 19 00 00 00 00
 3.243263 1  251             Rx   d 8 00 00 00 00 00 00 00 00
 3.244245 1  263             Rx   d 8 01 23 00 19 1E 00 00 00
 3.245266 1  252             Rx   d 8 00 00 00 01 00 00 00 00
 3.247299 1  253             Rx   d 8 00 00 00 00 00 00 00 00
 3.249294 1  254             Rx   d 8 00 00 00 02 00 00 00 00
 3.251316 1  241             Rx   d 8 AA 00 00 00 00 00 00 8F
 3.251586 1  221             Rx   d 8 00 00 00 00 00 00 00 00
 3.251821 1  311             Rx   d 8 00 01 0D D4 00 01 31 C2
 3.255265 1  264             Rx   d 8 01 22 00 19 1E 00 00 00
 3.263292 1  251             Rx   d 8 00 00 00 00 00 00 00 00
 3.265266 1  252             Rx   d 8 00 00 00 01 00 00 00 00
 3.267292 1  253             Rx   d 8 00 00 00 00 00 00 00 00
 3.269293 1  254             Rx   d 8 00 00 00 02 00 00 00 00
 3.271340 1  241             Rx   d 8 AA 00 00 00 00 00 00 90
 3.271590 1  221             Rx   d 8 00 00 00 00 00 00 00 00
 3.271846 1  311             Rx   d 8 00 01 0D D4 00 01 31 C2
 3.283318 1  251             Rx   d 8 00 00 00 00 00 00 00 00
 3.285320 1  252             Rx   d 8 00 00 00 01 00 00 00 00
 3.287316 1  253             Rx   d 8 00 00 00 00 00 00 00 00
 3.289316 1  254             Rx   d 8 00 00 00 02 00 00 00 00
 3.291367 1  241             Rx   d 8 AA 00 00 00 00 00 00 91
 3.291590 1  221             Rx   d 8 00 00 00 00 00 00 00 00
 3.291840 1  311             Rx   d 8 00 01 0D D4 00 01 31 C2
 3.303342 1  251             Rx   d 8 00 00 00 00 00 00 00 00
 3.305345 1  252             Rx   d 8 00 00 00 01 00 00 00 00
 3.307343 1  253             Rx   d 8 00 00 00 00 00 00 00 00
 3.309341 1  254             Rx   d 8 00 00 00 02 00 00 00 00
 3.311342 1  241             Rx   d 8 AA 00 00 00 00 00 00 92
 3.311590 1  221             Rx   d 8 00 00 00 00 00 00 00 00
 3.311814 1  311             Rx   d 8 00 01 0D D4 00 01 31 C2
 3.322347 1  261             Rx   d 8 01 23 00 19 1E 00 00 00
 3.323351 1  251             Rx   d 8 00 00 00 00 00 00 00 00
 3.325344 1  252             Rx   d 8 00 00 00 01 00 00 00 00
 3.327364 1  253             Rx   d 8 00 00 00 00 00 00 00 00
 3.329368 1  254             Rx   d 8 00 00 00 02 00 00 00 00
 3.331443 1  221             Rx   d 8 00 00 00 00 00 00 00 00
 3.331665 1  311             Rx   d 8 00 01 0D D4 00 01 31 C2
 3.331915 1  241             Rx   d 8 AA 00 00 00 00 00 00 93
 3.333368 1  262             Rx   d 8 01 22 00 1A 1E 00 00 00
 3.343370 1  251             Rx   d 8 00 00 00 00 00 00 00 00
 3.344337 1  263             Rx   d 8 01 22 00 1A 1E 00 00 00
 3.345370 1  252             Rx   d 8 00 00 00 01 00 00 00 00
 3.347394 1  253             Rx   d 8 00 00 00 00 00 00 00 00
 3.349373 1  254             Rx   d 8 00 00 00 02 00 00 00 00
 3.351442 1  221             Rx   d 8 00 00 00 00 00 00 00 00
 3.351665 1  311             Rx   d 8 00 01 0D D4 00 01 31 C2
 3.351915 1  241             Rx   d 8 AA 00 00 00 00 00 00 94
 3.355371 1  264             Rx   d 8 01 21 00 19 1E 00 00 00
 3.361444 1  231             Rx   d 8 00 00 00 02 57 00 00 00
 3.363393 1  251             Rx   d 8 00 00 00 00 00 00 00 00
 3.365412 1  252             Rx   d 8 00 00 00 01 00 00 00 00
 3.367395 1  253             Rx   d 8 00 00 00 00 00 00 00 00
 3.369363 1  254             Rx   d 8 00 00 00 02 00 00 00 00
 3.371444 1  221             Rx   d 8 00 00 00 00 00 00 00 00
 3.371694 1  311             Rx   d 8 00 01 0D D4 00 01 31 C2
 3.371917 1  241             Rx   d 8 AA 00 00 00 00 00 00 95
 3.383421 1  251             Rx   d 8 00 00 00 00 00 00 00 00
 3.385419 1  252             Rx   d 8 00 00 00 01 00 00 00 00
 3.387419 1  253             Rx   d 8 00 00 00 00 00 00 00 00
 3.389420 1  254             Rx   d 8 00 00 00 02 00 00 00 00
 3.391448 1  221             Rx   d 8 00 00 00 00 00 00 00 00
 3.391693 1  311             Rx   d 8 00 01 0D D4 00 01 31 C2
 3.391918 1  241             Rx   d 8 AA 00 00 00 00 00 00 96
 3.403441 1  251             Rx   d 8 00 00 00 00 00 00 00 00
 3.405447 1  252             Rx   d 8 00 00 00 01 00 00 00 00
 3.407410 1  253             Rx   d 8 00 00 00 00 00 00 00 00
 3.409445 1  254             Rx   d 8 00 00 00 02 00 00 00 00
 3.411471 1  221             Rx   d 8 00 00 00 00 00 00 00 00
 3.411658 1  311             Rx   d 8 00 01 0D D4 00 01 31 C2
 3.411941 1  241             Rx   d 8 AA 00 00 00 00 00 00 97
 3.422446 1  261             Rx   d 8 01 23 00 19 1E 00 00 00
 3.423443 1  251             Rx   d 8 00 00 00 00 00 00 00 00
 3.425444 1  252             Rx   d 8 00 00 00 01 00 00 00 00
 3.427445 1  253             Rx   d 8 00 00 00 00 00 00 00 00
 3.429472 1  254             Rx   d 8 00 00 00 02 00 00 00 00
 3.431473 1  221             Rx   d 8 00 00 00 00 00 00 00 00
 3.431706 1  311             Rx   d 8 00 01 0D D4 00 01 31 C2
 3.431936 1  241             Rx   d 8 AA 00 00 00 00 00 00 98
 3.433462 1  262             Rx   d 8 01 22 00 1A 1E 00 00 00
 3.441513 1  211             Rx   d 8 00 01 01 19 00 00 00 00
 3.443467 1  251             Rx   d 8 00 00 00 00 00 00 00 00
 3.444468 1  263             Rx   d 8 01 23 00 19 1E 00 00 00
 3.445466 1  252             Rx   d 8 00 00 00 01 00 00 00 00
 3.447495 1  253             Rx   d 8 00 00 00 00 00 00 00 00
 3.449498 1  254             Rx   d 8 00 00 00 02 00 00 00 00
 3.451446 1  221             Rx   d 8 00 00 00 00 00 00 00 00
 3.451695 1  311             Rx   d 8 00 01 0D D4 00 01 31 C2
 3.451943 1  241             Rx   d 8 AA 00 00 00 00 00 00 99
 3.455472 1  264             Rx   d 8 01 22 00 19 1E 00 00 00
 3.463495 1  251             Rx   d 8 00 00 00 00 00 00 00 00
 3.465505 1  252             Rx   d 8 00 00 00 01 00 00 00 00
 3.467496 1  253             Rx   d 8 00 00 00 00 00 00 00 00
 3.469499 1  254             Rx   d 8 00 00 00 02 00 00 00 00
 3.471469 1  221             Rx   d 8 00 00 00 00 00 00 00 00
 3.471693 1  311             Rx   d 8 00 01 0D D4 00 01 31 C2
 3.471942 1  241             Rx   d 8 AA 00 00 00 00 00 00 9A
 3.483526 1  251             Rx   d 8 00 00 00 00 00 00 00 00
 3.485521 1  252             Rx   d 8 00 00 00 01 00 00 00 00
 3.487521 1  253             Rx   d 8 00 00 00 00 00 00 00 00
 3.489543 1  254             Rx   d 8 00 00 00 02 00 00 00 00
 3.491473 1  221             Rx   d 8 00 00 00 00 00 00 00 00
 3.491694 1  311             Rx   d 8 00 01 0D D4 00 01 31 C2
 3.491943 1  241             Rx   d 8 AA 00 00 00 00 00 00 9B
 3.503549 1  251             Rx   d 8 00 00 00 00 00 00 00 00
 3.505543 1  252             Rx   d 8 00 00 00 01 00 00 00 00
 3.507551 1  253             Rx   d 8 00 00 00 00 00 00 00 00
 3.509549 1  254             Rx   d 8 00 00 00 02 00 00 00 00
 3.511474 1  221             Rx   d 8 00 00 00 00 00 00 00 00
 3.511697 1  311             Rx   d 8 00 01 0D D4 00 01 31 C2
 3.511944 1  241             Rx   d 8 AA 00 00 00 00 00 00 9C
 3.522547 1  261             Rx   d 8 01 23 00 19 1E 00 00 00
 3.523572 1  251             Rx   d 8 00 00 00 00 00 00 00 00
 3.525548 1  252             Rx   d 8 00 00 00 01 00 00 00 00
 3.527571 1  253             Rx   d 8 00 00 00 00 00 00 00 00
 3.529574 1  254             Rx   d 8 00 00 00 02 00 00 00 00
 3.531471 1  221             Rx   d 8 00 00 00 00 00 00 00 00
 3.531698 1  311             Rx   d 8 00 01 0D D4 00 01 31 C2
 3.531943 1  241             Rx   d 8 AA 00 00 00 00 00 00 9D
 3.533574 1  262             Rx   d 8 01 22 00 1A 1E 00 00 00
 3.543571 1  251             Rx   d 8 00 00 00 00 00 00 00 00
 3.544573 1  263             Rx   d 8 01 23 00 19 1E 00 00 00
 3.545574 1  252             Rx   d 8 00 00 00 01 00 00 00 00
 3.547569 1  253             Rx   d 8 00 00 00 00 00 00 00 00
 3.549574 1  254             Rx   d 8 00 00 00 02 00 00 00 00
 3.551471 1  221             Rx   d 8 00 00 00 00 00 00 00 00
 3.551695 1  311             Rx   d 8 00 01 0D D4 00 01 31 C2
 3.551950 1  241             Rx   d 8 AA 00 00 00 00 00 00 9E
 3.555573 1  264             Rx   d 8 01 22 00 19 1E 00 00 00
 3.563597 1  251             Rx   d 8 00 00 00 00 00 00 00 00
 3.565598 1  252             Rx   d 8 00 00 00 01 00 00 00 00
 3.567596 1  253             Rx   d 8 00 00 00 00 00 00 00 00
 3.569597 1  254             Rx   d 8 00 00 00 02 00 00 00 00
 3.571474 1  221             Rx   d 8 00 00 00 00 00 00 00 00
 3.571661 1  311             Rx   d 8 00 01 0D D4 00 01 31 C2
 3.571947 1  241             Rx   d 8 AA 00 00 00 00 00 00 9F
 3.583626 1  251             Rx   d 8 00 00 00 00 00 00 00 00
 3.585626 1  252             Rx   d 8 00 00 00 01 00 00 00 00
 3.587622 1  253             Rx   d 8 00 00 00 00 00 00 00 00
 3.589622 1  254             Rx   d 8 00 00 00 02 00 00 00 00
 3.591471 1  221             Rx   d 8 00 00 00 00 00 00 00 00
 3.591702 1  311             Rx   d 8 00 01 0D D4 00 01 31 C2
 3.591946 1  241             Rx   d 8 AA 00 00 00 00 00 00 A0
 3.603649 1  251             Rx   d 8 00 00 00 00 00 00 00 00
 3.605659 1  252             Rx   d 8 00 00 00 01 00 00 00 00
 3.607645 1  253             Rx   d 8 00 00 00 00 00 00 00 00
 3.609649 1  254             Rx   d 8 00 00 00 02 00 00 00 00
 3.611476 1  221             Rx   d 8 00 00 00 00 00 00 00 00
 3.611721 1  311             Rx   d 8 00 01 0D D4 00 01 31 C2
 3.611946 1  241             Rx   d 8 AA 00 00 00 00 00 00 A1
 3.622625 1  261             Rx   d 8 01 23 00 19 1E 00 00 00
 3.623674 1  251             Rx   d 8 00 00 00 00 00 00 00 00
 3.625652 1  252             Rx   d 8 00 00 00 01 00 00 00 00
 3.627648 1  253             Rx   d 8 00 00 00 00 00 00 00 00
 3.629675 1  254             Rx   d 8 00 00 00 02 00 00 00 00
 3.631474 1  221             Rx   d 8 00 00 00 00 00 00 00 00
 3.631696 1  311             Rx   d 8 00 01 0D D4 00 01 31 C2
 3.631945 1  241             Rx   d 8 AA 00 00 00 00 00 00 A2
 3.633658 1  262             Rx   d 8 01 22 00 19 1E 00 00 00
 3.641686 1  211             Rx   d 8 00 01 01 19 00 00 00 00
 3.643676 1  251             Rx   d 8 00 00 00 00 00 00 00 00
 3.644675 1  263             Rx   d 8 01 23 00 19 1E 00 00 00
 3.645673 1  252             Rx   d 8 00 00 00 01 00 00 00 00
 3.647672 1  253             Rx   d 8 00 00 00 00 00 00 00 00
 3.649671 1  254             Rx   d 8 00 00 00 02 00 00 00 00
 3.651476 1  221             Rx   d 8 00 00 00 00 00 00 00 00
 3.651719 1  311             Rx   d 8 00 01 0D D4 00 01 31 C2
 3.651976 1  241             Rx   d 8 AA 00 00 00 00 00 00 A3
 3.655675 1  264             Rx   d 8 01 21 00 19 1E 00 00 00
 3.663700 1  251             Rx   d 8 00 00 00 00 00 00 00 00
 3.665699 1  252             Rx   d 8 00 00 00 01 00 00 00 00
 3.667664 1  253             Rx   d 8 00 00 00 00 00 00 00 00
 3.669700 1  254             Rx   d 8 00 00 00 02 00 00 00 00
 3.671481 1  221             Rx   d 8 00 00 00 00 00 00 00 00
 3.671723 1  311             Rx   d 8 00 01 0D D4 00 01 31 C2
 3.671972 1  241             Rx   d 8 AA 00 00 00 00 00 00 A4
 3.683722 1  251             Rx   d 8 00 00 00 00 00 00 00 00
 3.685728 1  252             Rx   d 8 00 00 00 01 00 00 00 00
 3.687723 1  253             Rx   d 8 00 00 00 00 00 00 00 00
 3.689687 1  254             Rx   d 8 00 00 00 02 00 00 00 00
 3.691461 1  221             Rx   d 8 00 00 00 00 00 00 00 00
 3.691722 1  311             Rx   d 8 00 01 0D D4 00 01 31 C2
 3.691971 1  241             Rx   d 8 AA 00 00 00 00 00 00 A5
 3.703726 1  251             Rx   d 8 00 00 00 00 00 00 00 00
 3.705752 1  252             Rx   d 8 00 00 00 01 00 00 00 00
 3.707754 1  253             Rx   d 8 00 00 00 00 00 00 00 00
 3.709748 1  254             Rx   d 8 00 00 00 02 00 00 00 00
 3.711474 1  221             Rx   d 8 00 00 00 00 00 00 00 00
 3.711722 1  311             Rx   d 8 00 01 0D D4 00 01 31 C2
 3.711938 1  241             Rx   d 8 AA 00 00 00 00 00 00 A6
 3.722754 1  261             Rx   d 8 01 23 00 19 1E 00 00 00
 3.723754 1  251             Rx   d 8 00 00 00 00 00 00 00 00
 3.725754 1  252             Rx   d 8 00 00 00 01 00 00 00 00
 3.727743 1  253             Rx   d 8 00 00 00 00 00 00 00 00
 3.729751 1  254             Rx   d 8 00 00 00 02 00 00 00 00
 3.731478 1  221             Rx   d 8 00 00 00 00 00 00 00 00
 3.731729 1  311             Rx   d 8 00 01 0D D4 00 01 31 C2
 3.731973 1  241             Rx   d 8 AA 00 00 00 00 00 00 A7
 3.733751 1  262             Rx   d 8 01 22 00 1A 1E 00 00 00
 3.743783 1  251             Rx   d 8 00 00 00 00 00 00 00 00
 3.744779 1  263             Rx   d 8 01 22 00 19 1E 00 00 00
 3.745776 1  252             Rx   d 8 00 00 00 01 00 00 00 00
 3.747777 1  253             Rx   d 8 00 00 00 00 00 00 00 00
 3.749781 1  254             Rx   d 8 00 00 00 02 00 00 00 00
 3.751501 1  221             Rx   d 8 00 00 00 00 00 00 00 00
 3.751726 1  311             Rx   d 8 00 01 0D D4 00 01 31 C2
 3.751974 1  241             Rx   d 8 AA 00 00 00 00 00 00 A8
 3.755776 1  264             Rx   d 8 01 22 00 19 1E 00 00 00
 3.763803 1  251             Rx   d 8 00 00 00 00 00 00 00 00
 3.765802 1  252             Rx   d 8 00 00 00 01 00 00 00 00
 3.767804 1  253             Rx   d 8 00 00 00 00 00 00 00 00
 3.769801 1  254             Rx   d 8 00 00 00 02 00 00 00 00
 3.771502 1  221             Rx   d 8 00 00 00 00 00 00 00 00
 3.771726 1  311             Rx   d 8 00 01 0D D4 00 01 31 C2
 3.771983 1  241             Rx   d 8 AA 00 00 00 00 00 00 A9
 3.783831 1  251             Rx   d 8 00 00 00 00 00 00 00 00
 3.785825 1  252             Rx   d 8 00 00 00 01 00 00 00 00
 3.787828 1  253             Rx   d 8 00 00 00 00 00 00 00 00
 3.789792 1  254             Rx   d 8 00 00 00 02 00 00 00 00
 3.791490 1  221             Rx   d 8 00 00 00 00 00 00 00 00
 3.791689 1  311             Rx   d 8 00 01 0D D4 00 01 31 C2
 3.791975 1  241             Rx   d 8 AA 00 00 00 00 00 00 AA
 3.803830 1  251             Rx   d 8 00 00 00 00 00 00 00 00
 3.805851 1  252             Rx   d 8 00 00 00 01 00 00 00 00
 3.807858 1  253             Rx   d 8 00 00 00 00 00 00 00 00
 3.809857 1  254             Rx   d 8 00 00 00 02 00 00 00 00
 3.811503 1  221             Rx   d 8 00 00 00 00 00 00 00 00
 3.811722 1  311             Rx   d 8 00 01 0D D4 00 01 31 C2
 3.811975 1  241             Rx   d 8 AA 00 00 00 00 00 00 AB
 3.822855 1  261             Rx   d 8 01 24 00 19 1E 00 00 00
 3.823851 1  251             Rx   d 8 00 00 00 00 00 00 00 00
 3.825858 1  252             Rx   d 8 00 00 00 01 00 00 00 00
 3.827854 1  253             Rx   d 8 00 00 00 00 00 00 00 00
 3.829882 1  254             Rx   d 8 00 00 00 02 00 00 00 00
 3.831507 1  221             Rx   d 8 00 00 00 00 00 00 00 00
 3.831727 1  311             Rx   d 8 00 01 0D D4 00 01 31 C2
 3.831974 1  241             Rx   d 8 AA 00 00 00 00 00 00 AC
 3.833852 1  262             Rx   d 8 01 22 00 1A 1E 00 00 00
 3.841900 1  211             Rx   d 8 00 01 01 19 00 00 00 00
 3.843879 1  251             Rx   d 8 00 00 00 00 00 00 00 00
 3.844875 1  263             Rx   d 8 01 22 00 19 1E 00 00 00
 3.845879 1  252             Rx   d 8 00 00 00 01 00 00 00 00
 3.847878 1  253             Rx   d 8 00 00 00 00 00 00 00 00
 3.849905 1  254             Rx   d 8 00 00 00 02 00 00 00 00
 3.851504 1  221             Rx   d 8 00 00 00 00 00 00 00 00
 3.851726 1  311             Rx   d 8 00 01 0D D4 00 01 31 C2
 3.851975 1  241             Rx   d 8 AA 00 00 00 00 00 00 AD
 3.855888 1  264             Rx   d 8 01 21 00 19 1E 00 00 00
 3.861967 1  231             Rx   d 8 00 00 00 02 5E 00 00 00
 3.863904 1  251             Rx   d 8 00 00 00 00 00 00 00 00
 3.865911 1  252             Rx   d 8 00 00 00 01 00 00 00 00
 3.867904 1  253             Rx   d 8 00 00 00 00 00 00 00 00
 3.869911 1  254             Rx   d 8 00 00 00 02 00 00 00 00
 3.871500 1  221             Rx   d 8 00 00 00 00 00 00 00 00
 3.871727 1  311             Rx   d 8 00 01 0D D4 00 01 31 C2
 3.871942 1  241             Rx   d 8 AA 00 00 00 00 00 00 AE
 3.883931 1  251             Rx   d 8 00 00 00 00 00 00 00 00
 3.885933 1  252             Rx   d 8 00 00 00 01 00 00 00 00
 3.887926 1  253             Rx   d 8 00 00 00 00 00 00 00 00
 3.889937 1  254             Rx   d 8 00 00 00 02 00 00 00 00
 3.891504 1  221             Rx   d 8 00 00 00 00 00 00 00 00
 3.891754 1  311             Rx   d 8 00 01 0D D4 00 01 31 C2
 3.892001 1  241             Rx   d 8 AA 00 00 00 00 00 00 AF
 3.903930 1  251             Rx   d 8 00 00 00 00 00 00 00 00
 3.905949 1  252             Rx   d 8 00 00 00 01 00 00 00 00
 3.907955 1  253             Rx   d 8 00 00 00 00 00 00 00 00
 3.909956 1  254             Rx   d 8 00 00 00 02 00 00 00 00
 3.911504 1  221             Rx   d 8 00 00 00 00 00 00 00 00
 3.911726 1  311             Rx   d 8 00 01 0D D4 00 01 31 C2
 3.911998 1  241             Rx   d 8 AA 00 00 00 00 00 00 B0
 3.922959 1  261             Rx   d 8 01 23 00 19 1E 00 00 00
 3.923953 1  251             Rx   d 8 00 00 00 00 00 00 00 00
 3.925955 1  252             Rx   d 8 00 00 00 02 00 00 00 00
 3.927956 1  253             Rx   d 8 00 00 00 00 00 00 00 00
 3.929981 1  254             Rx   d 8 00 00 00 02 00 00 00 00
 3.931503 1  221             Rx   d 8 00 00 00 00 00 00 00 00
 3.931727 1  311             Rx   d 8 00 01 0D D4 00 01 31 C2
 3.932025 1  241             Rx   d 8 AA 00 00 00 00 00 00 B1
 3.933955 1  262             Rx   d 8 01 22 00 1A 1E 00 00 00
 3.943981 1  251             Rx   d 8 00 00 00 00 00 00 00 00
 3.944985 1  263             Rx   d 8 01 23 00 19 1E 00 00 00
 3.945951 1  252             Rx   d 8 00 00 00 02 00 00 00 00
 3.947954 1  253             Rx   d 8 00 00 00 00 00 00 00 00
 3.950007 1  254             Rx   d 8 00 00 00 02 00 00 00 00
 3.951526 1  221             Rx   d 8 00 00 00 00 00 00 00 00
 3.951760 1  311             Rx   d 8 00 01 0D D4 00 01 31 C2
 3.952030 1  241             Rx   d 8 AA 00 00 00 00 00 00 B2
 3.955984 1  264             Rx   d 8 01 21 00 19 1E 00 00 00
 3.964007 1  251             Rx   d 8 00 00 00 00 00 00 00 00
 3.966009 1  252             Rx   d 8 00 00 00 02 00 00 00 00
 3.968006 1  253             Rx   d 8 00 00 00 00 00 00 00 00
 3.970019 1  254             Rx   d 8 00 00 00 02 00 00 00 00
 3.971504 1  221             Rx   d 8 00 00 00 00 00 00 00 00
 3.971763 1  311             Rx   d 8 00 01 0D D4 00 01 31 C2
 3.972009 1  241             Rx   d 8 AA 00 00 00 00 00 00 B3
 3.984032 1  251             Rx   d 8 00 00 00 00 00 00 00 00
 3.986032 1  252             Rx   d 8 00 00 00 01 00 00 00 00
 3.988032 1  253             Rx   d 8 00 00 00 00 00 00 00 00
 3.990024 1  254             Rx   d 8 00 00 00 02 00 00 00 00
 4.004027 1  251             Rx   d 8 00 00 00 00 00 00 00 00
 4.006022 1  252             Rx   d 8 00 00 00 01 00 00 00 00
 4.008053 1  253             Rx   d 8 00 00 00 00 00 00 00 00
 4.010020 1  254             Rx   d 8 00 00 00 02 00 00 00 00
 4.011522 1  221             Rx   d 8 00 00 00 00 00 00 00 00
 4.011746 1  311             Rx   d 8 00 01 0D D4 00 01 31 C2
 4.012041 1  241             Rx   d 8 AA 00 00 00 00 00 00 B5
 4.023055 1  261             Rx   d 8 01 23 00 19 1E 00 00 00
 4.024027 1  251             Rx   d 8 00 00 00 00 00 00 00 00
 4.026056 1  252             Rx   d 8 00 00 00 01 00 00 00 00
 4.028059 1  253             Rx   d 8 00 00 00 00 00 00 00 00
 4.030023 1  254             Rx   d 8 00 00 00 02 00 00 00 00
 4.031530 1  221             Rx   d 8 00 00 00 00 00 00 00 00
 4.042085 1  211             Rx   d 8 00 01 01 18 00 00 00 00
 4.044084 1  251             Rx   d 8 00 00 00 00 00 00 00 00
 4.051517 1  221             Rx   d 8 00 00 00 00 00 00 00 00
 4.064094 1  251             Rx   d 8 00 00 00 00 00 00 00 00
 4.071532 1  221             Rx   d 8 00 00 00 00 00 00 00 00
 4.084109 1  251             Rx   d 8 00 00 00 00 00 00 00 00
 4.088135 1  253             Rx   d 8 00 00 00 00 00 00 00 00
 4.104136 1  251             Rx   d 8 00 00 00 00 00 00 00 00
 4.106157 1  252             Rx   d 8 00 00 00 01 00 00 00 00
 4.108147 1  253             Rx   d 8 00 00 00 00 00 00 00 00
 4.123160 1  261             Rx   d 8 01 24 00 19 1E 00 00 00
