date Wed Dec 20 03:49:55.768 PM 2023
base hex  timestamps absolute
internal events logged
Begin Triggerblock Wed Dec 20 03:49:55.765 PM 2023
 0.000000 Start of measurement
 0.000000 1  211             Rx   d 8 00 01 01 1E 00 00 00 00
 0.001973 1  251             Rx   d 8 00 00 00 00 00 00 00 00
 0.002948 1  263             Rx   d 8 01 29 00 16 1E 00 00 00
 0.003979 1  252             Rx   d 8 00 00 00 01 00 00 00 00
 0.006014 1  253             Rx   d 8 00 00 00 00 00 00 00 00
 0.007978 1  254             Rx   d 8 00 00 00 02 00 00 00 00
 0.010021 1  241             Rx   d 8 AA 00 00 00 00 00 00 0D
 0.011811 1  221             Rx   d 8 00 00 00 00 00 00 00 00
 0.012047 1  311             Rx   d 8 FF FF FF FF 00 00 00 01
 0.013987 1  264             Rx   d 8 01 27 00 15 1E 00 00 00
 0.022038 1  251             Rx   d 8 00 00 00 00 00 00 00 00
 0.024094 1  252             Rx   d 8 00 00 00 01 00 00 00 00
 0.026001 1  253             Rx   d 8 00 00 00 00 00 00 00 00
 0.028059 1  254             Rx   d 8 00 00 00 02 00 00 00 00
 0.030010 1  241             Rx   d 8 AA 00 00 00 00 00 00 0E
 0.031768 1  221             Rx   d 8 00 00 00 00 00 00 00 00
 0.032014 1  311             Rx   d 8 FF FF FF FF 00 00 00 01
 0.041972 1  251             Rx   d 8 00 00 00 00 00 00 00 00
 0.043992 1  252             Rx   d 8 00 00 00 01 00 00 00 00
 0.045991 1  253             Rx   d 8 00 00 00 00 00 00 00 00
 0.047992 1  254             Rx   d 8 00 00 00 02 00 00 00 00
 0.050068 1  241             Rx   d 8 AA 00 00 00 00 00 00 0F
 0.051768 1  221             Rx   d 8 00 00 00 00 00 00 00 00
 0.052015 1  311             Rx   d 8 FF FF FF FF 00 00 00 01
 0.061999 1  251             Rx   d 8 00 00 00 00 00 00 00 00
 0.064169 1  252             Rx   d 8 00 00 00 01 00 00 00 00
 0.066060 1  253             Rx   d 8 00 00 00 00 00 00 00 00
 0.068166 1  254             Rx   d 8 00 00 00 02 00 00 00 00
 0.070131 1  241             Rx   d 8 AA 00 00 00 00 00 00 10
 0.071832 1  221             Rx   d 8 00 00 00 00 00 00 00 00
 0.072045 1  311             Rx   d 8 FF FF FF FF 00 00 00 01
 0.081023 1  261             Rx   d 8 01 29 00 16 1E 00 00 00
 0.082017 1  251             Rx   d 8 00 00 00 00 00 00 00 00
 0.084018 1  252             Rx   d 8 00 00 00 01 00 00 00 00
 0.086016 1  253             Rx   d 8 00 00 00 00 00 00 00 00
 0.088067 1  254             Rx   d 8 00 00 00 02 00 00 00 00
 0.090067 1  241             Rx   d 8 AA 00 00 00 00 00 00 11
 0.091767 1  221             Rx   d 8 00 00 00 00 00 00 00 00
 0.092015 1  311             Rx   d 8 FF FF FF FF 00 00 00 01
 0.092266 1  262             Rx   d 8 01 27 00 16 1E 00 00 00
 0.102224 1  251             Rx   d 8 00 00 00 00 00 00 00 00
 0.103209 1  263             Rx   d 8 01 29 00 16 1E 00 00 00
 0.104218 1  252             Rx   d 8 00 00 00 01 00 00 00 00
 0.106223 1  253             Rx   d 8 00 00 00 00 00 00 00 00
 0.108222 1  254             Rx   d 8 00 00 00 02 00 00 00 00
 0.110244 1  241             Rx   d 8 AA 00 00 00 00 00 00 12
 0.111914 1  221             Rx   d 8 00 00 00 00 00 00 00 00
 0.112191 1  311             Rx   d 8 FF FF FF FF 00 00 00 01
 0.114218 1  264             Rx   d 8 01 27 00 15 1E 00 00 00
 0.122080 1  251             Rx   d 8 00 00 00 00 00 00 00 00
 0.124295 1  252             Rx   d 8 00 00 00 01 00 00 00 00
 0.126145 1  253             Rx   d 8 00 00 00 00 00 00 00 00
 0.128215 1  254             Rx   d 8 00 00 00 02 00 00 00 00
 0.130218 1  241             Rx   d 8 AA 00 00 00 00 00 00 13
 0.131913 1  221             Rx   d 8 00 00 00 00 00 00 00 00
 0.132198 1  311             Rx   d 8 FF FF FF FF 00 00 00 01
 0.142234 1  251             Rx   d 8 00 00 00 00 00 00 00 00
 0.144238 1  252             Rx   d 8 00 00 00 01 00 00 00 00
 0.146212 1  253             Rx   d 8 00 00 00 00 00 00 00 00
 0.148140 1  254             Rx   d 8 00 00 00 02 00 00 00 00
 0.150317 1  241             Rx   d 8 AA 00 00 00 00 00 00 14
 0.151934 1  221             Rx   d 8 00 00 00 00 00 00 00 00
 0.152203 1  311             Rx   d 8 FF FF FF FF 00 00 00 01
 0.162159 1  251             Rx   d 8 00 00 00 00 00 00 00 00
 0.164144 1  252             Rx   d 8 00 00 00 01 00 00 00 00
 0.166239 1  253             Rx   d 8 00 00 00 00 00 00 00 00
 0.168346 1  254             Rx   d 8 00 00 00 02 00 00 00 00
 0.170402 1  241             Rx   d 8 AA 00 00 00 00 00 00 15
 0.171916 1  221             Rx   d 8 00 00 00 00 00 00 00 00
 0.172079 1  311             Rx   d 8 FF FF FF FF 00 00 00 01
 0.181142 1  261             Rx   d 8 01 29 00 16 1E 00 00 00
 0.182176 1  251             Rx   d 8 00 00 00 00 00 00 00 00
 0.184265 1  252             Rx   d 8 00 00 00 01 00 00 00 00
 0.186272 1  253             Rx   d 8 00 00 00 00 00 00 00 00
 0.188293 1  254             Rx   d 8 00 00 00 02 00 00 00 00
 0.190322 1  241             Rx   d 8 AA 00 00 00 00 00 00 16
 0.191807 1  221             Rx   d 8 00 00 00 00 00 00 00 00
 0.192121 1  311             Rx   d 8 FF FF FF FF 00 00 00 01
 0.192324 1  262             Rx   d 8 01 27 00 16 1E 00 00 00
 0.200340 1  211             Rx   d 8 00 01 01 1F 00 00 00 00
 0.202301 1  251             Rx   d 8 00 00 00 00 00 00 00 00
 0.203274 1  263             Rx   d 8 01 29 00 16 1E 00 00 00
 0.204299 1  252             Rx   d 8 00 00 00 01 00 00 00 00
 0.206296 1  253             Rx   d 8 00 00 00 00 00 00 00 00
 0.208207 1  254             Rx   d 8 00 00 00 02 00 00 00 00
 0.210340 1  241             Rx   d 8 AA 00 00 00 00 00 00 17
 0.211943 1  221             Rx   d 8 00 00 00 00 00 00 00 00
 0.212131 1  311             Rx   d 8 FF FF FF FF 00 00 00 01
 0.214210 1  264             Rx   d 8 01 27 00 15 1E 00 00 00
 0.222334 1  251             Rx   d 8 00 00 00 00 00 00 00 00
 0.224247 1  252             Rx   d 8 00 00 00 01 00 00 00 00
 0.226315 1  253             Rx   d 8 00 00 00 00 00 00 00 00
 0.228320 1  254             Rx   d 8 00 00 00 02 00 00 00 00
 0.230351 1  241             Rx   d 8 AA 00 00 00 00 00 00 18
 0.231943 1  221             Rx   d 8 00 00 00 00 00 00 00 00
 0.232147 1  311             Rx   d 8 FF FF FF FF 00 00 00 01
 0.242396 1  251             Rx   d 8 00 00 00 00 00 00 00 00
 0.244238 1  252             Rx   d 8 00 00 00 01 00 00 00 00
 0.246224 1  253             Rx   d 8 00 00 00 00 00 00 00 00
 0.248250 1  254             Rx   d 8 00 00 00 02 00 00 00 00
 0.250256 1  241             Rx   d 8 AA 00 00 00 00 00 00 19
 0.251830 1  221             Rx   d 8 00 00 00 00 00 00 00 00
 0.252106 1  311             Rx   d 8 FF FF FF FF 00 00 00 01
 0.262217 1  251             Rx   d 8 00 00 00 00 00 00 00 00
 0.264254 1  252             Rx   d 8 00 00 00 01 00 00 00 00
 0.266327 1  253             Rx   d 8 00 00 00 00 00 00 00 00
 0.268386 1  254             Rx   d 8 00 00 00 02 00 00 00 00
 0.270334 1  241             Rx   d 8 AA 00 00 00 00 00 00 1A
 0.271968 1  221             Rx   d 8 00 00 00 00 00 00 00 00
 0.272122 1  311             Rx   d 8 FF FF FF FF 00 00 00 01
 0.281281 1  261             Rx   d 8 01 29 00 16 1E 00 00 00
 0.282354 1  251             Rx   d 8 00 00 00 00 00 00 00 00
 0.284360 1  252             Rx   d 8 00 00 00 01 00 00 00 00
 0.286287 1  253             Rx   d 8 00 00 00 00 00 00 00 00
 0.288299 1  254             Rx   d 8 00 00 00 02 00 00 00 00
 0.290417 1  241             Rx   d 8 AA 00 00 00 00 00 00 1B
 0.291970 1  221             Rx   d 8 00 00 00 00 00 00 00 00
 0.292078 1  311             Rx   d 8 FF FF FF FF 00 00 00 01
 0.292457 1  262             Rx   d 8 01 28 00 16 1E 00 00 00
 0.302404 1  251             Rx   d 8 00 00 00 00 00 00 00 00
 0.303301 1  263             Rx   d 8 01 29 00 16 1E 00 00 00
 0.304394 1  252             Rx   d 8 00 00 00 01 00 00 00 00
 0.306397 1  253             Rx   d 8 00 00 00 00 00 00 00 00
 0.308405 1  254             Rx   d 8 00 00 00 02 00 00 00 00
 0.310451 1  241             Rx   d 8 AA 00 00 00 00 00 00 1C
 0.311946 1  221             Rx   d 8 00 00 00 00 00 00 00 00
 0.312160 1  311             Rx   d 8 FF FF FF FF 00 00 00 01
 0.314405 1  264             Rx   d 8 01 27 00 15 1E 00 00 00
 0.320580 1  231             Rx   d 8 00 00 00 02 2E 00 00 00
 0.322498 1  251             Rx   d 8 00 00 00 00 00 00 00 00
 0.324509 1  252             Rx   d 8 00 00 00 01 00 00 00 00
 0.326487 1  253             Rx   d 8 00 00 00 00 00 00 00 00
 0.328405 1  254             Rx   d 8 00 00 00 02 00 00 00 00
 0.330295 1  241             Rx   d 8 AA 00 00 00 00 00 00 1D
 0.331848 1  221             Rx   d 8 00 00 00 00 00 00 00 00
 0.332120 1  311             Rx   d 8 FF FF FF FF 00 00 00 01
 0.342294 1  251             Rx   d 8 00 00 00 00 00 00 00 00
 0.344302 1  252             Rx   d 8 00 00 00 01 00 00 00 00
 0.346282 1  253             Rx   d 8 00 00 00 00 00 00 00 00
 0.348307 1  254             Rx   d 8 00 00 00 02 00 00 00 00
 0.350325 1  241             Rx   d 8 AA 00 00 00 00 00 00 1E
 0.351828 1  221             Rx   d 8 00 00 00 00 00 00 00 00
 0.352079 1  311             Rx   d 8 FF FF FF FF 00 00 00 01
 0.362306 1  251             Rx   d 8 00 00 00 00 00 00 00 00
 0.364305 1  252             Rx   d 8 00 00 00 01 00 00 00 00
 0.366300 1  253             Rx   d 8 00 00 00 00 00 00 00 00
 0.368325 1  254             Rx   d 8 00 00 00 02 00 00 00 00
 0.370400 1  241             Rx   d 8 AA 00 00 00 00 00 00 1F
 0.371805 1  221             Rx   d 8 00 00 00 00 00 00 00 00
 0.372076 1  311             Rx   d 8 FF FF FF FF 00 00 00 01
 0.381327 1  261             Rx   d 8 01 29 00 16 1E 00 00 00
 0.382323 1  251             Rx   d 8 00 00 00 00 00 00 00 00
 0.384324 1  252             Rx   d 8 00 00 00 01 00 00 00 00
 0.386323 1  253             Rx   d 8 00 00 00 00 00 00 00 00
 0.388353 1  254             Rx   d 8 00 00 00 02 00 00 00 00
 0.390524 1  241             Rx   d 8 AA 00 00 00 00 00 00 20
 0.391974 1  221             Rx   d 8 00 00 00 00 00 00 00 00
 0.392258 1  311             Rx   d 8 FF FF FF FF 00 00 00 01
 0.392388 1  262             Rx   d 8 01 28 00 16 1E 00 00 00
 0.400472 1  211             Rx   d 8 00 01 01 1F 00 00 00 00
 0.402494 1  251             Rx   d 8 00 00 00 00 00 00 00 00
 0.403493 1  263             Rx   d 8 01 29 00 16 1E 00 00 00
 0.404496 1  252             Rx   d 8 00 00 00 01 00 00 00 00
 0.406511 1  253             Rx   d 8 00 00 00 00 00 00 00 00
 0.408503 1  254             Rx   d 8 00 00 00 02 00 00 00 00
 0.410555 1  241             Rx   d 8 AA 00 00 00 00 00 00 21
 0.411866 1  221             Rx   d 8 00 00 00 00 00 00 00 00
 0.412109 1  311             Rx   d 8 FF FF FF FF 00 00 00 01
 0.414420 1  264             Rx   d 8 01 27 00 15 1E 00 00 00
 0.422354 1  251             Rx   d 8 00 00 00 00 00 00 00 00
 0.424374 1  252             Rx   d 8 00 00 00 01 00 00 00 00
 0.426374 1  253             Rx   d 8 00 00 00 00 00 00 00 00
 0.428375 1  254             Rx   d 8 00 00 00 02 00 00 00 00
 0.430374 1  241             Rx   d 8 AA 00 00 00 00 00 00 22
 0.431800 1  221             Rx   d 8 00 00 00 00 00 00 00 00
 0.432074 1  311             Rx   d 8 FF FF FF FF 00 00 00 01
 0.442629 1  251             Rx   d 8 00 00 00 00 00 00 00 00
 0.444637 1  252             Rx   d 8 00 00 00 01 00 00 00 00
 0.446607 1  253             Rx   d 8 00 00 00 00 00 00 00 00
 0.448634 1  254             Rx   d 8 00 00 00 02 00 00 00 00
 0.450656 1  241             Rx   d 8 AA 00 00 00 00 00 00 23
 0.451981 1  221             Rx   d 8 00 00 00 00 00 00 00 00
 0.452154 1  311             Rx   d 8 FF FF FF FF 00 00 00 01
 0.462512 1  251             Rx   d 8 00 00 00 00 00 00 00 00
 0.464504 1  252             Rx   d 8 00 00 00 00 00 00 00 00
 0.466530 1  253             Rx   d 8 00 00 00 00 00 00 00 00
 0.468579 1  254             Rx   d 8 00 00 00 02 00 00 00 00
 0.470633 1  241             Rx   d 8 AA 00 00 00 00 00 00 24
 0.471975 1  221             Rx   d 8 00 00 00 00 00 00 00 00
 0.472155 1  311             Rx   d 8 FF FF FF FF 00 00 00 01
 0.481509 1  261             Rx   d 8 01 29 00 16 1E 00 00 00
 0.482653 1  251             Rx   d 8 00 00 00 00 00 00 00 00
 0.484580 1  252             Rx   d 8 00 00 00 00 00 00 00 00
 0.486582 1  253             Rx   d 8 00 00 00 00 00 00 00 00
 0.488603 1  254             Rx   d 8 00 00 00 02 00 00 00 00
 0.490631 1  241             Rx   d 8 AA 00 00 00 00 00 00 25
 0.492060 1  221             Rx   d 8 00 00 00 00 00 00 00 00
 0.492096 1  311             Rx   d 8 FF FF FF FF 00 00 00 01
 0.492646 1  262             Rx   d 8 01 27 00 16 1E 00 00 00
 0.502605 1  251             Rx   d 8 00 00 00 00 00 00 00 00
 0.503491 1  263             Rx   d 8 01 29 00 16 1E 00 00 00
 0.504508 1  252             Rx   d 8 00 00 00 01 00 00 00 00
 0.506506 1  253             Rx   d 8 00 00 00 00 00 00 00 00
 0.508506 1  254             Rx   d 8 00 00 00 02 00 00 00 00
 0.510541 1  241             Rx   d 8 AA 00 00 00 00 00 00 26
 0.511863 1  221             Rx   d 8 00 00 00 00 00 00 00 00
 0.512118 1  311             Rx   d 8 FF FF FF FF 00 00 00 01
 0.514485 1  264             Rx   d 8 01 27 00 15 1E 00 00 00
 0.522697 1  251             Rx   d 8 00 00 00 00 00 00 00 00
 0.524706 1  252             Rx   d 8 00 00 00 01 00 00 00 00
 0.526706 1  253             Rx   d 8 00 00 00 00 00 00 00 00
 0.528711 1  254             Rx   d 8 00 00 00 02 00 00 00 00
 0.530751 1  241             Rx   d 8 AA 00 00 00 00 00 00 27
 0.532052 1  221             Rx   d 8 00 00 00 00 00 00 00 00
 0.532084 1  311             Rx   d 8 FF FF FF FF 00 00 00 01
 0.542734 1  251             Rx   d 8 00 00 00 00 00 00 00 00
 0.544625 1  252             Rx   d 8 00 00 00 01 00 00 00 00
 0.546727 1  253             Rx   d 8 00 00 00 00 00 00 00 00
 0.548651 1  254             Rx   d 8 00 00 00 02 00 00 00 00
 0.550758 1  241             Rx   d 8 AA 00 00 00 00 00 00 28
 0.552047 1  221             Rx   d 8 00 00 00 00 00 00 00 00
 0.552084 1  311             Rx   d 8 FF FF FF FF 00 00 00 01
 0.562717 1  251             Rx   d 8 00 00 00 00 00 00 00 00
 0.564717 1  252             Rx   d 8 00 00 00 01 00 00 00 00
 0.566646 1  253             Rx   d 8 00 00 00 00 00 00 00 00
 0.568668 1  254             Rx   d 8 00 00 00 02 00 00 00 00
 0.570744 1  241             Rx   d 8 AA 00 00 00 00 00 00 29
 0.572047 1  221             Rx   d 8 00 00 00 00 00 00 00 00
 0.572084 1  311             Rx   d 8 FF FF FF FF 00 00 00 01
 0.581765 1  261             Rx   d 8 01 29 00 16 1E 00 00 00
 0.582594 1  251             Rx   d 8 00 00 00 00 00 00 00 00
 0.584684 1  252             Rx   d 8 00 00 00 01 00 00 00 00
 0.586685 1  253             Rx   d 8 00 00 00 00 00 00 00 00
 0.588706 1  254             Rx   d 8 00 00 00 02 00 00 00 00
 0.590653 1  241             Rx   d 8 AA 00 00 00 00 00 00 2A
 0.591882 1  221             Rx   d 8 00 00 00 00 00 00 00 00
 0.592086 1  311             Rx   d 8 FF FF FF FF 00 00 00 01
 0.592536 1  262             Rx   d 8 01 27 00 16 1E 00 00 00
 0.595479 1  421             Tx   d 1 01
 0.600679 1  211             Rx   d 8 00 01 01 1F 00 00 00 00
 0.602590 1  251             Rx   d 8 00 00 00 00 00 00 00 00
 0.603590 1  263             Rx   d 8 01 29 00 16 1E 00 00 00
 0.604589 1  252             Rx   d 8 00 00 00 01 00 00 00 00
 0.606590 1  253             Rx   d 8 00 00 00 00 00 00 00 00
 0.608652 1  254             Rx   d 8 00 00 00 02 00 00 00 00
 0.610642 1  241             Rx   d 8 AA 00 00 00 00 00 00 2B
 0.611961 1  221             Rx   d 8 00 00 00 00 00 00 00 00
 0.612203 1  311             Rx   d 8 FF FF FF FF 00 00 00 01
 0.614692 1  264             Rx   d 8 01 27 00 15 1E 00 00 00
 0.622614 1  251             Rx   d 8 00 00 00 00 00 00 00 00
 0.624657 1  252             Rx   d 8 00 00 00 01 00 00 00 00
 0.626675 1  253             Rx   d 8 00 00 00 00 00 00 00 00
 0.628675 1  254             Rx   d 8 00 00 00 02 00 00 00 00
 0.630621 1  241             Rx   d 8 AA 00 00 00 00 00 00 2C
 0.631887 1  221             Rx   d 8 00 00 00 00 00 00 00 00
 0.632137 1  311             Rx   d 8 FF FF FF FF 00 00 00 01
 0.642642 1  251             Rx   d 8 00 00 00 00 00 00 00 00
 0.644715 1  252             Rx   d 8 00 00 00 01 00 00 00 00
 0.646720 1  253             Rx   d 8 00 00 00 00 00 00 00 00
 0.648663 1  254             Rx   d 8 00 00 00 02 00 00 00 00
 0.650803 1  241             Rx   d 8 AA 00 00 00 00 00 00 2D
 0.651905 1  221             Rx   d 8 00 00 00 00 00 00 00 00
 0.652266 1  311             Rx   d 8 FF FF FF FF 00 00 00 01
 0.662688 1  251             Rx   d 8 00 00 00 00 00 00 00 00
 0.664670 1  252             Rx   d 8 00 00 00 01 00 00 00 00
 0.666762 1  253             Rx   d 8 00 00 00 00 00 00 00 00
 0.668786 1  254             Rx   d 8 00 00 00 02 00 00 00 00
 0.670846 1  241             Rx   d 8 AA 00 00 00 00 00 00 2E
 0.671984 1  221             Rx   d 8 00 00 00 00 00 00 00 00
 0.672184 1  311             Rx   d 8 FF FF FF FF 00 00 00 01
 0.681693 1  261             Rx   d 8 01 29 00 16 1E 00 00 00
 0.682680 1  251             Rx   d 8 00 00 00 00 00 00 00 00
 0.684645 1  252             Rx   d 8 00 00 00 01 00 00 00 00
 0.686636 1  253             Rx   d 8 00 00 00 00 00 00 00 00
 0.688661 1  254             Rx   d 8 00 00 00 02 00 00 00 00
 0.690638 1  241             Rx   d 8 AA 00 00 00 00 00 00 2F
 0.691861 1  221             Rx   d 8 00 00 00 00 00 00 00 00
 0.692085 1  311             Rx   d 8 FF FF FF FF 00 00 00 01
 0.692633 1  262             Rx   d 8 01 27 00 16 1E 00 00 00
 0.702668 1  251             Rx   d 8 00 00 00 00 00 00 00 00
 0.703637 1  263             Rx   d 8 01 29 00 16 1E 00 00 00
 0.704660 1  252             Rx   d 8 00 00 00 01 00 00 00 00
 0.706662 1  253             Rx   d 8 00 00 00 00 00 00 00 00
 0.708664 1  254             Rx   d 8 00 00 00 02 00 00 00 00
 0.710711 1  241             Rx   d 8 AA 00 00 00 00 00 00 30
 0.711862 1  221             Rx   d 8 00 00 00 00 00 00 00 00
 0.712111 1  311             Rx   d 8 FF FF FF FF 00 00 00 01
 0.714663 1  264             Rx   d 8 01 27 00 15 1E 00 00 00
 0.722658 1  251             Rx   d 8 00 00 00 00 00 00 00 00
 0.724683 1  252             Rx   d 8 00 00 00 01 00 00 00 00
 0.726683 1  253             Rx   d 8 00 00 00 00 00 00 00 00
 0.728683 1  254             Rx   d 8 00 00 00 02 00 00 00 00
 0.730732 1  241             Rx   d 8 AA 00 00 00 00 00 00 31
 0.731858 1  221             Rx   d 8 00 00 00 00 00 00 00 00
 0.732083 1  311             Rx   d 8 FF FF FF FF 00 00 00 01
 0.742693 1  251             Rx   d 8 00 00 00 00 00 00 00 00
 0.744721 1  252             Rx   d 8 00 00 00 01 00 00 00 00
 0.746700 1  253             Rx   d 8 00 00 00 00 00 00 00 00
 0.748780 1  254             Rx   d 8 00 00 00 02 00 00 00 00
 0.750772 1  241             Rx   d 8 AA 00 00 00 00 00 00 32
 0.751880 1  221             Rx   d 8 00 00 00 00 00 00 00 00
 0.752136 1  311             Rx   d 8 FF FF FF FF 00 00 00 01
 0.762716 1  251             Rx   d 8 00 00 00 00 00 00 00 00
 0.764708 1  252             Rx   d 8 00 00 00 01 00 00 00 00
 0.766708 1  253             Rx   d 8 00 00 00 00 00 00 00 00
 0.768739 1  254             Rx   d 8 00 00 00 02 00 00 00 00
 0.770801 1  241             Rx   d 8 AA 00 00 00 00 00 00 33
 0.771895 1  221             Rx   d 8 00 00 00 00 00 00 00 00
 0.772139 1  311             Rx   d 8 FF FF FF FF 00 00 00 01
 0.781767 1  261             Rx   d 8 01 29 00 16 1E 00 00 00
 0.782762 1  251             Rx   d 8 00 00 00 00 00 00 00 00
 0.784768 1  252             Rx   d 8 00 00 00 01 00 00 00 00
 0.786832 1  253             Rx   d 8 00 00 00 00 00 00 00 00
 0.788839 1  254             Rx   d 8 00 00 00 02 00 00 00 00
 0.790828 1  241             Rx   d 8 AA 00 00 00 00 00 00 34
 0.791903 1  221             Rx   d 8 00 00 00 00 00 00 00 00
 0.792149 1  311             Rx   d 8 FF FF FF FF 00 00 00 01
 0.792755 1  262             Rx   d 8 01 27 00 16 1E 00 00 00
 0.800769 1  211             Rx   d 8 00 01 01 1E 00 00 00 00
 0.802821 1  251             Rx   d 8 00 00 00 00 00 00 00 00
 0.803770 1  263             Rx   d 8 01 29 00 16 1E 00 00 00
 0.804788 1  252             Rx   d 8 00 00 00 01 00 00 00 00
 0.806796 1  253             Rx   d 8 00 00 00 00 00 00 00 00
 0.808793 1  254             Rx   d 8 00 00 00 02 00 00 00 00
 0.810816 1  241             Rx   d 8 AA 00 00 00 00 00 00 35
 0.811888 1  221             Rx   d 8 00 00 00 00 00 00 00 00
 0.812147 1  311             Rx   d 8 FF FF FF FF 00 00 00 01
 0.814802 1  264             Rx   d 8 01 27 00 15 1E 00 00 00
 0.820873 1  231             Rx   d 8 00 00 00 02 1A 00 00 00
 0.822804 1  251             Rx   d 8 00 00 00 00 00 00 00 00
 0.824817 1  252             Rx   d 8 00 00 00 01 00 00 00 00
 0.826818 1  253             Rx   d 8 00 00 00 00 00 00 00 00
 0.828902 1  254             Rx   d 8 00 00 00 02 00 00 00 00
 0.830838 1  241             Rx   d 8 AA 00 00 00 00 00 00 36
 0.831866 1  221             Rx   d 8 00 00 00 00 00 00 00 00
 0.832110 1  311             Rx   d 8 FF FF FF FF 00 00 00 01
 0.842793 1  251             Rx   d 8 00 00 00 00 00 00 00 00
 0.844811 1  252             Rx   d 8 00 00 00 01 00 00 00 00
 0.846786 1  253             Rx   d 8 00 00 00 00 00 00 00 00
 0.848785 1  254             Rx   d 8 00 00 00 02 00 00 00 00
 0.850836 1  241             Rx   d 8 AA 00 00 00 00 00 00 37
 0.851860 1  221             Rx   d 8 00 00 00 00 00 00 00 00
 0.852110 1  311             Rx   d 8 FF FF FF FF 00 00 00 01
 0.862821 1  251             Rx   d 8 00 00 00 00 00 00 00 00
 0.864815 1  252             Rx   d 8 00 00 00 01 00 00 00 00
 0.866819 1  253             Rx   d 8 00 00 00 00 00 00 00 00
 0.868839 1  254             Rx   d 8 00 00 00 02 00 00 00 00
 0.870899 1  241             Rx   d 8 AA 00 00 00 00 00 00 38
 0.871907 1  221             Rx   d 8 00 00 00 00 00 00 00 00
 0.872142 1  311             Rx   d 8 FF FF FF FF 00 00 00 01
 0.881838 1  261             Rx   d 8 01 29 00 16 1E 00 00 00
 0.882836 1  251             Rx   d 8 00 00 00 00 00 00 00 00
 0.884836 1  252             Rx   d 8 00 00 00 01 00 00 00 00
 0.886837 1  253             Rx   d 8 00 00 00 00 00 00 00 00
 0.888837 1  254             Rx   d 8 00 00 00 02 00 00 00 00
 0.890887 1  241             Rx   d 8 AA 00 00 00 00 00 00 39
 0.891861 1  221             Rx   d 8 00 00 00 00 00 00 00 00
 0.892112 1  311             Rx   d 8 FF FF FF FF 00 00 00 01
 0.892835 1  262             Rx   d 8 01 27 00 16 1E 00 00 00
 0.902902 1  251             Rx   d 8 00 00 00 00 00 00 00 00
 0.903898 1  263             Rx   d 8 01 28 00 16 1E 00 00 00
 0.904894 1  252             Rx   d 8 00 00 00 01 00 00 00 00
 0.906900 1  253             Rx   d 8 00 00 00 00 00 00 00 00
 0.908901 1  254             Rx   d 8 00 00 00 02 00 00 00 00
 0.910950 1  241             Rx   d 8 AA 00 00 00 00 00 00 3A
 0.911905 1  221             Rx   d 8 00 00 00 00 00 00 00 00
 0.912174 1  311             Rx   d 8 FF FF FF FF 00 00 00 01
 0.914894 1  264             Rx   d 8 01 27 00 15 1E 00 00 00
 0.922904 1  251             Rx   d 8 00 00 00 00 00 00 00 00
 0.924901 1  252             Rx   d 8 00 00 00 01 00 00 00 00
 0.926928 1  253             Rx   d 8 00 00 00 00 00 00 00 00
 0.928929 1  254             Rx   d 8 00 00 00 02 00 00 00 00
 0.930975 1  241             Rx   d 8 AA 00 00 00 00 00 00 3B
 0.931921 1  221             Rx   d 8 00 00 00 00 00 00 00 00
 0.932176 1  311             Rx   d 8 FF FF FF FF 00 00 00 01
 0.942932 1  251             Rx   d 8 00 00 00 00 00 00 00 00
 0.944926 1  252             Rx   d 8 00 00 00 01 00 00 00 00
 0.946947 1  253             Rx   d 8 00 00 00 00 00 00 00 00
 0.948949 1  254             Rx   d 8 00 00 00 02 00 00 00 00
 0.951000 1  241             Rx   d 8 AA 00 00 00 00 00 00 3C
 0.951900 1  221             Rx   d 8 00 00 00 00 00 00 00 00
 0.952146 1  311             Rx   d 8 FF FF FF FF 00 00 00 01
 0.962956 1  251             Rx   d 8 00 00 00 00 00 00 00 00
 0.964949 1  252             Rx   d 8 00 00 00 01 00 00 00 00
 0.966952 1  253             Rx   d 8 00 00 00 00 00 00 00 00
 0.968950 1  254             Rx   d 8 00 00 00 02 00 00 00 00
 0.971004 1  241             Rx   d 8 AA 00 00 00 00 00 00 3D
 0.971902 1  221             Rx   d 8 00 00 00 00 00 00 00 00
 0.972175 1  311             Rx   d 8 FF FF FF FF 00 00 00 01
 0.981992 1  261             Rx   d 8 01 29 00 16 1E 00 00 00
 0.982988 1  251             Rx   d 8 00 00 00 00 00 00 00 00
 0.984988 1  252             Rx   d 8 00 00 00 01 00 00 00 00
 0.986989 1  253             Rx   d 8 00 00 00 00 00 00 00 00
 0.988993 1  254             Rx   d 8 00 00 00 02 00 00 00 00
 0.991042 1  241             Rx   d 8 AA 00 00 00 00 00 00 3E
 0.991906 1  221             Rx   d 8 00 00 00 00 00 00 00 00
 0.992164 1  311             Rx   d 8 FF FF FF FF 00 00 00 01
 0.992983 1  262             Rx   d 8 01 27 00 16 1E 00 00 00
 1.001068 1  211             Rx   d 8 00 01 01 1F 00 00 00 00
 1.003011 1  251             Rx   d 8 00 00 00 00 00 00 00 00
 1.003991 1  263             Rx   d 8 01 29 00 16 1E 00 00 00
 1.005014 1  252             Rx   d 8 00 00 00 01 00 00 00 00
 1.007014 1  253             Rx   d 8 00 00 00 00 00 00 00 00
 1.009013 1  254             Rx   d 8 00 00 00 02 00 00 00 00
 1.011050 1  241             Rx   d 8 AA 00 00 00 00 00 00 3F
 1.011906 1  221             Rx   d 8 00 00 00 00 00 00 00 00
 1.012174 1  311             Rx   d 8 FF FF FF FF 00 00 00 01
 1.014999 1  264             Rx   d 8 01 27 00 15 1E 00 00 00
 1.023003 1  251             Rx   d 8 00 00 00 00 00 00 00 00
 1.025031 1  252             Rx   d 8 00 00 00 01 00 00 00 00
 1.027029 1  253             Rx   d 8 00 00 00 00 00 00 00 00
 1.029027 1  254             Rx   d 8 00 00 00 02 00 00 00 00
 1.031026 1  241             Rx   d 8 AA 00 00 00 00 00 00 40
 1.031926 1  221             Rx   d 8 00 00 00 00 00 00 00 00
 1.032180 1  311             Rx   d 8 FF FF FF FF 00 00 00 01
 1.043025 1  251             Rx   d 8 00 00 00 00 00 00 00 00
 1.045052 1  252             Rx   d 8 00 00 00 01 00 00 00 00
 1.047055 1  253             Rx   d 8 00 00 00 00 00 00 00 00
 1.049027 1  254             Rx   d 8 00 00 00 02 00 00 00 00
 1.051053 1  241             Rx   d 8 AA 00 00 00 00 00 00 41
 1.051934 1  221             Rx   d 8 00 00 00 00 00 00 00 00
 1.052178 1  311             Rx   d 8 FF FF FF FF 00 00 00 01
 1.063134 1  251             Rx   d 8 00 00 00 00 00 00 00 00
 1.065050 1  252             Rx   d 8 00 00 00 01 00 00 00 00
 1.067053 1  253             Rx   d 8 00 00 00 00 00 00 00 00
 1.069052 1  254             Rx   d 8 00 00 00 02 00 00 00 00
 1.071127 1  241             Rx   d 8 AA 00 00 00 00 00 00 42
 1.071891 1  221             Rx   d 8 00 00 00 00 00 00 00 00
 1.072174 1  311             Rx   d 8 FF FF FF FF 00 00 00 01
 1.082127 1  261             Rx   d 8 01 29 00 16 1E 00 00 00
 1.083081 1  251             Rx   d 8 00 00 00 00 00 00 00 00
 1.085110 1  252             Rx   d 8 00 00 00 01 00 00 00 00
 1.087125 1  253             Rx   d 8 00 00 00 00 00 00 00 00
 1.089130 1  254             Rx   d 8 00 00 00 02 00 00 00 00
 1.091132 1  241             Rx   d 8 AA 00 00 00 00 00 00 43
 1.091922 1  221             Rx   d 8 00 00 00 00 00 00 00 00
 1.092177 1  311             Rx   d 8 FF FF FF FF 00 00 00 01
 1.093087 1  262             Rx   d 8 01 28 00 16 1E 00 00 00
 1.103132 1  251             Rx   d 8 00 00 00 00 00 00 00 00
 1.104081 1  263             Rx   d 8 01 29 00 16 1E 00 00 00
 1.105129 1  252             Rx   d 8 00 00 00 01 00 00 00 00
 1.107130 1  253             Rx   d 8 00 00 00 00 00 00 00 00
 1.109131 1  254             Rx   d 8 00 00 00 02 00 00 00 00
 1.111134 1  241             Rx   d 8 AA 00 00 00 00 00 00 44
 1.111932 1  221             Rx   d 8 00 00 00 00 00 00 00 00
 1.112180 1  311             Rx   d 8 FF FF FF FF 00 00 00 01
 1.115132 1  264             Rx   d 8 01 27 00 15 1E 00 00 00
 1.123130 1  251             Rx   d 8 00 00 00 00 00 00 00 00
 1.125131 1  252             Rx   d 8 00 00 00 01 00 00 00 00
 1.127399 1  253             Rx   d 8 00 00 00 00 00 00 00 00
 1.129135 1  254             Rx   d 8 00 00 00 02 00 00 00 00
 1.131178 1  241             Rx   d 8 AA 00 00 00 00 00 00 45
 1.131928 1  221             Rx   d 8 00 00 00 00 00 00 00 00
 1.132183 1  311             Rx   d 8 FF FF FF FF 00 00 00 01
 1.143101 1  251             Rx   d 8 00 00 00 00 00 00 00 00
 1.145156 1  252             Rx   d 8 00 00 00 01 00 00 00 00
 1.147133 1  253             Rx   d 8 00 00 00 00 00 00 00 00
 1.149153 1  254             Rx   d 8 00 00 00 02 00 00 00 00
 1.151205 1  241             Rx   d 8 AA 00 00 00 00 00 00 46
 1.151895 1  221             Rx   d 8 00 00 00 00 00 00 00 00
 1.152181 1  311             Rx   d 8 FF FF FF FF 00 00 00 01
 1.163156 1  251             Rx   d 8 00 00 00 00 00 00 00 00
 1.165158 1  252             Rx   d 8 00 00 00 01 00 00 00 00
 1.167158 1  253             Rx   d 8 00 00 00 00 00 00 00 00
 1.169162 1  254             Rx   d 8 00 00 00 02 00 00 00 00
 1.171206 1  241             Rx   d 8 AA 00 00 00 00 00 00 47
 1.171931 1  221             Rx   d 8 00 00 00 00 00 00 00 00
 1.172182 1  311             Rx   d 8 FF FF FF FF 00 00 00 01
 1.182178 1  261             Rx   d 8 01 29 00 16 1E 00 00 00
 1.183179 1  251             Rx   d 8 00 00 00 00 00 00 00 00
 1.185179 1  252             Rx   d 8 00 00 00 01 00 00 00 00
 1.187181 1  253             Rx   d 8 00 00 00 00 00 00 00 00
 1.189182 1  254             Rx   d 8 00 00 00 02 00 00 00 00
 1.191211 1  241             Rx   d 8 AA 00 00 00 00 00 00 48
 1.191941 1  221             Rx   d 8 00 00 00 00 00 00 00 00
 1.192185 1  311             Rx   d 8 FF FF FF FF 00 00 00 01
 1.193195 1  262             Rx   d 8 01 27 00 16 1E 00 00 00
 1.201230 1  211             Rx   d 8 00 01 01 1F 00 00 00 00
 1.203211 1  251             Rx   d 8 00 00 00 00 00 00 00 00
 1.204207 1  263             Rx   d 8 01 29 00 16 1E 00 00 00
 1.205204 1  252             Rx   d 8 00 00 00 01 00 00 00 00
 1.207208 1  253             Rx   d 8 00 00 00 00 00 00 00 00
 1.209209 1  254             Rx   d 8 00 00 00 02 00 00 00 00
 1.211257 1  241             Rx   d 8 AA 00 00 00 00 00 00 49
 1.211957 1  221             Rx   d 8 00 00 00 00 00 00 00 00
 1.212183 1  311             Rx   d 8 FF FF FF FF 00 00 00 01
 1.215207 1  264             Rx   d 8 01 27 00 15 1E 00 00 00
 1.223210 1  251             Rx   d 8 00 00 00 00 00 00 00 00
 1.225232 1  252             Rx   d 8 00 00 00 01 00 00 00 00
 1.227197 1  253             Rx   d 8 00 00 00 00 00 00 00 00
 1.229233 1  254             Rx   d 8 00 00 00 02 00 00 00 00
 1.231233 1  241             Rx   d 8 AA 00 00 00 00 00 00 4A
 1.231956 1  221             Rx   d 8 00 00 00 00 00 00 00 00
 1.232186 1  311             Rx   d 8 FF FF FF FF 00 00 00 01
 1.243236 1  251             Rx   d 8 00 00 00 00 00 00 00 00
 1.245239 1  252             Rx   d 8 00 00 00 01 00 00 00 00
 1.247233 1  253             Rx   d 8 00 00 00 00 00 00 00 00
 1.249227 1  254             Rx   d 8 00 00 00 02 00 00 00 00
 1.251285 1  241             Rx   d 8 AA 00 00 00 00 00 00 4B
 1.251971 1  221             Rx   d 8 00 00 00 00 00 00 00 00
 1.252181 1  311             Rx   d 8 FF FF FF FF 00 00 00 01
 1.263268 1  251             Rx   d 8 00 00 00 00 00 00 00 00
 1.265258 1  252             Rx   d 8 00 00 00 01 00 00 00 00
 1.267258 1  253             Rx   d 8 00 00 00 00 00 00 00 00
 1.269261 1  254             Rx   d 8 00 00 00 02 00 00 00 00
 1.271308 1  241             Rx   d 8 AA 00 00 00 00 00 00 4C
 1.271956 1  221             Rx   d 8 00 00 00 00 00 00 00 00
 1.272210 1  311             Rx   d 8 FF FF FF FF 00 00 00 01
 1.282285 1  261             Rx   d 8 01 29 00 16 1E 00 00 00
 1.283288 1  251             Rx   d 8 00 00 00 00 00 00 00 00
 1.285252 1  252             Rx   d 8 00 00 00 01 00 00 00 00
 1.287283 1  253             Rx   d 8 00 00 00 00 00 00 00 00
 1.289284 1  254             Rx   d 8 00 00 00 02 00 00 00 00
 1.291335 1  241             Rx   d 8 AA 00 00 00 00 00 00 4D
 1.291960 1  221             Rx   d 8 00 00 00 00 00 00 00 00
 1.292206 1  311             Rx   d 8 FF FF FF FF 00 00 00 01
 1.293292 1  262             Rx   d 8 01 27 00 16 1E 00 00 00
 1.303310 1  251             Rx   d 8 00 00 00 00 00 00 00 00
 1.304309 1  263             Rx   d 8 01 28 00 16 1E 00 00 00
 1.305315 1  252             Rx   d 8 00 00 00 01 00 00 00 00
 1.307310 1  253             Rx   d 8 00 00 00 00 00 00 00 00
 1.309309 1  254             Rx   d 8 00 00 00 02 00 00 00 00
 1.311354 1  241             Rx   d 8 AA 00 00 00 00 00 00 4E
 1.311958 1  221             Rx   d 8 00 00 00 00 00 00 00 00
 1.312209 1  311             Rx   d 8 FF FF FF FF 00 00 00 01
 1.315309 1  264             Rx   d 8 01 27 00 15 1E 00 00 00
 1.321310 1  231             Rx   d 8 00 00 00 02 06 00 00 00
 1.323312 1  251             Rx   d 8 00 00 00 00 00 00 00 00
 1.325343 1  252             Rx   d 8 00 00 00 01 00 00 00 00
 1.327275 1  253             Rx   d 8 00 00 00 00 00 00 00 00
 1.329333 1  254             Rx   d 8 00 00 00 02 00 00 00 00
 1.331337 1  241             Rx   d 8 AA 00 00 00 00 00 00 4F
 1.331959 1  221             Rx   d 8 00 00 00 00 00 00 00 00
 1.332210 1  311             Rx   d 8 FF FF FF FF 00 00 00 01
 1.343326 1  251             Rx   d 8 00 00 00 00 00 00 00 00
 1.345355 1  252             Rx   d 8 00 00 00 01 00 00 00 00
 1.347330 1  253             Rx   d 8 00 00 00 00 00 00 00 00
 1.349357 1  254             Rx   d 8 00 00 00 02 00 00 00 00
 1.351413 1  241             Rx   d 8 AA 00 00 00 00 00 00 50
 1.351928 1  221             Rx   d 8 00 00 00 00 00 00 00 00
 1.352222 1  311             Rx   d 8 FF FF FF FF 00 00 00 01
 1.363365 1  251             Rx   d 8 00 00 00 00 00 00 00 00
 1.365356 1  252             Rx   d 8 00 00 00 01 00 00 00 00
 1.367354 1  253             Rx   d 8 00 00 00 00 00 00 00 00
 1.369359 1  254             Rx   d 8 00 00 00 02 00 00 00 00
 1.371486 1  241             Rx   d 8 AA 00 00 00 00 00 00 51
 1.371980 1  221             Rx   d 8 00 00 00 00 00 00 00 00
 1.372213 1  311             Rx   d 8 FF FF FF FF 00 00 00 01
 1.382361 1  261             Rx   d 8 01 29 00 16 1E 00 00 00
 1.383385 1  251             Rx   d 8 00 00 00 00 00 00 00 00
 1.385383 1  252             Rx   d 8 00 00 00 01 00 00 00 00
 1.387383 1  253             Rx   d 8 00 00 00 00 00 00 00 00
 1.389383 1  254             Rx   d 8 00 00 00 02 00 00 00 00
 1.391384 1  241             Rx   d 8 AA 00 00 00 00 00 00 52
 1.391963 1  221             Rx   d 8 00 00 00 00 00 00 00 00
 1.392209 1  311             Rx   d 8 FF FF FF FF 00 00 00 01
 1.393353 1  262             Rx   d 8 01 27 00 16 1E 00 00 00
 1.401458 1  211             Rx   d 8 00 01 01 1E 00 00 00 00
 1.403383 1  251             Rx   d 8 00 00 00 00 00 00 00 00
 1.404384 1  263             Rx   d 8 01 29 00 16 1E 00 00 00
 1.405387 1  252             Rx   d 8 00 00 00 01 00 00 00 00
 1.407409 1  253             Rx   d 8 00 00 00 00 00 00 00 00
 1.409415 1  254             Rx   d 8 00 00 00 02 00 00 00 00
 1.411481 1  241             Rx   d 8 AA 00 00 00 00 00 00 53
 1.411971 1  221             Rx   d 8 00 00 00 00 00 00 00 00
 1.412220 1  311             Rx   d 8 FF FF FF FF 00 00 00 01
 1.415379 1  264             Rx   d 8 01 27 00 15 1E 00 00 00
 1.423410 1  251             Rx   d 8 00 00 00 00 00 00 00 00
 1.425429 1  252             Rx   d 8 00 00 00 01 00 00 00 00
 1.427378 1  253             Rx   d 8 00 00 00 00 00 00 00 00
 1.429433 1  254             Rx   d 8 00 00 00 02 00 00 00 00
 1.431436 1  241             Rx   d 8 AA 00 00 00 00 00 00 54
 1.431958 1  221             Rx   d 8 00 00 00 00 00 00 00 00
 1.432208 1  311             Rx   d 8 FF FF FF FF 00 00 00 01
 1.443403 1  251             Rx   d 8 00 00 00 00 00 00 00 00
 1.445438 1  252             Rx   d 8 00 00 00 01 00 00 00 00
 1.447441 1  253             Rx   d 8 00 00 00 00 00 00 00 00
 1.449464 1  254             Rx   d 8 00 00 00 02 00 00 00 00
 1.451498 1  241             Rx   d 8 AA 00 00 00 00 00 00 55
 1.451964 1  221             Rx   d 8 00 00 00 00 00 00 00 00
 1.452210 1  311             Rx   d 8 FF FF FF FF 00 00 00 01
 1.463469 1  251             Rx   d 8 00 00 00 00 00 00 00 00
 1.465462 1  252             Rx   d 8 00 00 00 01 00 00 00 00
 1.467466 1  253             Rx   d 8 00 00 00 00 00 00 00 00
 1.469464 1  254             Rx   d 8 00 00 00 02 00 00 00 00
 1.471539 1  241             Rx   d 8 AA 00 00 00 00 00 00 56
 1.471965 1  221             Rx   d 8 00 00 00 00 00 00 00 00
 1.472214 1  311             Rx   d 8 FF FF FF FF 00 00 00 01
 1.482464 1  261             Rx   d 8 01 29 00 16 1E 00 00 00
 1.483486 1  251             Rx   d 8 00 00 00 00 00 00 00 00
 1.485484 1  252             Rx   d 8 00 00 00 01 00 00 00 00
 1.487498 1  253             Rx   d 8 00 00 00 00 00 00 00 00
 1.489500 1  254             Rx   d 8 00 00 00 02 00 00 00 00
 1.491542 1  241             Rx   d 8 AA 00 00 00 00 00 00 57
 1.491988 1  221             Rx   d 8 00 00 00 00 00 00 00 00
 1.492242 1  311             Rx   d 8 FF FF FF FF 00 00 00 01
 1.493491 1  262             Rx   d 8 01 27 00 16 1E 00 00 00
 1.503520 1  251             Rx   d 8 00 00 00 00 00 00 00 00
 1.504489 1  263             Rx   d 8 01 28 00 16 1E 00 00 00
 1.505515 1  252             Rx   d 8 00 00 00 01 00 00 00 00
 1.507491 1  253             Rx   d 8 00 00 00 00 00 00 00 00
 1.509513 1  254             Rx   d 8 00 00 00 02 00 00 00 00
 1.511566 1  241             Rx   d 8 AA 00 00 00 00 00 00 58
 1.511965 1  221             Rx   d 8 00 00 00 00 00 00 00 00
 1.512244 1  311             Rx   d 8 FF FF FF FF 00 00 00 01
 1.515528 1  264             Rx   d 8 01 27 00 15 1E 00 00 00
 1.523519 1  251             Rx   d 8 00 00 00 00 00 00 00 00
 1.525541 1  252             Rx   d 8 00 00 00 01 00 00 00 00
 1.527479 1  253             Rx   d 8 00 00 00 00 00 00 00 00
 1.529540 1  254             Rx   d 8 00 00 00 02 00 00 00 00
 1.531569 1  241             Rx   d 8 AA 00 00 00 00 00 00 59
 1.531989 1  221             Rx   d 8 00 00 00 00 00 00 00 00
 1.532242 1  311             Rx   d 8 FF FF FF FF 00 00 00 01
 1.543545 1  251             Rx   d 8 00 00 00 00 00 00 00 00
 1.545542 1  252             Rx   d 8 00 00 00 01 00 00 00 00
 1.547541 1  253             Rx   d 8 00 00 00 00 00 00 00 00
 1.549553 1  254             Rx   d 8 00 00 00 02 00 00 00 00
 1.551593 1  241             Rx   d 8 AA 00 00 00 00 00 00 5A
 1.551992 1  221             Rx   d 8 00 00 00 00 00 00 00 00
 1.552241 1  311             Rx   d 8 FF FF FF FF 00 00 00 01
 1.563566 1  251             Rx   d 8 00 00 00 00 00 00 00 00
 1.565567 1  252             Rx   d 8 00 00 00 01 00 00 00 00
 1.567568 1  253             Rx   d 8 00 00 00 00 00 00 00 00
 1.569566 1  254             Rx   d 8 00 00 00 02 00 00 00 00
 1.571593 1  241             Rx   d 8 AA 00 00 00 00 00 00 5B
 1.572004 1  221             Rx   d 8 00 00 00 00 00 00 00 00
 1.572244 1  311             Rx   d 8 FF FF FF FF 00 00 00 01
 1.582591 1  261             Rx   d 8 01 29 00 16 1E 00 00 00
 1.583594 1  251             Rx   d 8 00 00 00 00 00 00 00 00
 1.585594 1  252             Rx   d 8 00 00 00 01 00 00 00 00
 1.587594 1  253             Rx   d 8 00 00 00 00 00 00 00 00
 1.589591 1  254             Rx   d 8 00 00 00 02 00 00 00 00
 1.591645 1  241             Rx   d 8 AA 00 00 00 00 00 00 5C
 1.591989 1  221             Rx   d 8 00 00 00 00 00 00 00 00
 1.592244 1  311             Rx   d 8 FF FF FF FF 00 00 00 01
 1.593583 1  262             Rx   d 8 01 27 00 16 1E 00 00 00
 1.601672 1  211             Rx   d 8 00 01 01 1E 00 00 00 00
 1.603616 1  251             Rx   d 8 00 00 00 00 00 00 00 00
 1.604591 1  263             Rx   d 8 01 28 00 16 1E 00 00 00
 1.605616 1  252             Rx   d 8 00 00 00 02 00 00 00 00
 1.607619 1  253             Rx   d 8 00 00 00 00 00 00 00 00
 1.609621 1  254             Rx   d 8 00 00 00 02 00 00 00 00
 1.611641 1  241             Rx   d 8 AA 00 00 00 00 00 00 5D
 1.612001 1  221             Rx   d 8 00 00 00 00 00 00 00 00
 1.612242 1  311             Rx   d 8 FF FF FF FF 00 00 00 01
 1.615619 1  264             Rx   d 8 01 27 00 15 1E 00 00 00
 1.623617 1  251             Rx   d 8 00 00 00 00 00 00 00 00
 1.625641 1  252             Rx   d 8 00 00 00 02 00 00 00 00
 1.627615 1  253             Rx   d 8 00 00 00 00 00 00 00 00
 1.629642 1  254             Rx   d 8 00 00 00 02 00 00 00 00
 1.631668 1  241             Rx   d 8 AA 00 00 00 00 00 00 5E
 1.631992 1  221             Rx   d 8 00 00 00 00 00 00 00 00
 1.632244 1  311             Rx   d 8 FF FF FF FF 00 00 00 01
 1.643646 1  251             Rx   d 8 00 00 00 00 00 00 00 00
 1.645644 1  252             Rx   d 8 00 00 00 02 00 00 00 00
 1.647642 1  253             Rx   d 8 00 00 00 00 00 00 00 00
 1.649646 1  254             Rx   d 8 00 00 00 02 00 00 00 00
 1.651693 1  241             Rx   d 8 AA 00 00 00 00 00 00 5F
 1.651958 1  221             Rx   d 8 00 00 00 00 00 00 00 00
 1.652261 1  311             Rx   d 8 FF FF FF FF 00 00 00 01
 1.663670 1  251             Rx   d 8 00 00 00 00 00 00 00 00
 1.665675 1  252             Rx   d 8 00 00 00 01 00 00 00 00
 1.667669 1  253             Rx   d 8 00 00 00 00 00 00 00 00
 1.669671 1  254             Rx   d 8 00 00 00 02 00 00 00 00
 1.671711 1  241             Rx   d 8 AA 00 00 00 00 00 00 60
 1.671989 1  221             Rx   d 8 00 00 00 00 00 00 00 00
 1.672246 1  311             Rx   d 8 FF FF FF FF 00 00 00 01
 1.682679 1  261             Rx   d 8 01 29 00 16 1E 00 00 00
 1.683694 1  251             Rx   d 8 00 00 00 00 00 00 00 00
 1.685697 1  252             Rx   d 8 00 00 00 01 00 00 00 00
 1.687698 1  253             Rx   d 8 00 00 00 00 00 00 00 00
 1.689696 1  254             Rx   d 8 00 00 00 02 00 00 00 00
 1.691748 1  241             Rx   d 8 AA 00 00 00 00 00 00 61
 1.691992 1  221             Rx   d 8 00 00 00 00 00 00 00 00
 1.692244 1  311             Rx   d 8 FF FF FF FF 00 00 00 01
 1.693651 1  262             Rx   d 8 01 27 00 16 1E 00 00 00
 1.703704 1  251             Rx   d 8 00 00 00 00 00 00 00 00
 1.704695 1  263             Rx   d 8 01 28 00 16 1E 00 00 00
 1.705728 1  252             Rx   d 8 00 00 00 01 00 00 00 00
 1.707697 1  253             Rx   d 8 00 00 00 00 00 00 00 00
 1.709720 1  254             Rx   d 8 00 00 00 02 00 00 00 00
 1.711745 1  241             Rx   d 8 AA 00 00 00 00 00 00 62
 1.712021 1  221             Rx   d 8 00 00 00 00 00 00 00 00
 1.712244 1  311             Rx   d 8 FF FF FF FF 00 00 00 01
 1.715723 1  264             Rx   d 8 01 27 00 15 1E 00 00 00
 1.723720 1  251             Rx   d 8 00 00 00 00 00 00 00 00
 1.725719 1  252             Rx   d 8 00 00 00 01 00 00 00 00
 1.727720 1  253             Rx   d 8 00 00 00 00 00 00 00 00
 1.729743 1  254             Rx   d 8 00 00 00 02 00 00 00 00
 1.731769 1  241             Rx   d 8 AA 00 00 00 00 00 00 63
 1.732022 1  221             Rx   d 8 00 00 00 00 00 00 00 00
 1.732270 1  311             Rx   d 8 FF FF FF FF 00 00 00 01
 1.743747 1  251             Rx   d 8 00 00 00 00 00 00 00 00
 1.745764 1  252             Rx   d 8 00 00 00 01 00 00 00 00
 1.747768 1  253             Rx   d 8 00 00 00 00 00 00 00 00
 1.749757 1  254             Rx   d 8 00 00 00 02 00 00 00 00
 1.751748 1  241             Rx   d 8 AA 00 00 00 00 00 00 64
 1.752019 1  221             Rx   d 8 00 00 00 00 00 00 00 00
 1.752247 1  311             Rx   d 8 FF FF FF FF 00 00 00 01
 1.763772 1  251             Rx   d 8 00 00 00 00 00 00 00 00
 1.765768 1  252             Rx   d 8 00 00 00 01 00 00 00 00
 1.767768 1  253             Rx   d 8 00 00 00 00 00 00 00 00
 1.769768 1  254             Rx   d 8 00 00 00 02 00 00 00 00
 1.771842 1  241             Rx   d 8 AA 00 00 00 00 00 00 65
 1.772088 1  221             Rx   d 8 00 00 00 00 00 00 00 00
 1.772345 1  311             Rx   d 8 FF FF FF FF 00 00 00 01
 1.782773 1  261             Rx   d 8 01 29 00 16 1E 00 00 00
 1.783792 1  251             Rx   d 8 00 00 00 00 00 00 00 00
 1.785797 1  252             Rx   d 8 00 00 00 01 00 00 00 00
 1.787791 1  253             Rx   d 8 00 00 00 00 00 00 00 00
 1.789796 1  254             Rx   d 8 00 00 00 02 00 00 00 00
 1.791847 1  241             Rx   d 8 AA 00 00 00 00 00 00 66
 1.792092 1  221             Rx   d 8 00 00 00 00 00 00 00 00
 1.792343 1  311             Rx   d 8 FF FF FF FF 00 00 00 01
 1.793738 1  262             Rx   d 8 01 27 00 16 1E 00 00 00
 1.801794 1  211             Rx   d 8 00 01 01 1E 00 00 00 00
 1.803792 1  251             Rx   d 8 00 00 00 00 00 00 00 00
 1.804800 1  263             Rx   d 8 01 29 00 16 1E 00 00 00
 1.805796 1  252             Rx   d 8 00 00 00 01 00 00 00 00
 1.807819 1  253             Rx   d 8 00 00 00 00 00 00 00 00
 1.809821 1  254             Rx   d 8 00 00 00 02 00 00 00 00
 1.811869 1  241             Rx   d 8 AA 00 00 00 00 00 00 67
 1.812143 1  221             Rx   d 8 00 00 00 00 00 00 00 00
 1.812368 1  311             Rx   d 8 FF FF FF FF 00 00 00 01
 1.815822 1  264             Rx   d 8 01 27 00 16 1E 00 00 00
 1.821821 1  231             Rx   d 8 00 00 00 02 0E 00 00 00
 1.823824 1  251             Rx   d 8 00 00 00 00 00 00 00 00
 1.825844 1  252             Rx   d 8 00 00 00 01 00 00 00 00
 1.827850 1  253             Rx   d 8 00 00 00 00 00 00 00 00
 1.829820 1  254             Rx   d 8 00 00 00 02 00 00 00 00
 1.831895 1  241             Rx   d 8 AA 00 00 00 00 00 00 68
 1.832144 1  221             Rx   d 8 00 00 00 00 00 00 00 00
 1.832391 1  311             Rx   d 8 FF FF FF FF 00 00 00 01
 1.843848 1  251             Rx   d 8 00 00 00 00 00 00 00 00
 1.845845 1  252             Rx   d 8 00 00 00 01 00 00 00 00
 1.847846 1  253             Rx   d 8 00 00 00 00 00 00 00 00
 1.849846 1  254             Rx   d 8 00 00 00 02 00 00 00 00
 1.851891 1  241             Rx   d 8 AA 00 00 00 00 00 00 69
 1.852141 1  221             Rx   d 8 00 00 00 00 00 00 00 00
 1.852396 1  311             Rx   d 8 FF FF FF FF 00 00 00 01
 1.863871 1  251             Rx   d 8 00 00 00 00 00 00 00 00
 1.865869 1  252             Rx   d 8 00 00 00 01 00 00 00 00
 1.867868 1  253             Rx   d 8 00 00 00 00 00 00 00 00
 1.869869 1  254             Rx   d 8 00 00 00 02 00 00 00 00
 1.871943 1  241             Rx   d 8 AA 00 00 00 00 00 00 6A
 1.872194 1  221             Rx   d 8 00 00 00 00 00 00 00 00
 1.872439 1  311             Rx   d 8 FF FF FF FF 00 00 00 01
 1.882894 1  261             Rx   d 8 01 29 00 16 1E 00 00 00
 1.883889 1  251             Rx   d 8 00 00 00 00 00 00 00 00
 1.885893 1  252             Rx   d 8 00 00 00 01 00 00 00 00
 1.887865 1  253             Rx   d 8 00 00 00 00 00 00 00 00
 1.889897 1  254             Rx   d 8 00 00 00 02 00 00 00 00
 1.891900 1  241             Rx   d 8 AA 00 00 00 00 00 00 6B
 1.892144 1  221             Rx   d 8 00 00 00 00 00 00 00 00
 1.892393 1  311             Rx   d 8 FF FF FF FF 00 00 00 01
 1.893868 1  262             Rx   d 8 01 27 00 16 1E 00 00 00
 1.903934 1  251             Rx   d 8 00 00 00 00 00 00 00 00
 1.904896 1  263             Rx   d 8 01 28 00 16 1E 00 00 00
 1.905922 1  252             Rx   d 8 00 00 00 01 00 00 00 00
 1.907897 1  253             Rx   d 8 00 00 00 00 00 00 00 00
 1.909892 1  254             Rx   d 8 00 00 00 02 00 00 00 00
 1.911928 1  241             Rx   d 8 AA 00 00 00 00 00 00 6C
 1.912165 1  221             Rx   d 8 00 00 00 00 00 00 00 00
 1.912412 1  311             Rx   d 8 FF FF FF FF 00 00 00 01
 1.915923 1  264             Rx   d 8 01 27 00 15 1E 00 00 00
 1.923920 1  251             Rx   d 8 00 00 00 00 00 00 00 00
 1.925911 1  252             Rx   d 8 00 00 00 01 00 00 00 00
 1.927918 1  253             Rx   d 8 00 00 00 00 00 00 00 00
 1.929928 1  254             Rx   d 8 00 00 00 02 00 00 00 00
 1.931993 1  241             Rx   d 8 AA 00 00 00 00 00 00 6D
 1.932247 1  221             Rx   d 8 00 00 00 00 00 00 00 00
 1.932464 1  311             Rx   d 8 FF FF FF FF 00 00 00 01
 1.943949 1  251             Rx   d 8 00 00 00 00 00 00 00 00
 1.945955 1  252             Rx   d 8 00 00 00 01 00 00 00 00
 1.947949 1  253             Rx   d 8 00 00 00 00 00 00 00 00
 1.949953 1  254             Rx   d 8 00 00 00 02 00 00 00 00
 1.951954 1  241             Rx   d 8 AA 00 00 00 00 00 00 6E
 1.952202 1  221             Rx   d 8 00 00 00 00 00 00 00 00
 1.952474 1  311             Rx   d 8 FF FF FF FF 00 00 00 01
 1.963981 1  251             Rx   d 8 00 00 00 00 00 00 00 00
 1.965978 1  252             Rx   d 8 00 00 00 01 00 00 00 00
 1.967977 1  253             Rx   d 8 00 00 00 00 00 00 00 00
 1.969982 1  254             Rx   d 8 00 00 00 02 00 00 00 00
 1.971944 1  241             Rx   d 8 AA 00 00 00 00 00 00 6F
 1.972228 1  221             Rx   d 8 00 00 00 00 00 00 00 00
 1.972475 1  311             Rx   d 8 FF FF FF FF 00 00 00 01
 1.982979 1  261             Rx   d 8 01 29 00 16 1E 00 00 00
 1.983990 1  251             Rx   d 8 00 00 00 00 00 00 00 00
 1.985995 1  252             Rx   d 8 00 00 00 01 00 00 00 00
 1.987996 1  253             Rx   d 8 00 00 00 00 00 00 00 00
 1.990000 1  254             Rx   d 8 00 00 00 02 00 00 00 00
 1.992025 1  221             Rx   d 8 00 00 00 00 00 00 00 00
 1.992297 1  311             Rx   d 8 FF FF FF FF 00 00 00 01
 1.992546 1  241             Rx   d 8 AA 00 00 00 00 00 00 70
 1.993968 1  262             Rx   d 8 01 28 00 16 1E 00 00 00
 2.002080 1  211             Rx   d 8 00 01 01 1F 00 00 00 00
 2.004001 1  251             Rx   d 8 00 00 00 00 00 00 00 00
 2.005006 1  263             Rx   d 8 01 29 00 16 1E 00 00 00
 2.006000 1  252             Rx   d 8 00 00 00 01 00 00 00 00
 2.008026 1  253             Rx   d 8 00 00 00 00 00 00 00 00
 2.010032 1  254             Rx   d 8 00 00 00 02 00 00 00 00
 2.012019 1  221             Rx   d 8 00 00 00 00 00 00 00 00
 2.012299 1  311             Rx   d 8 FF FF FF FF 00 00 00 01
 2.012546 1  241             Rx   d 8 AA 00 00 00 00 00 00 71
 2.016022 1  264             Rx   d 8 01 27 00 15 1E 00 00 00
 2.024027 1  251             Rx   d 8 00 00 00 00 00 00 00 00
 2.025991 1  252             Rx   d 8 00 00 00 01 00 00 00 00
 2.028026 1  253             Rx   d 8 00 00 00 00 00 00 00 00
 2.030006 1  254             Rx   d 8 00 00 00 02 00 00 00 00
 2.032050 1  221             Rx   d 8 00 00 00 00 00 00 00 00
 2.032300 1  311             Rx   d 8 FF FF FF FF 00 00 00 01
 2.032546 1  241             Rx   d 8 AA 00 00 00 00 00 00 72
 2.044056 1  251             Rx   d 8 00 00 00 00 00 00 00 00
 2.046051 1  252             Rx   d 8 00 00 00 01 00 00 00 00
 2.048054 1  253             Rx   d 8 00 00 00 00 00 00 00 00
 2.050060 1  254             Rx   d 8 00 00 00 02 00 00 00 00
 2.052055 1  221             Rx   d 8 00 00 00 00 00 00 00 00
 2.052305 1  311             Rx   d 8 FF FF FF FF 00 00 00 01
 2.052551 1  241             Rx   d 8 AA 00 00 00 00 00 00 73
 2.064085 1  251             Rx   d 8 00 00 00 00 00 00 00 00
 2.066082 1  252             Rx   d 8 00 00 00 01 00 00 00 00
 2.068082 1  253             Rx   d 8 00 00 00 00 00 00 00 00
 2.070080 1  254             Rx   d 8 00 00 00 02 00 00 00 00
 2.072079 1  221             Rx   d 8 00 00 00 00 00 00 00 00
 2.072312 1  311             Rx   d 8 FF FF FF FF 00 00 00 01
 2.072533 1  241             Rx   d 8 AA 00 00 00 00 00 00 74
 2.083084 1  261             Rx   d 8 01 29 00 16 1E 00 00 00
 2.084068 1  251             Rx   d 8 00 00 00 00 00 00 00 00
 2.086154 1  252             Rx   d 8 00 00 00 01 00 00 00 00
 2.088154 1  253             Rx   d 8 00 00 00 00 00 00 00 00
 2.090156 1  254             Rx   d 8 00 00 00 02 00 00 00 00
 2.092054 1  221             Rx   d 8 00 00 00 00 00 00 00 00
 2.092305 1  311             Rx   d 8 FF FF FF FF 00 00 00 01
 2.092552 1  241             Rx   d 8 AA 00 00 00 00 00 00 75
 2.094046 1  262             Rx   d 8 01 27 00 16 1E 00 00 00
 2.104171 1  251             Rx   d 8 00 00 00 00 00 00 00 00
 2.105105 1  263             Rx   d 8 01 28 00 16 1E 00 00 00
 2.106156 1  252             Rx   d 8 00 00 00 01 00 00 00 00
 2.108155 1  253             Rx   d 8 00 00 00 00 00 00 00 00
 2.110157 1  254             Rx   d 8 00 00 00 02 00 00 00 00
 2.112057 1  221             Rx   d 8 00 00 00 00 00 00 00 00
 2.112303 1  311             Rx   d 8 FF FF FF FF 00 00 00 01
 2.112537 1  241             Rx   d 8 AA 00 00 00 00 00 00 76
 2.116156 1  264             Rx   d 8 01 27 00 15 1E 00 00 00
 2.124153 1  251             Rx   d 8 00 00 00 00 00 00 00 00
 2.126160 1  252             Rx   d 8 00 00 00 01 00 00 00 00
 2.128120 1  253             Rx   d 8 00 00 00 00 00 00 00 00
 2.130119 1  254             Rx   d 8 00 00 00 02 00 00 00 00
 2.132053 1  221             Rx   d 8 00 00 00 00 00 00 00 00
 2.132302 1  311             Rx   d 8 FF FF FF FF 00 00 00 01
 2.132547 1  241             Rx   d 8 AA 00 00 00 00 00 00 77
 2.144156 1  251             Rx   d 8 00 00 00 00 00 00 00 00
 2.146152 1  252             Rx   d 8 00 00 00 01 00 00 00 00
 2.148152 1  253             Rx   d 8 00 00 00 00 00 00 00 00
 2.150160 1  254             Rx   d 8 00 00 00 02 00 00 00 00
 2.152057 1  221             Rx   d 8 00 00 00 00 00 00 00 00
 2.152308 1  311             Rx   d 8 FF FF FF FF 00 00 00 01
 2.152560 1  241             Rx   d 8 AA 00 00 00 00 00 00 78
 2.164184 1  251             Rx   d 8 00 00 00 00 00 00 00 00
 2.166184 1  252             Rx   d 8 00 00 00 01 00 00 00 00
 2.168186 1  253             Rx   d 8 00 00 00 00 00 00 00 00
 2.170186 1  254             Rx   d 8 00 00 00 02 00 00 00 00
 2.172060 1  221             Rx   d 8 00 00 00 00 00 00 00 00
 2.172313 1  311             Rx   d 8 FF FF FF FF 00 00 00 01
 2.172554 1  241             Rx   d 8 AA 00 00 00 00 00 00 79
 2.183186 1  261             Rx   d 8 01 29 00 16 1E 00 00 00
 2.184204 1  251             Rx   d 8 00 00 00 00 00 00 00 00
 2.186210 1  252             Rx   d 8 00 00 00 01 00 00 00 00
 2.188213 1  253             Rx   d 8 00 00 00 00 00 00 00 00
 2.190209 1  254             Rx   d 8 00 00 00 02 00 00 00 00
 2.192059 1  221             Rx   d 8 00 00 00 00 00 00 00 00
 2.192307 1  311             Rx   d 8 FF FF FF FF 00 00 00 01
 2.192555 1  241             Rx   d 8 AA 00 00 00 00 00 00 7A
 2.194172 1  262             Rx   d 8 01 27 00 16 1E 00 00 00
 2.202227 1  211             Rx   d 8 00 01 01 1F 00 00 00 00
 2.204230 1  251             Rx   d 8 00 00 00 00 00 00 00 00
 2.205211 1  263             Rx   d 8 01 29 00 16 1E 00 00 00
 2.206208 1  252             Rx   d 8 00 00 00 01 00 00 00 00
 2.208233 1  253             Rx   d 8 00 00 00 00 00 00 00 00
 2.210233 1  254             Rx   d 8 00 00 00 02 00 00 00 00
 2.212059 1  221             Rx   d 8 00 00 00 00 00 00 00 00
 2.212272 1  311             Rx   d 8 FF FF FF FF 00 00 00 01
 2.212549 1  241             Rx   d 8 AA 00 00 00 00 00 00 7B
 2.216229 1  264             Rx   d 8 01 27 00 15 1E 00 00 00
 2.224235 1  251             Rx   d 8 00 00 00 00 00 00 00 00
 2.226239 1  252             Rx   d 8 00 00 00 01 00 00 00 00
 2.228198 1  253             Rx   d 8 00 00 00 00 00 00 00 00
 2.230230 1  254             Rx   d 8 00 00 00 02 00 00 00 00
 2.232059 1  221             Rx   d 8 00 00 00 00 00 00 00 00
 2.232306 1  311             Rx   d 8 FF FF FF FF 00 00 00 01
 2.232552 1  241             Rx   d 8 AA 00 00 00 00 00 00 7C
 2.244254 1  251             Rx   d 8 00 00 00 00 00 00 00 00
 2.246250 1  252             Rx   d 8 00 00 00 01 00 00 00 00
 2.248250 1  253             Rx   d 8 00 00 00 00 00 00 00 00
 2.250223 1  254             Rx   d 8 00 00 00 02 00 00 00 00
 2.252053 1  221             Rx   d 8 00 00 00 00 00 00 00 00
 2.252301 1  311             Rx   d 8 FF FF FF FF 00 00 00 01
 2.252522 1  241             Rx   d 8 AA 00 00 00 00 00 00 7D
 2.264293 1  251             Rx   d 8 00 00 00 00 00 00 00 00
 2.266276 1  252             Rx   d 8 00 00 00 01 00 00 00 00
 2.268284 1  253             Rx   d 8 00 00 00 00 00 00 00 00
 2.270279 1  254             Rx   d 8 00 00 00 02 00 00 00 00
 2.272084 1  221             Rx   d 8 00 00 00 00 00 00 00 00
 2.272314 1  311             Rx   d 8 FF FF FF FF 00 00 00 01
 2.272560 1  241             Rx   d 8 AA 00 00 00 00 00 00 7E
 2.283291 1  261             Rx   d 8 01 29 00 16 1E 00 00 00
 2.284305 1  251             Rx   d 8 00 00 00 00 00 00 00 00
 2.286306 1  252             Rx   d 8 00 00 00 01 00 00 00 00
 2.288306 1  253             Rx   d 8 00 00 00 00 00 00 00 00
 2.290307 1  254             Rx   d 8 00 00 00 02 00 00 00 00
 2.292079 1  221             Rx   d 8 00 00 00 00 00 00 00 00
 2.292312 1  311             Rx   d 8 FF FF FF FF 00 00 00 01
 2.292561 1  241             Rx   d 8 AA 00 00 00 00 00 00 7F
 2.294306 1  262             Rx   d 8 01 27 00 16 1E 00 00 00
 2.304278 1  251             Rx   d 8 00 00 00 00 00 00 00 00
 2.305308 1  263             Rx   d 8 01 29 00 16 1E 00 00 00
 2.306307 1  252             Rx   d 8 00 00 00 01 00 00 00 00
 2.308333 1  253             Rx   d 8 00 00 00 00 00 00 00 00
 2.310332 1  254             Rx   d 8 00 00 00 02 00 00 00 00
 2.312061 1  221             Rx   d 8 00 00 00 00 00 00 00 00
 2.312305 1  311             Rx   d 8 FF FF FF FF 00 00 00 01
 2.312556 1  241             Rx   d 8 AA 00 00 00 00 00 00 80
 2.316336 1  264             Rx   d 8 01 27 00 15 1E 00 00 00
 2.322388 1  231             Rx   d 8 00 00 00 02 22 00 00 00
 2.324338 1  251             Rx   d 8 00 00 00 00 00 00 00 00
 2.326338 1  252             Rx   d 8 00 00 00 01 00 00 00 00
 2.328336 1  253             Rx   d 8 00 00 00 00 00 00 00 00
 2.330354 1  254             Rx   d 8 00 00 00 02 00 00 00 00
 2.332083 1  221             Rx   d 8 00 00 00 00 00 00 00 00
 2.332317 1  311             Rx   d 8 FF FF FF FF 00 00 00 01
 2.332562 1  241             Rx   d 8 AA 00 00 00 00 00 00 81
 2.344362 1  251             Rx   d 8 00 00 00 00 00 00 00 00
 2.346355 1  252             Rx   d 8 00 00 00 01 00 00 00 00
 2.348360 1  253             Rx   d 8 00 00 00 00 00 00 00 00
 2.350356 1  254             Rx   d 8 00 00 00 02 00 00 00 00
 2.352088 1  221             Rx   d 8 00 00 00 00 00 00 00 00
 2.352313 1  311             Rx   d 8 FF FF FF FF 00 00 00 01
 2.352563 1  241             Rx   d 8 AA 00 00 00 00 00 00 82
 2.364382 1  251             Rx   d 8 00 00 00 00 00 00 00 00
 2.366404 1  252             Rx   d 8 00 00 00 01 00 00 00 00
 2.368377 1  253             Rx   d 8 00 00 00 00 00 00 00 00
 2.370388 1  254             Rx   d 8 00 00 00 02 00 00 00 00
 2.372084 1  221             Rx   d 8 00 00 00 00 00 00 00 00
 2.372335 1  311             Rx   d 8 FF FF FF FF 00 00 00 01
 2.372559 1  241             Rx   d 8 AA 00 00 00 00 00 00 83
 2.383381 1  261             Rx   d 8 01 29 00 16 1E 00 00 00
 2.384404 1  251             Rx   d 8 00 00 00 00 00 00 00 00
 2.386404 1  252             Rx   d 8 00 00 00 01 00 00 00 00
 2.388412 1  253             Rx   d 8 00 00 00 00 00 00 00 00
 2.390404 1  254             Rx   d 8 00 00 00 02 00 00 00 00
 2.392081 1  221             Rx   d 8 00 00 00 00 00 00 00 00
 2.392314 1  311             Rx   d 8 FF FF FF FF 00 00 00 01
 2.392557 1  241             Rx   d 8 AA 00 00 00 00 00 00 84
 2.394419 1  262             Rx   d 8 01 27 00 16 1E 00 00 00
 2.402461 1  211             Rx   d 8 00 01 01 1F 00 00 00 00
 2.404409 1  251             Rx   d 8 00 00 00 00 00 00 00 00
 2.405409 1  263             Rx   d 8 01 29 00 16 1E 00 00 00
 2.406409 1  252             Rx   d 8 00 00 00 01 00 00 00 00
 2.408436 1  253             Rx   d 8 00 00 00 00 00 00 00 00
 2.410426 1  254             Rx   d 8 00 00 00 02 00 00 00 00
 2.412059 1  221             Rx   d 8 00 00 00 00 00 00 00 00
 2.412303 1  311             Rx   d 8 FF FF FF FF 00 00 00 01
 2.412551 1  241             Rx   d 8 AA 00 00 00 00 00 00 85
 2.416432 1  264             Rx   d 8 01 27 00 15 1E 00 00 00
 2.424432 1  251             Rx   d 8 00 00 00 00 00 00 00 00
 2.426431 1  252             Rx   d 8 00 00 00 01 00 00 00 00
 2.428430 1  253             Rx   d 8 00 00 00 00 00 00 00 00
 2.430430 1  254             Rx   d 8 00 00 00 02 00 00 00 00
 2.432083 1  221             Rx   d 8 00 00 00 00 00 00 00 00
 2.432323 1  311             Rx   d 8 FF FF FF FF 00 00 00 01
 2.432573 1  241             Rx   d 8 AA 00 00 00 00 00 00 86
 2.444462 1  251             Rx   d 8 00 00 00 00 00 00 00 00
 2.446460 1  252             Rx   d 8 00 00 00 01 00 00 00 00
 2.448465 1  253             Rx   d 8 00 00 00 00 00 00 00 00
 2.450477 1  254             Rx   d 8 00 00 00 02 00 00 00 00
 2.452090 1  221             Rx   d 8 00 00 00 00 00 00 00 00
 2.452343 1  311             Rx   d 8 FF FF FF FF 00 00 00 01
 2.452593 1  241             Rx   d 8 AA 00 00 00 00 00 00 87
 2.464492 1  251             Rx   d 8 00 00 00 00 00 00 00 00
 2.466490 1  252             Rx   d 8 00 00 00 01 00 00 00 00
 2.468490 1  253             Rx   d 8 00 00 00 00 00 00 00 00
 2.470490 1  254             Rx   d 8 00 00 00 02 00 00 00 00
 2.472092 1  221             Rx   d 8 00 00 00 00 00 00 00 00
 2.472346 1  311             Rx   d 8 FF FF FF FF 00 00 00 01
 2.472594 1  241             Rx   d 8 AA 00 00 00 00 00 00 88
 2.483492 1  261             Rx   d 8 01 29 00 16 1E 00 00 00
 2.484490 1  251             Rx   d 8 00 00 00 00 00 00 00 00
 2.486517 1  252             Rx   d 8 00 00 00 01 00 00 00 00
 2.488520 1  253             Rx   d 8 00 00 00 00 00 00 00 00
 2.490517 1  254             Rx   d 8 00 00 00 02 00 00 00 00
 2.492094 1  221             Rx   d 8 00 00 00 00 00 00 00 00
 2.492346 1  311             Rx   d 8 FF FF FF FF 00 00 00 01
 2.492593 1  241             Rx   d 8 AA 00 00 00 00 00 00 89
 2.494516 1  262             Rx   d 8 01 27 00 16 1E 00 00 00
 2.504537 1  251             Rx   d 8 00 00 00 00 00 00 00 00
 2.505517 1  263             Rx   d 8 01 28 00 16 1E 00 00 00
 2.506514 1  252             Rx   d 8 00 00 00 01 00 00 00 00
 2.508534 1  253             Rx   d 8 00 00 00 00 00 00 00 00
 2.510538 1  254             Rx   d 8 00 00 00 02 00 00 00 00
 2.512088 1  221             Rx   d 8 00 00 00 00 00 00 00 00
 2.512342 1  311             Rx   d 8 FF FF FF FF 00 00 00 01
 2.512588 1  241             Rx   d 8 AA 00 00 00 00 00 00 8A
 2.516514 1  264             Rx   d 8 01 27 00 15 1E 00 00 00
 2.524549 1  251             Rx   d 8 00 00 00 00 00 00 00 00
 2.526541 1  252             Rx   d 8 00 00 00 01 00 00 00 00
 2.528541 1  253             Rx   d 8 00 00 00 00 00 00 00 00
 2.530531 1  254             Rx   d 8 00 00 00 02 00 00 00 00
 2.532163 1  221             Rx   d 8 00 00 00 00 00 00 00 00
 2.532335 1  311             Rx   d 8 FF FF FF FF 00 00 00 01
 2.532582 1  241             Rx   d 8 AA 00 00 00 00 00 00 8B
 2.544566 1  251             Rx   d 8 00 00 00 00 00 00 00 00
 2.546566 1  252             Rx   d 8 00 00 00 01 00 00 00 00
 2.548592 1  253             Rx   d 8 00 00 00 00 00 00 00 00
 2.550569 1  254             Rx   d 8 00 00 00 02 00 00 00 00
 2.552167 1  221             Rx   d 8 00 00 00 00 00 00 00 00
 2.552346 1  311             Rx   d 8 FF FF FF FF 00 00 00 01
 2.552637 1  241             Rx   d 8 AA 00 00 00 00 00 00 8C
 2.564594 1  251             Rx   d 8 00 00 00 00 00 00 00 00
 2.566595 1  252             Rx   d 8 00 00 00 01 00 00 00 00
 2.568594 1  253             Rx   d 8 00 00 00 00 00 00 00 00
 2.570592 1  254             Rx   d 8 00 00 00 02 00 00 00 00
 2.572167 1  221             Rx   d 8 00 00 00 00 00 00 00 00
 2.572369 1  311             Rx   d 8 FF FF FF FF 00 00 00 01
 2.572639 1  241             Rx   d 8 AA 00 00 00 00 00 00 8D
 2.583587 1  261             Rx   d 8 01 29 00 16 1E 00 00 00
 2.584588 1  251             Rx   d 8 00 00 00 00 00 00 00 00
 2.586591 1  252             Rx   d 8 00 00 00 01 00 00 00 00
 2.588612 1  253             Rx   d 8 00 00 00 00 00 00 00 00
 2.590616 1  254             Rx   d 8 00 00 00 02 00 00 00 00
 2.592165 1  221             Rx   d 8 00 00 00 00 00 00 00 00
 2.592361 1  311             Rx   d 8 FF FF FF FF 00 00 00 01
 2.592633 1  241             Rx   d 8 AA 00 00 00 00 00 00 8E
 2.594591 1  262             Rx   d 8 01 27 00 16 1E 00 00 00
 2.602690 1  211             Rx   d 8 00 01 01 1E 00 00 00 00
 2.604625 1  251             Rx   d 8 00 00 00 00 00 00 00 00
 2.605615 1  263             Rx   d 8 01 28 00 16 1E 00 00 00
 2.606617 1  252             Rx   d 8 00 00 00 01 00 00 00 00
 2.608614 1  253             Rx   d 8 00 00 00 00 00 00 00 00
 2.610638 1  254             Rx   d 8 00 00 00 02 00 00 00 00
 2.612159 1  221             Rx   d 8 00 00 00 00 00 00 00 00
 2.612365 1  311             Rx   d 8 FF FF FF FF 00 00 00 01
 2.612661 1  241             Rx   d 8 AA 00 00 00 00 00 00 8F
 2.616619 1  264             Rx   d 8 01 27 00 15 1E 00 00 00
 2.624646 1  251             Rx   d 8 00 00 00 00 00 00 00 00
 2.626641 1  252             Rx   d 8 00 00 00 01 00 00 00 00
 2.628646 1  253             Rx   d 8 00 00 00 00 00 00 00 00
 2.630671 1  254             Rx   d 8 00 00 00 02 00 00 00 00
 2.632120 1  221             Rx   d 8 00 00 00 00 00 00 00 00
 2.632369 1  311             Rx   d 8 FF FF FF FF 00 00 00 01
 2.632691 1  241             Rx   d 8 AA 00 00 00 00 00 00 90
 2.644674 1  251             Rx   d 8 00 00 00 00 00 00 00 00
 2.646670 1  252             Rx   d 8 00 00 00 01 00 00 00 00
 2.648671 1  253             Rx   d 8 00 00 00 00 00 00 00 00
 2.650673 1  254             Rx   d 8 00 00 00 02 00 00 00 00
 2.652169 1  221             Rx   d 8 00 00 00 00 00 00 00 00
 2.652371 1  311             Rx   d 8 FF FF FF FF 00 00 00 01
 2.652719 1  241             Rx   d 8 AA 00 00 00 00 00 00 91
 2.664663 1  251             Rx   d 8 00 00 00 00 00 00 00 00
 2.666693 1  252             Rx   d 8 00 00 00 01 00 00 00 00
 2.668694 1  253             Rx   d 8 00 00 00 00 00 00 00 00
 2.670691 1  254             Rx   d 8 00 00 00 02 00 00 00 00
 2.672168 1  221             Rx   d 8 00 00 00 00 00 00 00 00
 2.672363 1  311             Rx   d 8 FF FF FF FF 00 00 00 01
 2.672764 1  241             Rx   d 8 AA 00 00 00 00 00 00 92
 2.683698 1  261             Rx   d 8 01 29 00 16 1E 00 00 00
 2.684681 1  251             Rx   d 8 00 00 00 00 00 00 00 00
 2.686722 1  252             Rx   d 8 00 00 00 01 00 00 00 00
 2.688723 1  253             Rx   d 8 00 00 00 00 00 00 00 00
 2.708717 1  253             Rx   d 8 00 00 00 00 00 00 00 00
 2.844866 1  251             Rx   d 8 00 00 00 00 00 00 00 00
 2.846868 1  252             Rx   d 8 00 00 00 01 00 00 00 00
 2.864896 1  251             Rx   d 8 00 00 00 00 00 00 00 00
 2.894899 1  262             Rx   d 8 01 28 00 16 1E 00 00 00
 2.904928 1  251             Rx   d 8 00 00 00 00 00 00 00 00
 2.924950 1  251             Rx   d 8 00 00 00 00 00 00 00 00
 2.948978 1  253             Rx   d 8 00 00 00 00 00 00 00 00
 2.950978 1  254             Rx   d 8 00 00 00 02 00 00 00 00
 2.952177 1  221             Rx   d 8 00 00 00 00 00 00 00 00
 2.952400 1  311             Rx   d 8 FF FF FF FF 00 00 00 01
 2.953048 1  241             Rx   d 8 AA 00 00 00 00 00 00 A0
 2.965009 1  251             Rx   d 8 00 00 00 00 00 00 00 00
 2.969007 1  253             Rx   d 8 00 00 00 00 00 00 00 00
 3.003077 1  211             Rx   d 8 00 01 01 1F 00 00 00 00
 3.005028 1  251             Rx   d 8 00 00 00 00 00 00 00 00
 3.007034 1  252             Rx   d 8 00 00 00 01 00 00 00 00
 3.047077 1  252             Rx   d 8 00 00 00 01 00 00 00 00
 3.092182 1  221             Rx   d 8 00 00 00 00 00 00 00 00
 3.092402 1  311             Rx   d 8 FF FF FF FF 00 00 00 01
 3.093180 1  241             Rx   d 8 AA 00 00 00 00 00 00 A7
 3.095108 1  262             Rx   d 8 01 28 00 16 1E 00 00 00
 3.105178 1  251             Rx   d 8 00 00 00 00 00 00 00 00
 3.131175 1  254             Rx   d 8 00 00 00 02 00 00 00 00
 3.165201 1  251             Rx   d 8 00 00 00 00 00 00 00 00
 3.192176 1  221             Rx   d 8 00 00 00 00 00 00 00 00
 3.207245 1  252             Rx   d 8 00 00 00 01 00 00 00 00
 3.212174 1  221             Rx   d 8 00 00 00 00 00 00 00 00
 3.225270 1  251             Rx   d 8 00 00 00 00 00 00 00 00
 3.227258 1  252             Rx   d 8 00 00 00 01 00 00 00 00
 3.229259 1  253             Rx   d 8 00 00 00 00 00 00 00 00
 3.231277 1  254             Rx   d 8 00 00 00 02 00 00 00 00
 3.232177 1  221             Rx   d 8 00 00 00 00 00 00 00 00
 3.232425 1  311             Rx   d 8 FF FF FF FF 00 00 00 01
 3.233227 1  241             Rx   d 8 AA 00 00 00 00 00 00 AE
 3.245261 1  251             Rx   d 8 00 00 00 00 00 00 00 00
 3.247251 1  252             Rx   d 8 00 00 00 01 00 00 00 00
 3.249280 1  253             Rx   d 8 00 00 00 00 00 00 00 00
 3.251277 1  254             Rx   d 8 00 00 00 02 00 00 00 00
 3.252151 1  221             Rx   d 8 00 00 00 00 00 00 00 00
 3.252399 1  311             Rx   d 8 FF FF FF FF 00 00 00 01
 3.253308 1  241             Rx   d 8 AA 00 00 00 00 00 00 AF
 3.265280 1  251             Rx   d 8 00 00 00 00 00 00 00 00
 3.267274 1  252             Rx   d 8 00 00 00 01 00 00 00 00
 3.269318 1  253             Rx   d 8 00 00 00 00 00 00 00 00
 3.271304 1  254             Rx   d 8 00 00 00 02 00 00 00 00
 3.272182 1  221             Rx   d 8 00 00 00 00 00 00 00 00
 3.272429 1  311             Rx   d 8 FF FF FF FF 00 00 00 01
 3.273352 1  241             Rx   d 8 AA 00 00 00 00 00 00 B0
 3.284309 1  261             Rx   d 8 01 29 00 16 1E 00 00 00
 3.285330 1  251             Rx   d 8 00 00 00 00 00 00 00 00
 3.287321 1  252             Rx   d 8 00 00 00 01 00 00 00 00
 3.289335 1  253             Rx   d 8 00 00 00 00 00 00 00 00
 3.291342 1  254             Rx   d 8 00 00 00 02 00 00 00 00
 3.292209 1  221             Rx   d 8 00 00 00 00 00 00 00 00
 3.292450 1  311             Rx   d 8 FF FF FF FF 00 00 00 01
 3.293355 1  241             Rx   d 8 AA 00 00 00 00 00 00 B1
 3.295304 1  262             Rx   d 8 01 27 00 16 1E 00 00 00
 3.305352 1  251             Rx   d 8 00 00 00 00 00 00 00 00
 3.306333 1  263             Rx   d 8 01 29 00 16 1E 00 00 00
 3.307352 1  252             Rx   d 8 00 00 00 01 00 00 00 00
 3.309331 1  253             Rx   d 8 00 00 00 00 00 00 00 00
 3.311330 1  254             Rx   d 8 00 00 00 02 00 00 00 00
 3.312178 1  221             Rx   d 8 00 00 00 00 00 00 00 00
 3.312450 1  311             Rx   d 8 FF FF FF FF 00 00 00 01
 3.313380 1  241             Rx   d 8 AA 00 00 00 00 00 00 B2
 3.317329 1  264             Rx   d 8 01 27 00 15 1E 00 00 00
 3.323409 1  231             Rx   d 8 00 00 00 02 4A 00 00 00
 3.325353 1  251             Rx   d 8 00 00 00 00 00 00 00 00
 3.327354 1  252             Rx   d 8 00 00 00 01 00 00 00 00
 3.329329 1  253             Rx   d 8 00 00 00 00 00 00 00 00
 3.331356 1  254             Rx   d 8 00 00 00 02 00 00 00 00
 3.332194 1  221             Rx   d 8 00 00 00 00 00 00 00 00
 3.332458 1  311             Rx   d 8 FF FF FF FF 00 00 00 01
 3.333385 1  241             Rx   d 8 AA 00 00 00 00 00 00 B3
 3.345358 1  251             Rx   d 8 00 00 00 00 00 00 00 00
 3.347383 1  252             Rx   d 8 00 00 00 01 00 00 00 00
 3.349379 1  253             Rx   d 8 00 00 00 00 00 00 00 00
 3.351382 1  254             Rx   d 8 00 00 00 02 00 00 00 00
 3.352214 1  221             Rx   d 8 00 00 00 00 00 00 00 00
 3.352461 1  311             Rx   d 8 FF FF FF FF 00 00 00 01
 3.353437 1  241             Rx   d 8 AA 00 00 00 00 00 00 B4
 3.365379 1  251             Rx   d 8 00 00 00 00 00 00 00 00
 3.367379 1  252             Rx   d 8 00 00 00 01 00 00 00 00
 3.369379 1  253             Rx   d 8 00 00 00 00 00 00 00 00
 3.371412 1  254             Rx   d 8 00 00 00 02 00 00 00 00
 3.372205 1  221             Rx   d 8 00 00 00 00 00 00 00 00
 3.372453 1  311             Rx   d 8 FF FF FF FF 00 00 00 01
 3.373454 1  241             Rx   d 8 AA 00 00 00 00 00 00 B5
 3.384381 1  261             Rx   d 8 01 29 00 16 1E 00 00 00
 3.385437 1  251             Rx   d 8 00 00 00 00 00 00 00 00
 3.387434 1  252             Rx   d 8 00 00 00 01 00 00 00 00
 3.389408 1  253             Rx   d 8 00 00 00 00 00 00 00 00
 3.391431 1  254             Rx   d 8 00 00 00 02 00 00 00 00
 3.392205 1  221             Rx   d 8 00 00 00 00 00 00 00 00
 3.392454 1  311             Rx   d 8 FF FF FF FF 00 00 00 01
 3.393460 1  241             Rx   d 8 AA 00 00 00 00 00 00 B6
 3.395409 1  262             Rx   d 8 01 27 00 16 1E 00 00 00
 3.403560 1  211             Rx   d 8 00 01 01 1F 00 00 00 00
 3.405439 1  251             Rx   d 8 00 00 00 00 00 00 00 00
 3.406431 1  263             Rx   d 8 01 28 00 16 1E 00 00 00
 3.407430 1  252             Rx   d 8 00 00 00 01 00 00 00 00
 3.409406 1  253             Rx   d 8 00 00 00 00 00 00 00 00
 3.411458 1  254             Rx   d 8 00 00 00 02 00 00 00 00
 3.412198 1  221             Rx   d 8 00 00 00 00 00 00 00 00
 3.412457 1  311             Rx   d 8 FF FF FF FF 00 00 00 01
 3.413460 1  241             Rx   d 8 AA 00 00 00 00 00 00 B7
 3.417445 1  264             Rx   d 8 01 27 00 15 1E 00 00 00
 3.425468 1  251             Rx   d 8 00 00 00 00 00 00 00 00
 3.427465 1  252             Rx   d 8 00 00 00 01 00 00 00 00
 3.429463 1  253             Rx   d 8 00 00 00 00 00 00 00 00
 3.431458 1  254             Rx   d 8 00 00 00 02 00 00 00 00
 3.432209 1  221             Rx   d 8 00 00 00 00 00 00 00 00
 3.432456 1  311             Rx   d 8 FF FF FF FF 00 00 00 01
 3.433507 1  241             Rx   d 8 AA 00 00 00 00 00 00 B8
 3.445492 1  251             Rx   d 8 00 00 00 00 00 00 00 00
 3.447486 1  252             Rx   d 8 00 00 00 01 00 00 00 00
 3.449485 1  253             Rx   d 8 00 00 00 00 00 00 00 00
 3.451485 1  254             Rx   d 8 00 00 00 02 00 00 00 00
 3.452210 1  221             Rx   d 8 00 00 00 00 00 00 00 00
 3.452461 1  311             Rx   d 8 FF FF FF FF 00 00 00 01
 3.453550 1  241             Rx   d 8 AA 00 00 00 00 00 00 B9
 3.465500 1  251             Rx   d 8 00 00 00 00 00 00 00 00
 3.467482 1  252             Rx   d 8 00 00 00 01 00 00 00 00
 3.469512 1  253             Rx   d 8 00 00 00 00 00 00 00 00
 3.471589 1  254             Rx   d 8 00 00 00 02 00 00 00 00
 3.472231 1  221             Rx   d 8 00 00 00 00 00 00 00 00
 3.472460 1  311             Rx   d 8 FF FF FF FF 00 00 00 01
 3.473563 1  241             Rx   d 8 AA 00 00 00 00 00 00 BA
 3.484484 1  261             Rx   d 8 01 29 00 16 1E 00 00 00
 3.485500 1  251             Rx   d 8 00 00 00 00 00 00 00 00
 3.487510 1  252             Rx   d 8 00 00 00 01 00 00 00 00
 3.489507 1  253             Rx   d 8 00 00 00 00 00 00 00 00
 3.491546 1  254             Rx   d 8 00 00 00 02 00 00 00 00
 3.492211 1  221             Rx   d 8 00 00 00 00 00 00 00 00
 3.492463 1  311             Rx   d 8 FF FF FF FF 00 00 00 01
 3.493593 1  241             Rx   d 8 AA 00 00 00 00 00 00 BB
 3.495535 1  262             Rx   d 8 01 27 00 16 1E 00 00 00
 3.505535 1  251             Rx   d 8 00 00 00 00 00 00 00 00
 3.506552 1  263             Rx   d 8 01 29 00 16 1E 00 00 00
 3.507537 1  252             Rx   d 8 00 00 00 01 00 00 00 00
 3.509514 1  253             Rx   d 8 00 00 00 00 00 00 00 00
 3.511515 1  254             Rx   d 8 00 00 00 02 00 00 00 00
 3.512197 1  221             Rx   d 8 00 00 00 00 00 00 00 00
 3.512505 1  311             Rx   d 8 FF FF FF FF 00 00 00 01
 3.513625 1  241             Rx   d 8 AA 00 00 00 00 00 00 BC
 3.517541 1  264             Rx   d 8 01 27 00 15 1E 00 00 00
 3.525563 1  251             Rx   d 8 00 00 00 00 00 00 00 00
 3.527562 1  252             Rx   d 8 00 00 00 01 00 00 00 00
 3.529562 1  253             Rx   d 8 00 00 00 00 00 00 00 00
 3.531589 1  254             Rx   d 8 00 00 00 02 00 00 00 00
 3.532213 1  221             Rx   d 8 00 00 00 00 00 00 00 00
 3.532458 1  311             Rx   d 8 FF FF FF FF 00 00 00 01
 3.533587 1  241             Rx   d 8 AA 00 00 00 00 00 00 BD
 3.545591 1  251             Rx   d 8 00 00 00 00 00 00 00 00
 3.547588 1  252             Rx   d 8 00 00 00 01 00 00 00 00
 3.549588 1  253             Rx   d 8 00 00 00 00 00 00 00 00
 3.551571 1  254             Rx   d 8 00 00 00 02 00 00 00 00
 3.552207 1  221             Rx   d 8 00 00 00 00 00 00 00 00
 3.552432 1  311             Rx   d 8 FF FF FF FF 00 00 00 01
 3.553610 1  241             Rx   d 8 AA 00 00 00 00 00 00 BE
 3.565591 1  251             Rx   d 8 00 00 00 00 00 00 00 00
 3.567559 1  252             Rx   d 8 00 00 00 01 00 00 00 00
 3.569585 1  253             Rx   d 8 00 00 00 00 00 00 00 00
 3.571619 1  254             Rx   d 8 00 00 00 02 00 00 00 00
 3.572212 1  221             Rx   d 8 00 00 00 00 00 00 00 00
 3.572435 1  311             Rx   d 8 FF FF FF FF 00 00 00 01
 3.573682 1  241             Rx   d 8 AA 00 00 00 00 00 00 BF
 3.584613 1  261             Rx   d 8 01 29 00 16 1E 00 00 00
 3.585617 1  251             Rx   d 8 00 00 00 00 00 00 00 00
 3.587630 1  252             Rx   d 8 00 00 00 01 00 00 00 00
 3.589654 1  253             Rx   d 8 00 00 00 00 00 00 00 00
 3.591640 1  254             Rx   d 8 00 00 00 02 00 00 00 00
 3.592214 1  221             Rx   d 8 00 00 00 00 00 00 00 00
 3.592485 1  311             Rx   d 8 FF FF FF FF 00 00 00 01
 3.593650 1  241             Rx   d 8 AA 00 00 00 00 00 00 C0
 3.595633 1  262             Rx   d 8 01 27 00 16 1E 00 00 00
 3.603653 1  211             Rx   d 8 00 01 01 1F 00 00 00 00
 3.605624 1  251             Rx   d 8 00 00 00 00 00 00 00 00
 3.606645 1  263             Rx   d 8 01 28 00 16 1E 00 00 00
 3.607625 1  252             Rx   d 8 00 00 00 01 00 00 00 00
 3.609642 1  253             Rx   d 8 00 00 00 00 00 00 00 00
 3.611672 1  254             Rx   d 8 00 00 00 02 00 00 00 00
 3.612211 1  221             Rx   d 8 00 00 00 00 00 00 00 00
 3.612464 1  311             Rx   d 8 FF FF FF FF 00 00 00 01
 3.613686 1  241             Rx   d 8 AA 00 00 00 00 00 00 C1
 3.617654 1  264             Rx   d 8 01 27 00 15 1E 00 00 00
 3.625695 1  251             Rx   d 8 00 00 00 00 00 00 00 00
 3.627666 1  252             Rx   d 8 00 00 00 01 00 00 00 00
 3.629664 1  253             Rx   d 8 00 00 00 00 00 00 00 00
 3.631670 1  254             Rx   d 8 00 00 00 02 00 00 00 00
 3.632241 1  221             Rx   d 8 00 00 00 00 00 00 00 00
 3.632488 1  311             Rx   d 8 FF FF FF FF 00 00 00 01
 3.633711 1  241             Rx   d 8 AA 00 00 00 00 00 00 C2
 3.645678 1  251             Rx   d 8 00 00 00 00 00 00 00 00
 3.647703 1  252             Rx   d 8 00 00 00 01 00 00 00 00
 3.649693 1  253             Rx   d 8 00 00 00 00 00 00 00 00
 3.651703 1  254             Rx   d 8 00 00 00 02 00 00 00 00
 3.652247 1  221             Rx   d 8 00 00 00 00 00 00 00 00
 3.652446 1  311             Rx   d 8 FF FF FF FF 00 00 00 01
 3.653707 1  241             Rx   d 8 AA 00 00 00 00 00 00 C3
 3.665695 1  251             Rx   d 8 00 00 00 00 00 00 00 00
 3.667687 1  252             Rx   d 8 00 00 00 01 00 00 00 00
 3.669708 1  253             Rx   d 8 00 00 00 00 00 00 00 00
 3.671735 1  254             Rx   d 8 00 00 00 02 00 00 00 00
 3.672250 1  221             Rx   d 8 00 00 00 00 00 00 00 00
 3.672491 1  311             Rx   d 8 FF FF FF FF 00 00 00 01
 3.673820 1  241             Rx   d 8 AA 00 00 00 00 00 00 C4
 3.684720 1  261             Rx   d 8 01 29 00 16 1E 00 00 00
 3.685747 1  251             Rx   d 8 00 00 00 00 00 00 00 00
 3.687690 1  252             Rx   d 8 00 00 00 01 00 00 00 00
 3.689690 1  253             Rx   d 8 00 00 00 00 00 00 00 00
 3.691764 1  254             Rx   d 8 00 00 00 02 00 00 00 00
 3.692240 1  221             Rx   d 8 00 00 00 00 00 00 00 00
 3.692496 1  311             Rx   d 8 FF FF FF FF 00 00 00 01
 3.693798 1  241             Rx   d 8 AA 00 00 00 00 00 00 C5
 3.695755 1  262             Rx   d 8 01 27 00 16 1E 00 00 00
 3.705739 1  251             Rx   d 8 00 00 00 00 00 00 00 00
 3.706796 1  263             Rx   d 8 01 28 00 16 1E 00 00 00
 3.707791 1  252             Rx   d 8 00 00 00 01 00 00 00 00
 3.709747 1  253             Rx   d 8 00 00 00 00 00 00 00 00
 3.711744 1  254             Rx   d 8 00 00 00 02 00 00 00 00
 3.712242 1  221             Rx   d 8 00 00 00 00 00 00 00 00
 3.712491 1  311             Rx   d 8 FF FF FF FF 00 00 00 01
 3.713781 1  241             Rx   d 8 AA 00 00 00 00 00 00 C6
 3.717742 1  264             Rx   d 8 01 27 00 15 1E 00 00 00
 3.725772 1  251             Rx   d 8 00 00 00 00 00 00 00 00
 3.727767 1  252             Rx   d 8 00 00 00 01 00 00 00 00
 3.729742 1  253             Rx   d 8 00 00 00 00 00 00 00 00
 3.731741 1  254             Rx   d 8 00 00 00 02 00 00 00 00
 3.732215 1  221             Rx   d 8 00 00 00 00 00 00 00 00
 3.732462 1  311             Rx   d 8 FF FF FF FF 00 00 00 01
 3.733819 1  241             Rx   d 8 AA 00 00 00 00 00 00 C7
 3.745799 1  251             Rx   d 8 00 00 00 00 00 00 00 00
 3.747792 1  252             Rx   d 8 00 00 00 01 00 00 00 00
 3.749790 1  253             Rx   d 8 00 00 00 00 00 00 00 00
 3.751791 1  254             Rx   d 8 00 00 00 02 00 00 00 00
 3.752220 1  221             Rx   d 8 00 00 00 00 00 00 00 00
 3.752464 1  311             Rx   d 8 FF FF FF FF 00 00 00 01
 3.753900 1  241             Rx   d 8 AA 00 00 00 00 00 00 C8
 3.765797 1  251             Rx   d 8 00 00 00 00 00 00 00 00
 3.767789 1  252             Rx   d 8 00 00 00 02 00 00 00 00
 3.769819 1  253             Rx   d 8 00 00 00 00 00 00 00 00
 3.771833 1  254             Rx   d 8 00 00 00 02 00 00 00 00
 3.772256 1  221             Rx   d 8 00 00 00 00 00 00 00 00
 3.772522 1  311             Rx   d 8 FF FF FF FF 00 00 00 01
 3.773905 1  241             Rx   d 8 AA 00 00 00 00 00 00 C9
 3.784824 1  261             Rx   d 8 01 29 00 16 1E 00 00 00
 3.785836 1  251             Rx   d 8 00 00 00 00 00 00 00 00
 3.787839 1  252             Rx   d 8 00 00 00 02 00 00 00 00
 3.789819 1  253             Rx   d 8 00 00 00 00 00 00 00 00
 3.791842 1  254             Rx   d 8 00 00 00 02 00 00 00 00
 3.792245 1  221             Rx   d 8 00 00 00 00 00 00 00 00
 3.792489 1  311             Rx   d 8 FF FF FF FF 00 00 00 01
 3.793886 1  241             Rx   d 8 AA 00 00 00 00 00 00 CA
 3.795819 1  262             Rx   d 8 01 27 00 16 1E 00 00 00
 3.803857 1  211             Rx   d 8 00 01 01 1F 00 00 00 00
 3.805840 1  251             Rx   d 8 00 00 00 00 00 00 00 00
 3.806839 1  263             Rx   d 8 01 28 00 16 1E 00 00 00
 3.807816 1  252             Rx   d 8 00 00 00 01 00 00 00 00
 3.809843 1  253             Rx   d 8 00 00 00 00 00 00 00 00
 3.811844 1  254             Rx   d 8 00 00 00 02 00 00 00 00
 3.812267 1  221             Rx   d 8 00 00 00 00 00 00 00 00
 3.812476 1  311             Rx   d 8 FF FF FF FF 00 00 00 01
 3.813892 1  241             Rx   d 8 AA 00 00 00 00 00 00 CB
 3.817846 1  264             Rx   d 8 01 27 00 15 1E 00 00 00
 3.823964 1  231             Rx   d 8 00 00 00 02 5E 00 00 00
 3.825897 1  251             Rx   d 8 00 00 00 00 00 00 00 00
 3.827958 1  252             Rx   d 8 00 00 00 01 00 00 00 00
 3.829873 1  253             Rx   d 8 00 00 00 00 00 00 00 00
 3.831868 1  254             Rx   d 8 00 00 00 02 00 00 00 00
 3.832268 1  221             Rx   d 8 00 00 00 00 00 00 00 00
 3.832491 1  311             Rx   d 8 FF FF FF FF 00 00 00 01
 3.833915 1  241             Rx   d 8 AA 00 00 00 00 00 00 CC
 3.845899 1  251             Rx   d 8 00 00 00 00 00 00 00 00
 3.847895 1  252             Rx   d 8 00 00 00 01 00 00 00 00
 3.849892 1  253             Rx   d 8 00 00 00 00 00 00 00 00
 3.851894 1  254             Rx   d 8 00 00 00 02 00 00 00 00
 3.852248 1  221             Rx   d 8 00 00 00 00 00 00 00 00
 3.852493 1  311             Rx   d 8 FF FF FF FF 00 00 00 01
 3.853919 1  241             Rx   d 8 AA 00 00 00 00 00 00 CD
 3.865906 1  251             Rx   d 8 00 00 00 00 00 00 00 00
 3.867912 1  252             Rx   d 8 00 00 00 02 00 00 00 00
 3.869959 1  253             Rx   d 8 00 00 00 00 00 00 00 00
 3.871951 1  254             Rx   d 8 00 00 00 02 00 00 00 00
 3.872252 1  221             Rx   d 8 00 00 00 00 00 00 00 00
 3.872505 1  311             Rx   d 8 FF FF FF FF 00 00 00 01
 3.873975 1  241             Rx   d 8 AA 00 00 00 00 00 00 CE
 3.884929 1  261             Rx   d 8 01 29 00 16 1E 00 00 00
 3.885920 1  251             Rx   d 8 00 00 00 00 00 00 00 00
 3.887946 1  252             Rx   d 8 00 00 00 02 00 00 00 00
 3.889923 1  253             Rx   d 8 00 00 00 00 00 00 00 00
 3.891944 1  254             Rx   d 8 00 00 00 02 00 00 00 00
 3.892269 1  221             Rx   d 8 00 00 00 00 00 00 00 00
 3.892517 1  311             Rx   d 8 FF FF FF FF 00 00 00 01
 3.893972 1  241             Rx   d 8 AA 00 00 00 00 00 00 CF
 3.895922 1  262             Rx   d 8 01 28 00 16 1E 00 00 00
 3.906010 1  251             Rx   d 8 00 00 00 00 00 00 00 00
 3.906975 1  263             Rx   d 8 01 29 00 16 1E 00 00 00
 3.907934 1  252             Rx   d 8 00 00 00 01 00 00 00 00
 3.909965 1  253             Rx   d 8 00 00 00 00 00 00 00 00
 3.911956 1  254             Rx   d 8 00 00 00 02 00 00 00 00
 3.912273 1  221             Rx   d 8 00 00 00 00 00 00 00 00
 3.912505 1  311             Rx   d 8 FF FF FF FF 00 00 00 01
 3.913997 1  241             Rx   d 8 AA 00 00 00 00 00 00 D0
 3.917946 1  264             Rx   d 8 01 27 00 15 1E 00 00 00
 3.925991 1  251             Rx   d 8 00 00 00 00 00 00 00 00
 3.927943 1  252             Rx   d 8 00 00 00 01 00 00 00 00
 3.929971 1  253             Rx   d 8 00 00 00 00 00 00 00 00
 3.931974 1  254             Rx   d 8 00 00 00 02 00 00 00 00
 3.932273 1  221             Rx   d 8 00 00 00 00 00 00 00 00
 3.932520 1  311             Rx   d 8 FF FF FF FF 00 00 00 01
 3.933970 1  241             Rx   d 8 AA 00 00 00 00 00 00 D1
 3.945997 1  251             Rx   d 8 00 00 00 00 00 00 00 00
 3.947995 1  252             Rx   d 8 00 00 00 01 00 00 00 00
 3.949997 1  253             Rx   d 8 00 00 00 00 00 00 00 00
 3.951971 1  254             Rx   d 8 00 00 00 02 00 00 00 00
 3.952247 1  221             Rx   d 8 00 00 00 00 00 00 00 00
 3.952492 1  311             Rx   d 8 FF FF FF FF 00 00 00 01
 3.954041 1  241             Rx   d 8 AA 00 00 00 00 00 00 D2
 3.965999 1  251             Rx   d 8 00 00 00 00 00 00 00 00
 3.967971 1  252             Rx   d 8 00 00 00 01 00 00 00 00
 3.970154 1  253             Rx   d 8 00 00 00 00 00 00 00 00
 3.972028 1  254             Rx   d 8 00 00 00 02 00 00 00 00
 3.972273 1  221             Rx   d 8 00 00 00 00 00 00 00 00
 3.972520 1  311             Rx   d 8 FF FF FF FF 00 00 00 01
 3.974021 1  241             Rx   d 8 AA 00 00 00 00 00 00 D3
 3.985022 1  261             Rx   d 8 01 29 00 16 1E 00 00 00
 3.986008 1  251             Rx   d 8 00 00 00 00 00 00 00 00
 3.988063 1  252             Rx   d 8 00 00 00 01 00 00 00 00
 3.990026 1  253             Rx   d 8 00 00 00 00 00 00 00 00
 3.992045 1  254             Rx   d 8 00 00 00 02 00 00 00 00
 3.992296 1  221             Rx   d 8 00 00 00 00 00 00 00 00
 3.992544 1  311             Rx   d 8 FF FF FF FF 00 00 00 01
 3.994073 1  241             Rx   d 8 AA 00 00 00 00 00 00 D4
 3.995997 1  262             Rx   d 8 01 27 00 16 1E 00 00 00
 4.004062 1  211             Rx   d 8 00 01 01 1E 00 00 00 00
 4.006146 1  251             Rx   d 8 00 00 00 00 00 00 00 00
 4.007059 1  263             Rx   d 8 01 29 00 16 1E 00 00 00
 4.008054 1  252             Rx   d 8 00 00 00 01 00 00 00 00
 4.010036 1  253             Rx   d 8 00 00 00 00 00 00 00 00
 4.012048 1  254             Rx   d 8 00 00 00 02 00 00 00 00
 4.012297 1  221             Rx   d 8 00 00 00 00 00 00 00 00
 4.012517 1  311             Rx   d 8 FF FF FF FF 00 00 00 01
 4.014104 1  241             Rx   d 8 AA 00 00 00 00 00 00 D5
 4.018023 1  264             Rx   d 8 01 27 00 15 1E 00 00 00
 4.026079 1  251             Rx   d 8 00 00 00 00 00 00 00 00
 4.028076 1  252             Rx   d 8 00 00 00 01 00 00 00 00
 4.030075 1  253             Rx   d 8 00 00 00 00 00 00 00 00
 4.032074 1  254             Rx   d 8 00 00 00 02 00 00 00 00
 4.032321 1  221             Rx   d 8 00 00 00 00 00 00 00 00
 4.032570 1  311             Rx   d 8 FF FF FF FF 00 00 00 01
 4.034081 1  241             Rx   d 8 AA 00 00 00 00 00 00 D6
 4.046108 1  251             Rx   d 8 00 00 00 00 00 00 00 00
 4.048103 1  252             Rx   d 8 00 00 00 01 00 00 00 00
 4.050100 1  253             Rx   d 8 00 00 00 00 00 00 00 00
 4.052076 1  254             Rx   d 8 00 00 00 02 00 00 00 00
 4.052323 1  221             Rx   d 8 00 00 00 00 00 00 00 00
 4.052595 1  311             Rx   d 8 FF FF FF FF 00 00 00 01
 4.054207 1  241             Rx   d 8 AA 00 00 00 00 00 00 D7
 4.066103 1  251             Rx   d 8 00 00 00 00 00 00 00 00
 4.068073 1  252             Rx   d 8 00 00 00 01 00 00 00 00
 4.070180 1  253             Rx   d 8 00 00 00 00 00 00 00 00
 4.072129 1  254             Rx   d 8 00 00 00 02 00 00 00 00
 4.072355 1  221             Rx   d 8 00 00 00 00 00 00 00 00
 4.072636 1  311             Rx   d 8 FF FF FF FF 00 00 00 01
 4.074201 1  241             Rx   d 8 AA 00 00 00 00 00 00 D8
 4.085126 1  261             Rx   d 8 01 29 00 16 1E 00 00 00
 4.086095 1  251             Rx   d 8 00 00 00 00 00 00 00 00
 4.088132 1  252             Rx   d 8 00 00 00 01 00 00 00 00
 4.090134 1  253             Rx   d 8 00 00 00 00 00 00 00 00
 4.092210 1  254             Rx   d 8 00 00 00 02 00 00 00 00
 4.092380 1  221             Rx   d 8 00 00 00 00 00 00 00 00
 4.092603 1  311             Rx   d 8 FF FF FF FF 00 00 00 01
 4.094202 1  241             Rx   d 8 AA 00 00 00 00 00 00 D9
 4.096102 1  262             Rx   d 8 01 27 00 16 1E 00 00 00
 4.106202 1  251             Rx   d 8 00 00 00 00 00 00 00 00
 4.107148 1  263             Rx   d 8 01 29 00 16 1E 00 00 00
 4.108202 1  252             Rx   d 8 00 00 00 01 00 00 00 00
 4.110199 1  253             Rx   d 8 00 00 00 00 00 00 00 00
 4.112200 1  254             Rx   d 8 00 00 00 02 00 00 00 00
 4.112369 1  221             Rx   d 8 00 00 00 00 00 00 00 00
 4.112617 1  311             Rx   d 8 FF FF FF FF 00 00 00 01
 4.114228 1  241             Rx   d 8 AA 00 00 00 00 00 00 DA
 4.118200 1  264             Rx   d 8 01 27 00 15 1E 00 00 00
 4.126203 1  251             Rx   d 8 00 00 00 00 00 00 00 00
 4.128201 1  252             Rx   d 8 00 00 00 01 00 00 00 00
 4.130209 1  253             Rx   d 8 00 00 00 00 00 00 00 00
 4.132178 1  254             Rx   d 8 00 00 00 02 00 00 00 00
 4.132401 1  221             Rx   d 8 00 00 00 00 00 00 00 00
 4.132649 1  311             Rx   d 8 FF FF FF FF 00 00 00 01
 4.134256 1  241             Rx   d 8 AA 00 00 00 00 00 00 DB
 4.146203 1  251             Rx   d 8 00 00 00 00 00 00 00 00
 4.148200 1  252             Rx   d 8 00 00 00 01 00 00 00 00
 4.150199 1  253             Rx   d 8 00 00 00 00 00 00 00 00
 4.152203 1  254             Rx   d 8 00 00 00 02 00 00 00 00
 4.152448 1  221             Rx   d 8 00 00 00 00 00 00 00 00
 4.152672 1  311             Rx   d 8 FF FF FF FF 00 00 00 01
 4.154228 1  241             Rx   d 8 AA 00 00 00 00 00 00 DC
 4.166212 1  251             Rx   d 8 00 00 00 00 00 00 00 00
 4.168199 1  252             Rx   d 8 00 00 00 01 00 00 00 00
 4.170224 1  253             Rx   d 8 00 00 00 00 00 00 00 00
 4.172245 1  254             Rx   d 8 00 00 00 02 00 00 00 00
 4.172486 1  221             Rx   d 8 00 00 00 00 00 00 00 00
 4.172724 1  311             Rx   d 8 FF FF FF FF 00 00 00 01
 4.174256 1  241             Rx   d 8 AA 00 00 00 00 00 00 DD
 4.185200 1  261             Rx   d 8 01 29 00 16 1E 00 00 00
 4.186197 1  251             Rx   d 8 00 00 00 00 00 00 00 00
 4.188226 1  252             Rx   d 8 00 00 00 01 00 00 00 00
 4.190226 1  253             Rx   d 8 00 00 00 00 00 00 00 00
 4.192230 1  254             Rx   d 8 00 00 00 02 00 00 00 00
 4.192449 1  221             Rx   d 8 00 00 00 00 00 00 00 00
 4.192721 1  311             Rx   d 8 FF FF FF FF 00 00 00 01
 4.194250 1  241             Rx   d 8 AA 00 00 00 00 00 00 DE
 4.196199 1  262             Rx   d 8 01 27 00 16 1E 00 00 00
 4.204296 1  211             Rx   d 8 00 01 01 1F 00 00 00 00
 4.206270 1  251             Rx   d 8 00 00 00 00 00 00 00 00
 4.207253 1  263             Rx   d 8 01 29 00 16 1E 00 00 00
 4.208255 1  252             Rx   d 8 00 00 00 01 00 00 00 00
 4.210256 1  253             Rx   d 8 00 00 00 00 00 00 00 00
 4.212253 1  254             Rx   d 8 00 00 00 02 00 00 00 00
 4.212500 1  221             Rx   d 8 00 00 00 00 00 00 00 00
 4.212750 1  311             Rx   d 8 FF FF FF FF 00 00 00 01
 4.214276 1  241             Rx   d 8 AA 00 00 00 00 00 00 DF
 4.218233 1  264             Rx   d 8 01 27 00 15 1E 00 00 00
 4.226285 1  251             Rx   d 8 00 00 00 00 00 00 00 00
 4.228279 1  252             Rx   d 8 00 00 00 01 00 00 00 00
 4.230309 1  253             Rx   d 8 00 00 00 00 00 00 00 00
 4.232302 1  221             Rx   d 8 00 00 00 00 00 00 00 00
 4.232551 1  311             Rx   d 8 FF FF FF FF 00 00 00 01
 4.232799 1  254             Rx   d 8 00 00 00 02 00 00 00 00
 4.234320 1  241             Rx   d 8 AA 00 00 00 00 00 00 E0
 4.246310 1  251             Rx   d 8 00 00 00 00 00 00 00 00
 4.248302 1  252             Rx   d 8 00 00 00 01 00 00 00 00
 4.250301 1  253             Rx   d 8 00 00 00 00 00 00 00 00
 4.252281 1  221             Rx   d 8 00 00 00 00 00 00 00 00
 4.252524 1  311             Rx   d 8 FF FF FF FF 00 00 00 01
 4.252801 1  254             Rx   d 8 00 00 00 02 00 00 00 00
 4.254364 1  241             Rx   d 8 AA 00 00 00 00 00 00 E1
 4.266305 1  251             Rx   d 8 00 00 00 00 00 00 00 00
 4.268301 1  252             Rx   d 8 00 00 00 01 00 00 00 00
 4.270331 1  253             Rx   d 8 00 00 00 00 00 00 00 00
 4.272328 1  221             Rx   d 8 00 00 00 00 00 00 00 00
 4.272577 1  311             Rx   d 8 FF FF FF FF 00 00 00 01
 4.272800 1  254             Rx   d 8 00 00 00 02 00 00 00 00
 4.274378 1  241             Rx   d 8 AA 00 00 00 00 00 00 E2
 4.285328 1  261             Rx   d 8 01 29 00 16 1E 00 00 00
 4.286331 1  251             Rx   d 8 00 00 00 00 00 00 00 00
 4.288336 1  252             Rx   d 8 00 00 00 01 00 00 00 00
 4.290335 1  253             Rx   d 8 00 00 00 00 00 00 00 00
 4.292305 1  221             Rx   d 8 00 00 00 00 00 00 00 00
 4.292558 1  311             Rx   d 8 FF FF FF FF 00 00 00 01
 4.292804 1  254             Rx   d 8 00 00 00 02 00 00 00 00
 4.294383 1  241             Rx   d 8 AA 00 00 00 00 00 00 E3
 4.296334 1  262             Rx   d 8 01 27 00 16 1E 00 00 00
 4.306360 1  251             Rx   d 8 00 00 00 00 00 00 00 00
 4.307367 1  263             Rx   d 8 01 28 00 16 1E 00 00 00
 4.308357 1  252             Rx   d 8 00 00 00 02 00 00 00 00
 4.310358 1  253             Rx   d 8 00 00 00 00 00 00 00 00
 4.312309 1  221             Rx   d 8 00 00 00 00 00 00 00 00
 4.312557 1  311             Rx   d 8 FF FF FF FF 00 00 00 01
 4.312809 1  254             Rx   d 8 00 00 00 02 00 00 00 00
 4.314398 1  241             Rx   d 8 AA 00 00 00 00 00 00 E4
 4.426456 1  251             Rx   d 8 00 00 00 00 00 00 00 00
 4.428456 1  252             Rx   d 8 00 00 00 01 00 00 00 00
 4.430480 1  253             Rx   d 8 00 00 00 00 00 00 00 00
 4.432306 1  221             Rx   d 8 00 00 00 00 00 00 00 00
 4.432553 1  311             Rx   d 8 FF FF FF FF 00 00 00 01
 4.432803 1  254             Rx   d 8 00 00 00 02 00 00 00 00
 4.434482 1  241             Rx   d 8 AA 00 00 00 00 00 00 EA
 4.446458 1  251             Rx   d 8 00 00 00 00 00 00 00 00
 4.448480 1  252             Rx   d 8 00 00 00 01 00 00 00 00
 4.450482 1  253             Rx   d 8 00 00 00 00 00 00 00 00
 4.452305 1  221             Rx   d 8 00 00 00 00 00 00 00 00
 4.452553 1  311             Rx   d 8 FF FF FF FF 00 00 00 01
 4.452801 1  254             Rx   d 8 00 00 00 02 00 00 00 00
 4.454479 1  241             Rx   d 8 AA 00 00 00 00 00 00 EB
 4.466483 1  251             Rx   d 8 00 00 00 00 00 00 00 00
 4.468483 1  252             Rx   d 8 00 00 00 01 00 00 00 00
 4.470483 1  253             Rx   d 8 00 00 00 00 00 00 00 00
 4.472308 1  221             Rx   d 8 00 00 00 00 00 00 00 00
 4.472557 1  311             Rx   d 8 FF FF FF FF 00 00 00 01
 4.472805 1  254             Rx   d 8 00 00 00 02 00 00 00 00
 4.474556 1  241             Rx   d 8 AA 00 00 00 00 00 00 EC
 4.485549 1  261             Rx   d 8 01 29 00 16 1E 00 00 00
 4.486544 1  251             Rx   d 8 00 00 00 00 00 00 00 00
 4.488506 1  252             Rx   d 8 00 00 00 01 00 00 00 00
 4.490541 1  253             Rx   d 8 00 00 00 00 00 00 00 00
 4.492343 1  221             Rx   d 8 00 00 00 00 00 00 00 00
 4.492562 1  311             Rx   d 8 FF FF FF FF 00 00 00 01
 4.492806 1  254             Rx   d 8 00 00 00 02 00 00 00 00
 4.494596 1  241             Rx   d 8 AA 00 00 00 00 00 00 ED
 4.496542 1  262             Rx   d 8 01 27 00 16 1E 00 00 00
 4.506569 1  251             Rx   d 8 00 00 00 00 00 00 00 00
 4.507564 1  263             Rx   d 8 01 28 00 16 1E 00 00 00
 4.508570 1  252             Rx   d 8 00 00 00 01 00 00 00 00
 4.510568 1  253             Rx   d 8 00 00 00 00 00 00 00 00
 4.512340 1  221             Rx   d 8 00 00 00 00 00 00 00 00
 4.512592 1  311             Rx   d 8 FF FF FF FF 00 00 00 01
 4.512841 1  254             Rx   d 8 00 00 00 02 00 00 00 00
 4.514621 1  241             Rx   d 8 AA 00 00 00 00 00 00 EE
 4.518569 1  264             Rx   d 8 01 27 00 15 1E 00 00 00
 4.526591 1  251             Rx   d 8 00 00 00 00 00 00 00 00
 4.528598 1  252             Rx   d 8 00 00 00 01 00 00 00 00
 4.530593 1  253             Rx   d 8 00 00 00 00 00 00 00 00
 4.532344 1  221             Rx   d 8 00 00 00 00 00 00 00 00
 4.532591 1  311             Rx   d 8 FF FF FF FF 00 00 00 01
 4.532841 1  254             Rx   d 8 00 00 00 02 00 00 00 00
 4.534620 1  241             Rx   d 8 AA 00 00 00 00 00 00 EF
 4.546595 1  251             Rx   d 8 00 00 00 00 00 00 00 00
 4.548620 1  252             Rx   d 8 00 00 00 01 00 00 00 00
 4.550626 1  253             Rx   d 8 00 00 00 00 00 00 00 00
 4.552311 1  221             Rx   d 8 00 00 00 00 00 00 00 00
 4.552592 1  311             Rx   d 8 FF FF FF FF 00 00 00 01
 4.552806 1  254             Rx   d 8 00 00 00 02 00 00 00 00
 4.554635 1  241             Rx   d 8 AA 00 00 00 00 00 00 F0
 4.566628 1  251             Rx   d 8 00 00 00 00 00 00 00 00
 4.568583 1  252             Rx   d 8 00 00 00 01 00 00 00 00
 4.570626 1  253             Rx   d 8 00 00 00 00 00 00 00 00
 4.572345 1  221             Rx   d 8 00 00 00 00 00 00 00 00
 4.572557 1  311             Rx   d 8 FF FF FF FF 00 00 00 01
 4.572805 1  254             Rx   d 8 00 00 00 02 00 00 00 00
 4.574665 1  241             Rx   d 8 AA 00 00 00 00 00 00 F1
 4.585646 1  261             Rx   d 8 01 29 00 16 1E 00 00 00
 4.586641 1  251             Rx   d 8 00 00 00 00 00 00 00 00
 4.588639 1  252             Rx   d 8 00 00 00 01 00 00 00 00
 4.590648 1  253             Rx   d 8 00 00 00 00 00 00 00 00
 4.592342 1  221             Rx   d 8 00 00 00 00 00 00 00 00
 4.592594 1  311             Rx   d 8 FF FF FF FF 00 00 00 01
 4.592841 1  254             Rx   d 8 00 00 00 02 00 00 00 00
 4.594649 1  241             Rx   d 8 AA 00 00 00 00 00 00 F2
 4.596645 1  262             Rx   d 8 01 27 00 16 1E 00 00 00
 4.604721 1  211             Rx   d 8 00 01 01 1F 00 00 00 00
 4.606637 1  251             Rx   d 8 00 00 00 00 00 00 00 00
 4.607671 1  263             Rx   d 8 01 28 00 16 1E 00 00 00
 4.608672 1  252             Rx   d 8 00 00 00 02 00 00 00 00
 4.610672 1  253             Rx   d 8 00 00 00 00 00 00 00 00
 4.612345 1  221             Rx   d 8 00 00 00 00 00 00 00 00
 4.612622 1  311             Rx   d 8 FF FF FF FF 00 00 00 01
 4.612839 1  254             Rx   d 8 00 00 00 02 00 00 00 00
 4.614685 1  241             Rx   d 8 AA 00 00 00 00 00 00 F3
 4.618668 1  264             Rx   d 8 01 27 00 15 1E 00 00 00
