date Mon Nov 27 02:48:17.370 PM 2023
base hex  timestamps absolute
internal events logged
Begin Triggerblock Mon Nov 27 02:48:17.340 PM 2023
 0.000000 Start of measurement
 0.000000 1  251             Rx   d 8 00 00 00 00 00 00 00 00
 0.002078 1  252             Rx   d 8 00 00 00 01 00 00 00 00
 0.004001 1  253             Rx   d 8 00 00 00 00 00 00 00 00
 0.005976 1  254             Rx   d 8 00 00 00 02 00 00 00 00
 0.008065 1  241             Rx   d 8 AA 00 00 00 00 00 00 A7
 0.013975 1  221             Rx   d 8 00 00 00 00 00 00 00 00
 0.014218 1  311             Rx   d 8 00 00 19 38 00 00 11 25
 0.019113 1  261             Rx   d 8 01 28 00 18 1E 00 00 00
 0.020052 1  251             Rx   d 8 00 00 00 00 00 00 00 00
 0.022025 1  252             Rx   d 8 00 00 00 01 00 00 00 00
 0.024053 1  253             Rx   d 8 00 00 00 00 00 00 00 00
 0.026025 1  254             Rx   d 8 00 00 00 02 00 00 00 00
 0.028027 1  241             Rx   d 8 AA 00 00 00 00 00 00 A8
 0.029995 1  262             Rx   d 8 01 26 00 18 1E 00 00 00
 0.033998 1  221             Rx   d 8 00 00 00 00 00 00 00 00
 0.034200 1  311             Rx   d 8 00 00 19 38 00 00 11 25
 0.038144 1  211             Rx   d 8 00 01 01 1D 00 00 00 00
 0.040028 1  251             Rx   d 8 00 00 00 00 00 00 00 00
 0.041026 1  263             Rx   d 8 01 26 00 18 1E 00 00 00
 0.042026 1  252             Rx   d 8 00 00 00 01 00 00 00 00
 0.044027 1  253             Rx   d 8 00 00 00 00 00 00 00 00
 0.046026 1  254             Rx   d 8 00 00 00 02 00 00 00 00
 0.048071 1  241             Rx   d 8 AA 00 00 00 00 00 00 A9
 0.052060 1  264             Rx   d 8 01 26 00 18 1E 00 00 00
 0.053971 1  221             Rx   d 8 00 00 00 00 00 00 00 00
 0.054202 1  311             Rx   d 8 00 00 19 38 00 00 11 25
 0.060024 1  251             Rx   d 8 00 00 00 00 00 00 00 00
 0.062021 1  252             Rx   d 8 00 00 00 01 00 00 00 00
 0.064090 1  253             Rx   d 8 00 00 00 00 00 00 00 00
 0.066079 1  254             Rx   d 8 00 00 00 02 00 00 00 00
 0.068134 1  241             Rx   d 8 AA 00 00 00 00 00 00 AA
 0.074071 1  221             Rx   d 8 00 00 00 00 00 00 00 00
 0.074316 1  311             Rx   d 8 00 00 19 38 00 00 11 25
 0.080080 1  251             Rx   d 8 00 00 00 00 00 00 00 00
 0.082079 1  252             Rx   d 8 00 00 00 01 00 00 00 00
 0.084077 1  253             Rx   d 8 00 00 00 00 00 00 00 00
 0.086079 1  254             Rx   d 8 00 00 00 02 00 00 00 00
 0.088127 1  241             Rx   d 8 AA 00 00 00 00 00 00 AB
 0.093947 1  221             Rx   d 8 00 00 00 00 00 00 00 00
 0.094218 1  311             Rx   d 8 00 00 19 38 00 00 11 25
 0.100077 1  251             Rx   d 8 00 00 00 00 00 00 00 00
 0.102102 1  252             Rx   d 8 00 00 00 01 00 00 00 00
 0.104130 1  253             Rx   d 8 00 00 00 00 00 00 00 00
 0.106104 1  254             Rx   d 8 00 00 00 02 00 00 00 00
 0.108174 1  241             Rx   d 8 AA 00 00 00 00 00 00 AC
 0.114025 1  221             Rx   d 8 00 00 00 00 00 00 00 00
 0.114255 1  311             Rx   d 8 00 00 19 38 00 00 11 25
 0.119127 1  261             Rx   d 8 01 28 00 18 1E 00 00 00
 0.120132 1  251             Rx   d 8 00 00 00 00 00 00 00 00
 0.122143 1  252             Rx   d 8 00 00 00 01 00 00 00 00
 0.124149 1  253             Rx   d 8 00 00 00 00 00 00 00 00
 0.126140 1  254             Rx   d 8 00 00 00 02 00 00 00 00
 0.128188 1  241             Rx   d 8 AA 00 00 00 00 00 00 AD
 0.130131 1  262             Rx   d 8 01 26 00 18 1E 00 00 00
 0.133953 1  221             Rx   d 8 00 00 00 00 00 00 00 00
 0.134238 1  311             Rx   d 8 00 00 19 38 00 00 11 25
 0.140144 1  251             Rx   d 8 00 00 00 00 00 00 00 00
 0.141141 1  263             Rx   d 8 01 27 00 18 1E 00 00 00
 0.142132 1  252             Rx   d 8 00 00 00 01 00 00 00 00
 0.144127 1  253             Rx   d 8 00 00 00 00 00 00 00 00
 0.146156 1  254             Rx   d 8 00 00 00 02 00 00 00 00
 0.148180 1  241             Rx   d 8 AA 00 00 00 00 00 00 AE
 0.152153 1  264             Rx   d 8 01 26 00 18 1E 00 00 00
 0.153977 1  221             Rx   d 8 00 00 00 00 00 00 00 00
 0.154225 1  311             Rx   d 8 00 00 19 38 00 00 11 25
 0.160130 1  251             Rx   d 8 00 00 00 00 00 00 00 00
 0.162166 1  252             Rx   d 8 00 00 00 01 00 00 00 00
 0.164194 1  253             Rx   d 8 00 00 00 00 00 00 00 00
 0.166273 1  254             Rx   d 8 00 00 00 02 00 00 00 00
 0.168270 1  241             Rx   d 8 AA 00 00 00 00 00 00 AF
 0.174074 1  221             Rx   d 8 00 00 00 00 00 00 00 00
 0.174335 1  311             Rx   d 8 00 00 19 38 00 00 11 25
 0.180293 1  251             Rx   d 8 00 00 00 00 00 00 00 00
 0.182290 1  252             Rx   d 8 00 00 00 01 00 00 00 00
 0.184292 1  253             Rx   d 8 00 00 00 00 00 00 00 00
 0.186292 1  254             Rx   d 8 00 00 00 02 00 00 00 00
 0.188344 1  241             Rx   d 8 AA 00 00 00 00 00 00 B0
 0.193989 1  221             Rx   d 8 00 00 00 00 00 00 00 00
 0.194332 1  311             Rx   d 8 00 00 19 38 00 00 11 25
 0.200317 1  251             Rx   d 8 00 00 00 00 00 00 00 00
 0.202276 1  252             Rx   d 8 00 00 00 01 00 00 00 00
 0.204247 1  253             Rx   d 8 00 00 00 00 00 00 00 00
 0.206213 1  254             Rx   d 8 00 00 00 02 00 00 00 00
 0.208281 1  241             Rx   d 8 AA 00 00 00 00 00 00 B1
 0.213976 1  221             Rx   d 8 00 00 00 00 00 00 00 00
 0.214224 1  311             Rx   d 8 00 00 19 38 00 00 11 25
 0.219205 1  261             Rx   d 8 01 28 00 18 1E 00 00 00
 0.220206 1  251             Rx   d 8 00 00 00 00 00 00 00 00
 0.222230 1  252             Rx   d 8 00 00 00 01 00 00 00 00
 0.224206 1  253             Rx   d 8 00 00 00 00 00 00 00 00
 0.226232 1  254             Rx   d 8 00 00 00 02 00 00 00 00
 0.228283 1  241             Rx   d 8 AA 00 00 00 00 00 00 B2
 0.230230 1  262             Rx   d 8 01 26 00 18 1E 00 00 00
 0.234004 1  221             Rx   d 8 00 00 00 00 00 00 00 00
 0.234226 1  311             Rx   d 8 00 00 19 38 00 00 11 25
 0.238414 1  211             Rx   d 8 00 01 01 1D 00 00 00 00
 0.240433 1  251             Rx   d 8 00 00 00 00 00 00 00 00
 0.241422 1  263             Rx   d 8 01 27 00 18 1E 00 00 00
 0.242418 1  252             Rx   d 8 00 00 00 01 00 00 00 00
 0.244428 1  253             Rx   d 8 00 00 00 00 00 00 00 00
 0.246450 1  254             Rx   d 8 00 00 00 02 00 00 00 00
 0.248399 1  241             Rx   d 8 AA 00 00 00 00 00 00 B3
 0.252343 1  264             Rx   d 8 01 26 00 18 1E 00 00 00
 0.254103 1  221             Rx   d 8 00 00 00 00 00 00 00 00
 0.254264 1  311             Rx   d 8 00 00 19 38 00 00 11 25
 0.258343 1  231             Rx   d 8 00 00 00 02 0E 00 00 00
 0.260311 1  251             Rx   d 8 00 00 00 00 00 00 00 00
 0.262320 1  252             Rx   d 8 00 00 00 01 00 00 00 00
 0.264287 1  253             Rx   d 8 00 00 00 00 00 00 00 00
 0.266303 1  254             Rx   d 8 00 00 00 02 00 00 00 00
 0.268434 1  241             Rx   d 8 AA 00 00 00 00 00 00 B4
 0.274031 1  221             Rx   d 8 00 00 00 00 00 00 00 00
 0.274244 1  311             Rx   d 8 00 00 19 38 00 00 11 25
 0.280389 1  251             Rx   d 8 00 00 00 00 00 00 00 00
 0.282388 1  252             Rx   d 8 00 00 00 01 00 00 00 00
 0.284286 1  253             Rx   d 8 00 00 00 00 00 00 00 00
 0.286256 1  254             Rx   d 8 00 00 00 02 00 00 00 00
 0.288332 1  241             Rx   d 8 AA 00 00 00 00 00 00 B5
 0.294079 1  221             Rx   d 8 00 00 00 00 00 00 00 00
 0.294248 1  311             Rx   d 8 00 00 19 38 00 00 11 25
 0.300439 1  251             Rx   d 8 00 00 00 00 00 00 00 00
 0.302475 1  252             Rx   d 8 00 00 00 01 00 00 00 00
 0.304438 1  253             Rx   d 8 00 00 00 00 00 00 00 00
 0.306445 1  254             Rx   d 8 00 00 00 02 00 00 00 00
 0.308467 1  241             Rx   d 8 AA 00 00 00 00 00 00 B6
 0.314037 1  221             Rx   d 8 00 00 00 00 00 00 00 00
 0.314250 1  311             Rx   d 8 00 00 19 38 00 00 11 25
 0.319440 1  261             Rx   d 8 01 28 00 18 1E 00 00 00
 0.320437 1  251             Rx   d 8 00 00 00 00 00 00 00 00
 0.322444 1  252             Rx   d 8 00 00 00 01 00 00 00 00
 0.324430 1  253             Rx   d 8 00 00 00 00 00 00 00 00
 0.326466 1  254             Rx   d 8 00 00 00 02 00 00 00 00
 0.328486 1  241             Rx   d 8 AA 00 00 00 00 00 00 B7
 0.330435 1  262             Rx   d 8 01 26 00 18 1E 00 00 00
 0.334042 1  221             Rx   d 8 00 00 00 00 00 00 00 00
 0.334280 1  311             Rx   d 8 00 00 19 38 00 00 11 25
 0.340441 1  251             Rx   d 8 00 00 00 00 00 00 00 00
 0.341436 1  263             Rx   d 8 01 27 00 18 1E 00 00 00
 0.342439 1  252             Rx   d 8 00 00 00 01 00 00 00 00
 0.344441 1  253             Rx   d 8 00 00 00 00 00 00 00 00
 0.346437 1  254             Rx   d 8 00 00 00 02 00 00 00 00
 0.348489 1  241             Rx   d 8 AA 00 00 00 00 00 00 B8
 0.352440 1  264             Rx   d 8 01 26 00 18 1E 00 00 00
 0.354116 1  221             Rx   d 8 00 00 00 00 00 00 00 00
 0.354277 1  311             Rx   d 8 00 00 19 38 00 00 11 25
 0.360337 1  251             Rx   d 8 00 00 00 00 00 00 00 00
 0.362374 1  252             Rx   d 8 00 00 00 01 00 00 00 00
 0.364461 1  253             Rx   d 8 00 00 00 00 00 00 00 00
 0.366387 1  254             Rx   d 8 00 00 00 02 00 00 00 00
 0.368425 1  241             Rx   d 8 AA 00 00 00 00 00 00 B9
 0.374132 1  221             Rx   d 8 00 00 00 00 00 00 00 00
 0.374283 1  311             Rx   d 8 00 00 19 38 00 00 11 25
 0.380497 1  251             Rx   d 8 00 00 00 00 00 00 00 00
 0.382683 1  252             Rx   d 8 00 00 00 01 00 00 00 00
 0.384517 1  253             Rx   d 8 00 00 00 00 00 00 00 00
 0.386493 1  254             Rx   d 8 00 00 00 02 00 00 00 00
 0.388497 1  241             Rx   d 8 AA 00 00 00 00 00 00 BA
 0.394121 1  221             Rx   d 8 00 00 00 00 00 00 00 00
 0.394302 1  311             Rx   d 8 00 00 19 38 00 00 11 25
 0.400573 1  251             Rx   d 8 00 00 00 00 00 00 00 00
 0.402605 1  252             Rx   d 8 00 00 00 01 00 00 00 00
 0.404608 1  253             Rx   d 8 00 00 00 00 00 00 00 00
 0.406606 1  254             Rx   d 8 00 00 00 03 00 00 00 00
 0.408486 1  241             Rx   d 8 AA 00 00 00 00 00 00 BB
 0.414030 1  221             Rx   d 8 00 00 00 00 00 00 00 00
 0.414272 1  311             Rx   d 8 00 00 19 38 00 00 11 25
 0.419387 1  261             Rx   d 8 01 28 00 18 1E 00 00 00
 0.420429 1  251             Rx   d 8 00 00 00 00 00 00 00 00
 0.422422 1  252             Rx   d 8 00 00 00 01 00 00 00 00
 0.424451 1  253             Rx   d 8 00 00 00 00 00 00 00 00
 0.426451 1  254             Rx   d 8 00 00 00 03 00 00 00 00
 0.428554 1  241             Rx   d 8 AA 00 00 00 00 00 00 BC
 0.430428 1  262             Rx   d 8 01 26 00 18 1E 00 00 00
 0.434036 1  221             Rx   d 8 00 00 00 00 00 00 00 00
 0.434285 1  311             Rx   d 8 00 00 19 38 00 00 11 25
 0.438527 1  211             Rx   d 8 00 01 01 1D 00 00 00 00
 0.440451 1  251             Rx   d 8 00 00 00 00 00 00 00 00
 0.441421 1  263             Rx   d 8 01 27 00 18 1E 00 00 00
 0.442453 1  252             Rx   d 8 00 00 00 01 00 00 00 00
 0.444450 1  253             Rx   d 8 00 00 00 00 00 00 00 00
 0.446526 1  254             Rx   d 8 00 00 00 03 00 00 00 00
 0.448584 1  241             Rx   d 8 AA 00 00 00 00 00 00 BD
 0.452469 1  264             Rx   d 8 01 26 00 18 1E 00 00 00
 0.454118 1  221             Rx   d 8 00 00 00 00 00 00 00 00
 0.454287 1  311             Rx   d 8 00 00 19 38 00 00 11 25
 0.460440 1  251             Rx   d 8 00 00 00 00 00 00 00 00
 0.462429 1  252             Rx   d 8 00 00 00 01 00 00 00 00
 0.464510 1  253             Rx   d 8 00 00 00 00 00 00 00 00
 0.466569 1  254             Rx   d 8 00 00 00 02 00 00 00 00
 0.468538 1  241             Rx   d 8 AA 00 00 00 00 00 00 BE
 0.474038 1  221             Rx   d 8 00 00 00 00 00 00 00 00
 0.474271 1  311             Rx   d 8 00 00 19 38 00 00 11 25
 0.480499 1  251             Rx   d 8 00 00 00 00 00 00 00 00
 0.482498 1  252             Rx   d 8 00 00 00 01 00 00 00 00
 0.484492 1  253             Rx   d 8 00 00 00 00 00 00 00 00
 0.486509 1  254             Rx   d 8 00 00 00 02 00 00 00 00
 0.488552 1  241             Rx   d 8 AA 00 00 00 00 00 00 BF
 0.494017 1  221             Rx   d 8 00 00 00 00 00 00 00 00
 0.494271 1  311             Rx   d 8 00 00 19 38 00 00 11 25
 0.500523 1  251             Rx   d 8 00 00 00 00 00 00 00 00
 0.502524 1  252             Rx   d 8 00 00 00 01 00 00 00 00
 0.504529 1  253             Rx   d 8 00 00 00 00 00 00 00 00
 0.506523 1  254             Rx   d 8 00 00 00 02 00 00 00 00
 0.508575 1  241             Rx   d 8 AA 00 00 00 00 00 00 C0
 0.514044 1  221             Rx   d 8 00 00 00 00 00 00 00 00
 0.514268 1  311             Rx   d 8 00 00 19 38 00 00 11 25
 0.519508 1  261             Rx   d 8 01 28 00 18 1E 00 00 00
 0.520509 1  251             Rx   d 8 00 00 00 00 00 00 00 00
 0.522532 1  252             Rx   d 8 00 00 00 01 00 00 00 00
 0.524506 1  253             Rx   d 8 00 00 00 00 00 00 00 00
 0.526531 1  254             Rx   d 8 00 00 00 02 00 00 00 00
 0.528677 1  241             Rx   d 8 AA 00 00 00 00 00 00 C1
 0.530622 1  262             Rx   d 8 01 26 00 18 1E 00 00 00
 0.534037 1  221             Rx   d 8 00 00 00 00 00 00 00 00
 0.534252 1  311             Rx   d 8 00 00 19 38 00 00 11 25
 0.540538 1  251             Rx   d 8 00 00 00 00 00 00 00 00
 0.541529 1  263             Rx   d 8 01 27 00 18 1E 00 00 00
 0.542529 1  252             Rx   d 8 00 00 00 01 00 00 00 00
 0.544532 1  253             Rx   d 8 00 00 00 00 00 00 00 00
 0.546561 1  254             Rx   d 8 00 00 00 02 00 00 00 00
 0.548580 1  241             Rx   d 8 AA 00 00 00 00 00 00 C2
 0.552541 1  264             Rx   d 8 01 25 00 18 1E 00 00 00
 0.554044 1  221             Rx   d 8 00 00 00 00 00 00 00 00
 0.554276 1  311             Rx   d 8 00 00 19 38 00 00 11 25
 0.560528 1  251             Rx   d 8 00 00 00 00 00 00 00 00
 0.562552 1  252             Rx   d 8 00 00 00 01 00 00 00 00
 0.564550 1  253             Rx   d 8 00 00 00 00 00 00 00 00
 0.566550 1  254             Rx   d 8 00 00 00 02 00 00 00 00
 0.568601 1  241             Rx   d 8 AA 00 00 00 00 00 00 C3
 0.574000 1  221             Rx   d 8 00 00 00 00 00 00 00 00
 0.574278 1  311             Rx   d 8 00 00 19 38 00 00 11 25
 0.580586 1  251             Rx   d 8 00 00 00 00 00 00 00 00
 0.582580 1  252             Rx   d 8 00 00 00 01 00 00 00 00
 0.584621 1  253             Rx   d 8 00 00 00 00 00 00 00 00
 0.586555 1  254             Rx   d 8 00 00 00 02 00 00 00 00
 0.588602 1  241             Rx   d 8 AA 00 00 00 00 00 00 C4
 0.592605 1  421             Tx   d 1 01
 0.594003 1  221             Rx   d 8 00 00 00 00 00 00 00 00
 0.594249 1  311             Rx   d 8 00 00 19 38 00 00 11 25
 0.600590 1  251             Rx   d 8 00 00 00 00 00 00 00 00
 0.602580 1  252             Rx   d 8 00 00 00 01 00 00 00 00
 0.604646 1  253             Rx   d 8 00 00 00 00 00 00 00 00
 0.606611 1  254             Rx   d 8 00 00 00 02 00 00 00 00
 0.608683 1  241             Rx   d 8 AA 00 00 00 00 00 00 C5
 0.614124 1  221             Rx   d 8 00 00 00 00 00 00 00 00
 0.614368 1  311             Rx   d 8 00 00 19 38 00 00 11 25
 0.619621 1  261             Rx   d 8 01 28 00 18 1E 00 00 00
 0.620630 1  251             Rx   d 8 00 00 00 00 00 00 00 00
 0.622605 1  252             Rx   d 8 00 00 00 01 00 00 00 00
 0.624632 1  253             Rx   d 8 00 00 00 00 00 00 00 00
 0.626654 1  254             Rx   d 8 00 00 00 02 00 00 00 00
 0.628762 1  241             Rx   d 8 AA 00 00 00 00 00 00 C6
 0.630647 1  262             Rx   d 8 01 26 00 18 1E 00 00 00
 0.634048 1  221             Rx   d 8 00 00 00 00 00 00 00 00
 0.634295 1  311             Rx   d 8 00 00 19 38 00 00 11 25
 0.638716 1  211             Rx   d 8 00 01 01 1D 00 00 00 00
 0.640646 1  251             Rx   d 8 00 00 00 00 00 00 00 00
 0.641643 1  263             Rx   d 8 01 27 00 18 1E 00 00 00
 0.642645 1  252             Rx   d 8 00 00 00 01 00 00 00 00
 0.644650 1  253             Rx   d 8 00 00 00 00 00 00 00 00
 0.646665 1  254             Rx   d 8 00 00 00 02 00 00 00 00
 0.648713 1  241             Rx   d 8 AA 00 00 00 00 00 00 C7
 0.652655 1  264             Rx   d 8 01 25 00 18 1E 00 00 00
 0.654062 1  221             Rx   d 8 00 00 00 00 00 00 00 00
 0.654299 1  311             Rx   d 8 00 00 19 38 00 00 11 25
 0.660637 1  251             Rx   d 8 00 00 00 00 00 00 00 00
 0.662674 1  252             Rx   d 8 00 00 00 01 00 00 00 00
 0.664679 1  253             Rx   d 8 00 00 00 00 00 00 00 00
 0.666685 1  254             Rx   d 8 00 00 00 02 00 00 00 00
 0.668728 1  241             Rx   d 8 AA 00 00 00 00 00 00 C8
 0.674047 1  221             Rx   d 8 00 00 00 00 00 00 00 00
 0.674253 1  311             Rx   d 8 00 00 19 38 00 00 11 25
 0.680687 1  251             Rx   d 8 00 00 00 00 00 00 00 00
 0.682687 1  252             Rx   d 8 00 00 00 01 00 00 00 00
 0.684696 1  253             Rx   d 8 00 00 00 00 00 00 00 00
 0.686696 1  254             Rx   d 8 00 00 00 02 00 00 00 00
 0.688697 1  241             Rx   d 8 AA 00 00 00 00 00 00 C9
 0.694059 1  221             Rx   d 8 00 00 00 00 00 00 00 00
 0.694278 1  311             Rx   d 8 00 00 19 38 00 00 11 25
 0.700664 1  251             Rx   d 8 00 00 00 00 00 00 00 00
 0.702683 1  252             Rx   d 8 00 00 00 01 00 00 00 00
 0.704720 1  253             Rx   d 8 00 00 00 00 00 00 00 00
 0.706751 1  254             Rx   d 8 00 00 00 02 00 00 00 00
 0.708908 1  241             Rx   d 8 AA 00 00 00 00 00 00 CA
 0.714076 1  221             Rx   d 8 00 00 00 00 00 00 00 00
 0.714317 1  311             Rx   d 8 00 00 19 38 00 00 11 25
 0.719766 1  261             Rx   d 8 01 28 00 18 1E 00 00 00
 0.720826 1  251             Rx   d 8 00 00 00 00 00 00 00 00
 0.722754 1  252             Rx   d 8 00 00 00 01 00 00 00 00
 0.724713 1  253             Rx   d 8 00 00 00 00 00 00 00 00
 0.726707 1  254             Rx   d 8 00 00 00 02 00 00 00 00
 0.728757 1  241             Rx   d 8 AA 00 00 00 00 00 00 CB
 0.730707 1  262             Rx   d 8 01 27 00 18 1E 00 00 00
 0.734055 1  221             Rx   d 8 00 00 00 00 00 00 00 00
 0.734280 1  311             Rx   d 8 00 00 19 38 00 00 11 25
 0.740743 1  251             Rx   d 8 00 00 00 00 00 00 00 00
 0.741733 1  263             Rx   d 8 01 27 00 18 1E 00 00 00
 0.742736 1  252             Rx   d 8 00 00 00 01 00 00 00 00
 0.744742 1  253             Rx   d 8 00 00 00 00 00 00 00 00
 0.746881 1  254             Rx   d 8 00 00 00 02 00 00 00 00
 0.748819 1  241             Rx   d 8 AA 00 00 00 00 00 00 CC
 0.752763 1  264             Rx   d 8 01 26 00 18 1E 00 00 00
 0.754024 1  221             Rx   d 8 00 00 00 00 00 00 00 00
 0.754247 1  311             Rx   d 8 00 00 19 38 00 00 11 25
 0.758814 1  231             Rx   d 8 00 00 00 02 06 00 00 00
 0.760731 1  251             Rx   d 8 00 00 00 00 00 00 00 00
 0.762779 1  252             Rx   d 8 00 00 00 01 00 00 00 00
 0.764723 1  253             Rx   d 8 00 00 00 00 00 00 00 00
 0.766729 1  254             Rx   d 8 00 00 00 02 00 00 00 00
 0.768796 1  241             Rx   d 8 AA 00 00 00 00 00 00 CD
 0.774008 1  221             Rx   d 8 00 00 00 00 00 00 00 00
 0.774244 1  311             Rx   d 8 00 00 19 38 00 00 11 25
 0.780755 1  251             Rx   d 8 00 00 00 00 00 00 00 00
 0.782773 1  252             Rx   d 8 00 00 00 01 00 00 00 00
 0.784753 1  253             Rx   d 8 00 00 00 00 00 00 00 00
 0.786808 1  254             Rx   d 8 00 00 00 02 00 00 00 00
 0.788778 1  241             Rx   d 8 AA 00 00 00 00 00 00 CE
 0.794040 1  221             Rx   d 8 00 00 00 00 00 00 00 00
 0.794276 1  311             Rx   d 8 00 00 19 38 00 00 11 25
 0.800783 1  251             Rx   d 8 00 00 00 00 00 00 00 00
 0.802806 1  252             Rx   d 8 00 00 00 01 00 00 00 00
 0.804821 1  253             Rx   d 8 00 00 00 00 00 00 00 00
 0.806811 1  254             Rx   d 8 00 00 00 02 00 00 00 00
 0.808859 1  241             Rx   d 8 AA 00 00 00 00 00 00 CF
 0.814068 1  221             Rx   d 8 00 00 00 00 00 00 00 00
 0.814332 1  311             Rx   d 8 00 00 19 38 00 00 11 25
 0.819820 1  261             Rx   d 8 01 27 00 18 1E 00 00 00
 0.820822 1  251             Rx   d 8 00 00 00 00 00 00 00 00
 0.822845 1  252             Rx   d 8 00 00 00 01 00 00 00 00
 0.824808 1  253             Rx   d 8 00 00 00 00 00 00 00 00
 0.826840 1  254             Rx   d 8 00 00 00 02 00 00 00 00
 0.828848 1  241             Rx   d 8 AA 00 00 00 00 00 00 D0
 0.830835 1  262             Rx   d 8 01 26 00 18 1E 00 00 00
 0.834079 1  221             Rx   d 8 00 00 00 00 00 00 00 00
 0.834279 1  311             Rx   d 8 00 00 19 38 00 00 11 25
 0.838856 1  211             Rx   d 8 00 01 01 1D 00 00 00 00
 0.840831 1  251             Rx   d 8 00 00 00 00 00 00 00 00
 0.841831 1  263             Rx   d 8 01 26 00 18 1E 00 00 00
 0.842828 1  252             Rx   d 8 00 00 00 01 00 00 00 00
 0.844829 1  253             Rx   d 8 00 00 00 00 00 00 00 00
 0.846829 1  254             Rx   d 8 00 00 00 02 00 00 00 00
 0.848878 1  241             Rx   d 8 AA 00 00 00 00 00 00 D1
 0.852837 1  264             Rx   d 8 01 25 00 18 1E 00 00 00
 0.854062 1  221             Rx   d 8 00 00 00 00 00 00 00 00
 0.854337 1  311             Rx   d 8 00 00 19 38 00 00 11 25
 0.860830 1  251             Rx   d 8 00 00 00 00 00 00 00 00
 0.862831 1  252             Rx   d 8 00 00 00 01 00 00 00 00
 0.864872 1  253             Rx   d 8 00 00 00 00 00 00 00 00
 0.866890 1  254             Rx   d 8 00 00 00 02 00 00 00 00
 0.868919 1  241             Rx   d 8 AA 00 00 00 00 00 00 D2
 0.874045 1  221             Rx   d 8 00 00 00 00 00 00 00 00
 0.874328 1  311             Rx   d 8 00 00 19 38 00 00 11 25
 0.880881 1  251             Rx   d 8 00 00 00 00 00 00 00 00
 0.882881 1  252             Rx   d 8 00 00 00 01 00 00 00 00
 0.884953 1  253             Rx   d 8 00 00 00 00 00 00 00 00
 0.886892 1  254             Rx   d 8 00 00 00 02 00 00 00 00
 0.888879 1  241             Rx   d 8 AA 00 00 00 00 00 00 D3
 0.894030 1  221             Rx   d 8 00 00 00 00 00 00 00 00
 0.894337 1  311             Rx   d 8 00 00 19 38 00 00 11 25
 0.900918 1  251             Rx   d 8 00 00 00 00 00 00 00 00
 0.902913 1  252             Rx   d 8 00 00 00 01 00 00 00 00
 0.904916 1  253             Rx   d 8 00 00 00 00 00 00 00 00
 0.906910 1  254             Rx   d 8 00 00 00 02 00 00 00 00
 0.908968 1  241             Rx   d 8 AA 00 00 00 00 00 00 D4
 0.914043 1  221             Rx   d 8 00 00 00 00 00 00 00 00
 0.914302 1  311             Rx   d 8 00 00 19 38 00 00 11 25
 0.919909 1  261             Rx   d 8 01 27 00 18 1E 00 00 00
 0.920904 1  251             Rx   d 8 00 00 00 00 00 00 00 00
 0.922904 1  252             Rx   d 8 00 00 00 01 00 00 00 00
 0.924904 1  253             Rx   d 8 00 00 00 00 00 00 00 00
 0.926906 1  254             Rx   d 8 00 00 00 02 00 00 00 00
 0.928934 1  241             Rx   d 8 AA 00 00 00 00 00 00 D5
 0.930909 1  262             Rx   d 8 01 26 00 18 1E 00 00 00
 0.934092 1  221             Rx   d 8 00 00 00 00 00 00 00 00
 0.934344 1  311             Rx   d 8 00 00 19 38 00 00 11 25
 0.940940 1  251             Rx   d 8 00 00 00 00 00 00 00 00
 0.941938 1  263             Rx   d 8 01 27 00 18 1E 00 00 00
 0.942934 1  252             Rx   d 8 00 00 00 01 00 00 00 00
 0.944936 1  253             Rx   d 8 00 00 00 00 00 00 00 00
 0.946938 1  254             Rx   d 8 00 00 00 02 00 00 00 00
 0.948995 1  241             Rx   d 8 AA 00 00 00 00 00 00 D6
 0.952993 1  264             Rx   d 8 01 26 00 18 1E 00 00 00
 0.954167 1  221             Rx   d 8 00 00 00 00 00 00 00 00
 0.954336 1  311             Rx   d 8 00 00 19 38 00 00 11 25
 0.960961 1  251             Rx   d 8 00 00 00 00 00 00 00 00
 0.962931 1  252             Rx   d 8 00 00 00 01 00 00 00 00
 0.964982 1  253             Rx   d 8 00 00 00 00 00 00 00 00
 0.966955 1  254             Rx   d 8 00 00 00 02 00 00 00 00
 0.968956 1  241             Rx   d 8 AA 00 00 00 00 00 00 D7
 0.974060 1  221             Rx   d 8 00 00 00 00 00 00 00 00
 0.974334 1  311             Rx   d 8 00 00 19 38 00 00 11 25
 0.980999 1  251             Rx   d 8 00 00 00 00 00 00 00 00
 0.982992 1  252             Rx   d 8 00 00 00 01 00 00 00 00
 0.985072 1  253             Rx   d 8 00 00 00 00 00 00 00 00
 0.986954 1  254             Rx   d 8 00 00 00 02 00 00 00 00
 0.989032 1  241             Rx   d 8 AA 00 00 00 00 00 00 D8
 0.994061 1  221             Rx   d 8 00 00 00 00 00 00 00 00
 0.994335 1  311             Rx   d 8 00 00 19 38 00 00 11 25
 1.000990 1  251             Rx   d 8 00 00 00 00 00 00 00 00
 1.002982 1  252             Rx   d 8 00 00 00 01 00 00 00 00
 1.005005 1  253             Rx   d 8 00 00 00 00 00 00 00 00
 1.007009 1  254             Rx   d 8 00 00 00 02 00 00 00 00
 1.009055 1  241             Rx   d 8 AA 00 00 00 00 00 00 D9
 1.014060 1  221             Rx   d 8 00 00 00 00 00 00 00 00
 1.014339 1  311             Rx   d 8 00 00 19 38 00 00 11 25
 1.020014 1  261             Rx   d 8 01 27 00 18 1E 00 00 00
 1.021011 1  251             Rx   d 8 00 00 00 00 00 00 00 00
 1.023037 1  252             Rx   d 8 00 00 00 01 00 00 00 00
 1.025013 1  253             Rx   d 8 00 00 00 00 00 00 00 00
 1.027034 1  254             Rx   d 8 00 00 00 02 00 00 00 00
 1.029065 1  241             Rx   d 8 AA 00 00 00 00 00 00 DA
 1.031017 1  262             Rx   d 8 01 26 00 18 1E 00 00 00
 1.034090 1  221             Rx   d 8 00 00 00 00 00 00 00 00
 1.034338 1  311             Rx   d 8 00 00 19 38 00 00 11 25
 1.039014 1  211             Rx   d 8 00 01 01 1D 00 00 00 00
 1.041043 1  251             Rx   d 8 00 00 00 00 00 00 00 00
 1.042039 1  263             Rx   d 8 01 27 00 18 1E 00 00 00
 1.043040 1  252             Rx   d 8 00 00 00 01 00 00 00 00
 1.045040 1  253             Rx   d 8 00 00 00 00 00 00 00 00
 1.047040 1  254             Rx   d 8 00 00 00 02 00 00 00 00
 1.049089 1  241             Rx   d 8 AA 00 00 00 00 00 00 DB
 1.053038 1  264             Rx   d 8 01 25 00 18 1E 00 00 00
 1.054089 1  221             Rx   d 8 00 00 00 00 00 00 00 00
 1.054340 1  311             Rx   d 8 00 00 19 38 00 00 11 25
 1.061065 1  251             Rx   d 8 00 00 00 00 00 00 00 00
 1.063029 1  252             Rx   d 8 00 00 00 01 00 00 00 00
 1.065032 1  253             Rx   d 8 00 00 00 00 00 00 00 00
 1.067072 1  254             Rx   d 8 00 00 00 02 00 00 00 00
 1.069119 1  241             Rx   d 8 AA 00 00 00 00 00 00 DC
 1.074090 1  221             Rx   d 8 00 00 00 00 00 00 00 00
 1.074337 1  311             Rx   d 8 00 00 19 38 00 00 11 25
 1.081087 1  251             Rx   d 8 00 00 00 00 00 00 00 00
 1.083059 1  252             Rx   d 8 00 00 00 01 00 00 00 00
 1.085091 1  253             Rx   d 8 00 00 00 00 00 00 00 00
 1.087107 1  254             Rx   d 8 00 00 00 02 00 00 00 00
 1.089092 1  241             Rx   d 8 AA 00 00 00 00 00 00 DD
 1.094092 1  221             Rx   d 8 00 00 00 00 00 00 00 00
 1.094340 1  311             Rx   d 8 00 00 19 38 00 00 11 25
 1.101094 1  251             Rx   d 8 00 00 00 00 00 00 00 00
 1.103098 1  252             Rx   d 8 00 00 00 01 00 00 00 00
 1.105114 1  253             Rx   d 8 00 00 00 00 00 00 00 00
 1.107099 1  254             Rx   d 8 00 00 00 02 00 00 00 00
 1.109166 1  241             Rx   d 8 AA 00 00 00 00 00 00 DE
 1.114092 1  221             Rx   d 8 00 00 00 00 00 00 00 00
 1.114339 1  311             Rx   d 8 00 00 19 38 00 00 11 25
 1.120117 1  261             Rx   d 8 01 28 00 18 1E 00 00 00
 1.121116 1  251             Rx   d 8 00 00 00 00 00 00 00 00
 1.123098 1  252             Rx   d 8 00 00 00 01 00 00 00 00
 1.125085 1  253             Rx   d 8 00 00 00 00 00 00 00 00
 1.127100 1  254             Rx   d 8 00 00 00 02 00 00 00 00
 1.129182 1  241             Rx   d 8 AA 00 00 00 00 00 00 DF
 1.131090 1  262             Rx   d 8 01 26 00 18 1E 00 00 00
 1.134088 1  221             Rx   d 8 00 00 00 00 00 00 00 00
 1.134330 1  311             Rx   d 8 00 00 19 38 00 00 11 25
 1.141107 1  251             Rx   d 8 00 00 00 00 00 00 00 00
 1.142144 1  263             Rx   d 8 01 27 00 18 1E 00 00 00
 1.143149 1  252             Rx   d 8 00 00 00 01 00 00 00 00
 1.145138 1  253             Rx   d 8 00 00 00 00 00 00 00 00
 1.147107 1  254             Rx   d 8 00 00 00 02 00 00 00 00
 1.149186 1  241             Rx   d 8 AA 00 00 00 00 00 00 E0
 1.153142 1  264             Rx   d 8 01 26 00 18 1E 00 00 00
 1.154095 1  221             Rx   d 8 00 00 00 00 00 00 00 00
 1.154339 1  311             Rx   d 8 00 00 19 38 00 00 11 25
 1.161168 1  251             Rx   d 8 00 00 00 00 00 00 00 00
 1.163166 1  252             Rx   d 8 00 00 00 01 00 00 00 00
 1.165134 1  253             Rx   d 8 00 00 00 00 00 00 00 00
 1.167167 1  254             Rx   d 8 00 00 00 02 00 00 00 00
 1.169214 1  241             Rx   d 8 AA 00 00 00 00 00 00 E1
 1.174092 1  221             Rx   d 8 00 00 00 00 00 00 00 00
 1.174340 1  311             Rx   d 8 00 00 19 38 00 00 11 25
 1.181195 1  251             Rx   d 8 00 00 00 00 00 00 00 00
 1.183185 1  252             Rx   d 8 00 00 00 01 00 00 00 00
 1.185192 1  253             Rx   d 8 00 00 00 00 00 00 00 00
 1.187193 1  254             Rx   d 8 00 00 00 02 00 00 00 00
 1.189241 1  241             Rx   d 8 AA 00 00 00 00 00 00 E2
 1.194091 1  221             Rx   d 8 00 00 00 00 00 00 00 00
 1.194336 1  311             Rx   d 8 00 00 19 38 00 00 11 25
 1.201188 1  251             Rx   d 8 00 00 00 00 00 00 00 00
 1.203189 1  252             Rx   d 8 00 00 00 01 00 00 00 00
 1.205214 1  253             Rx   d 8 00 00 00 00 00 00 00 00
 1.207217 1  254             Rx   d 8 00 00 00 02 00 00 00 00
 1.209268 1  241             Rx   d 8 AA 00 00 00 00 00 00 E3
 1.214103 1  221             Rx   d 8 00 00 00 00 00 00 00 00
 1.214338 1  311             Rx   d 8 00 00 19 38 00 00 11 25
 1.220217 1  261             Rx   d 8 01 27 00 18 1E 00 00 00
 1.221215 1  251             Rx   d 8 00 00 00 00 00 00 00 00
 1.223212 1  252             Rx   d 8 00 00 00 01 00 00 00 00
 1.225211 1  253             Rx   d 8 00 00 00 00 00 00 00 00
 1.227218 1  254             Rx   d 8 00 00 00 02 00 00 00 00
 1.229265 1  241             Rx   d 8 AA 00 00 00 00 00 00 E4
 1.231257 1  262             Rx   d 8 01 26 00 18 1E 00 00 00
 1.234098 1  221             Rx   d 8 00 00 00 00 00 00 00 00
 1.234306 1  311             Rx   d 8 00 00 19 38 00 00 11 25
 1.239268 1  211             Rx   d 8 00 01 01 1D 00 00 00 00
 1.241243 1  251             Rx   d 8 00 00 00 00 00 00 00 00
 1.242240 1  263             Rx   d 8 01 27 00 18 1E 00 00 00
 1.243242 1  252             Rx   d 8 00 00 00 01 00 00 00 00
 1.245238 1  253             Rx   d 8 00 00 00 00 00 00 00 00
 1.247241 1  254             Rx   d 8 00 00 00 02 00 00 00 00
 1.249341 1  241             Rx   d 8 AA 00 00 00 00 00 00 E5
 1.253245 1  264             Rx   d 8 01 26 00 18 1E 00 00 00
 1.254093 1  221             Rx   d 8 00 00 00 00 00 00 00 00
 1.254336 1  311             Rx   d 8 00 00 19 38 00 00 11 25
 1.259343 1  231             Rx   d 8 00 00 00 02 1A 00 00 00
 1.261266 1  251             Rx   d 8 00 00 00 00 00 00 00 00
 1.263266 1  252             Rx   d 8 00 00 00 01 00 00 00 00
 1.265235 1  253             Rx   d 8 00 00 00 00 00 00 00 00
 1.267269 1  254             Rx   d 8 00 00 00 02 00 00 00 00
 1.269275 1  241             Rx   d 8 AA 00 00 00 00 00 00 E6
 1.274129 1  221             Rx   d 8 00 00 00 00 00 00 00 00
 1.274360 1  311             Rx   d 8 00 00 19 38 00 00 11 25
 1.281281 1  251             Rx   d 8 00 00 00 00 00 00 00 00
 1.283353 1  252             Rx   d 8 00 00 00 01 00 00 00 00
 1.285354 1  253             Rx   d 8 00 00 00 00 00 00 00 00
 1.287354 1  254             Rx   d 8 00 00 00 02 00 00 00 00
 1.289354 1  241             Rx   d 8 AA 00 00 00 00 00 00 E7
 1.294131 1  221             Rx   d 8 00 00 00 00 00 00 00 00
 1.294353 1  311             Rx   d 8 00 00 19 38 00 00 11 25
 1.301339 1  251             Rx   d 8 00 00 00 00 00 00 00 00
 1.303354 1  252             Rx   d 8 00 00 00 01 00 00 00 00
 1.305340 1  253             Rx   d 8 00 00 00 00 00 00 00 00
 1.307354 1  254             Rx   d 8 00 00 00 02 00 00 00 00
 1.309364 1  241             Rx   d 8 AA 00 00 00 00 00 00 E8
 1.314118 1  221             Rx   d 8 00 00 00 00 00 00 00 00
 1.314338 1  311             Rx   d 8 00 00 19 38 00 00 11 25
 1.320310 1  261             Rx   d 8 01 28 00 18 1E 00 00 00
 1.321338 1  251             Rx   d 8 00 00 00 00 00 00 00 00
 1.323341 1  252             Rx   d 8 00 00 00 01 00 00 00 00
 1.325319 1  253             Rx   d 8 00 00 00 00 00 00 00 00
 1.327341 1  254             Rx   d 8 00 00 00 02 00 00 00 00
 1.329361 1  241             Rx   d 8 AA 00 00 00 00 00 00 E9
 1.331351 1  262             Rx   d 8 01 26 00 18 1E 00 00 00
 1.334115 1  221             Rx   d 8 00 00 00 00 00 00 00 00
 1.334337 1  311             Rx   d 8 00 00 19 38 00 00 11 25
 1.341343 1  251             Rx   d 8 00 00 00 00 00 00 00 00
 1.342338 1  263             Rx   d 8 01 27 00 18 1E 00 00 00
 1.343340 1  252             Rx   d 8 00 00 00 01 00 00 00 00
 1.345337 1  253             Rx   d 8 00 00 00 00 00 00 00 00
 1.347337 1  254             Rx   d 8 00 00 00 02 00 00 00 00
 1.349391 1  241             Rx   d 8 AA 00 00 00 00 00 00 EA
 1.353332 1  264             Rx   d 8 01 25 00 18 1E 00 00 00
 1.354109 1  221             Rx   d 8 00 00 00 00 00 00 00 00
 1.354373 1  311             Rx   d 8 00 00 19 38 00 00 11 25
 1.361368 1  251             Rx   d 8 00 00 00 00 00 00 00 00
 1.363366 1  252             Rx   d 8 00 00 00 01 00 00 00 00
 1.365364 1  253             Rx   d 8 00 00 00 00 00 00 00 00
 1.367334 1  254             Rx   d 8 00 00 00 02 00 00 00 00
 1.369409 1  241             Rx   d 8 AA 00 00 00 00 00 00 EB
 1.374120 1  221             Rx   d 8 00 00 00 00 00 00 00 00
 1.374338 1  311             Rx   d 8 00 00 19 38 00 00 11 25
 1.381363 1  251             Rx   d 8 00 00 00 00 00 00 00 00
 1.383384 1  252             Rx   d 8 00 00 00 01 00 00 00 00
 1.385392 1  253             Rx   d 8 00 00 00 00 00 00 00 00
 1.387399 1  254             Rx   d 8 00 00 00 02 00 00 00 00
 1.389425 1  241             Rx   d 8 AA 00 00 00 00 00 00 EC
 1.394114 1  221             Rx   d 8 00 00 00 00 00 00 00 00
 1.394341 1  311             Rx   d 8 00 00 19 38 00 00 11 25
 1.401393 1  251             Rx   d 8 00 00 00 00 00 00 00 00
 1.403414 1  252             Rx   d 8 00 00 00 01 00 00 00 00
 1.405391 1  253             Rx   d 8 00 00 00 00 00 00 00 00
 1.407382 1  254             Rx   d 8 00 00 00 02 00 00 00 00
 1.409414 1  241             Rx   d 8 AA 00 00 00 00 00 00 ED
 1.414097 1  221             Rx   d 8 00 00 00 00 00 00 00 00
 1.414361 1  311             Rx   d 8 00 00 19 38 00 00 11 25
 1.420414 1  261             Rx   d 8 01 27 00 18 1E 00 00 00
 1.421438 1  251             Rx   d 8 00 00 00 00 00 00 00 00
 1.423409 1  252             Rx   d 8 00 00 00 01 00 00 00 00
 1.425431 1  253             Rx   d 8 00 00 00 00 00 00 00 00
 1.427415 1  254             Rx   d 8 00 00 00 02 00 00 00 00
 1.429463 1  241             Rx   d 8 AA 00 00 00 00 00 00 EE
 1.431386 1  262             Rx   d 8 01 26 00 18 1E 00 00 00
 1.434086 1  221             Rx   d 8 00 00 00 00 00 00 00 00
 1.434364 1  311             Rx   d 8 00 00 19 38 00 00 11 25
 1.439415 1  211             Rx   d 8 00 01 01 1D 00 00 00 00
 1.441436 1  251             Rx   d 8 00 00 00 00 00 00 00 00
 1.442438 1  263             Rx   d 8 01 26 00 18 1E 00 00 00
 1.443436 1  252             Rx   d 8 00 00 00 01 00 00 00 00
 1.445442 1  253             Rx   d 8 00 00 00 00 00 00 00 00
 1.447444 1  254             Rx   d 8 00 00 00 02 00 00 00 00
 1.449498 1  241             Rx   d 8 AA 00 00 00 00 00 00 EF
 1.453414 1  264             Rx   d 8 01 25 00 18 1E 00 00 00
 1.454118 1  221             Rx   d 8 00 00 00 00 00 00 00 00
 1.454369 1  311             Rx   d 8 00 00 19 38 00 00 11 25
 1.461468 1  251             Rx   d 8 00 00 00 00 00 00 00 00
 1.463464 1  252             Rx   d 8 00 00 00 01 00 00 00 00
 1.465466 1  253             Rx   d 8 00 00 00 00 00 00 00 00
 1.467500 1  254             Rx   d 8 00 00 00 02 00 00 00 00
 1.469449 1  241             Rx   d 8 AA 00 00 00 00 00 00 F0
 1.474128 1  221             Rx   d 8 00 00 00 00 00 00 00 00
 1.474374 1  311             Rx   d 8 00 00 19 38 00 00 11 25
 1.481434 1  251             Rx   d 8 00 00 00 00 00 00 00 00
 1.483485 1  252             Rx   d 8 00 00 00 01 00 00 00 00
 1.485492 1  253             Rx   d 8 00 00 00 00 00 00 00 00
 1.487484 1  254             Rx   d 8 00 00 00 02 00 00 00 00
 1.489536 1  241             Rx   d 8 AA 00 00 00 00 00 00 F1
 1.494116 1  221             Rx   d 8 00 00 00 00 00 00 00 00
 1.494364 1  311             Rx   d 8 00 00 19 38 00 00 11 25
 1.501493 1  251             Rx   d 8 00 00 00 00 00 00 00 00
 1.503522 1  252             Rx   d 8 00 00 00 01 00 00 00 00
 1.505494 1  253             Rx   d 8 00 00 00 00 00 00 00 00
 1.507520 1  254             Rx   d 8 00 00 00 02 00 00 00 00
 1.509536 1  241             Rx   d 8 AA 00 00 00 00 00 00 F2
 1.514140 1  221             Rx   d 8 00 00 00 00 00 00 00 00
 1.514359 1  311             Rx   d 8 00 00 19 38 00 00 11 25
 1.520511 1  261             Rx   d 8 01 27 00 18 1E 00 00 00
 1.521510 1  251             Rx   d 8 00 00 00 00 00 00 00 00
 1.523483 1  252             Rx   d 8 00 00 00 01 00 00 00 00
 1.525511 1  253             Rx   d 8 00 00 00 00 00 00 00 00
 1.527508 1  254             Rx   d 8 00 00 00 02 00 00 00 00
 1.529559 1  241             Rx   d 8 AA 00 00 00 00 00 00 F3
 1.531510 1  262             Rx   d 8 01 26 00 18 1E 00 00 00
 1.534147 1  221             Rx   d 8 00 00 00 00 00 00 00 00
 1.534364 1  311             Rx   d 8 00 00 19 38 00 00 11 25
 1.541549 1  251             Rx   d 8 00 00 00 00 00 00 00 00
 1.542539 1  263             Rx   d 8 01 26 00 18 1E 00 00 00
 1.543543 1  252             Rx   d 8 00 00 00 01 00 00 00 00
 1.545548 1  253             Rx   d 8 00 00 00 00 00 00 00 00
 1.547542 1  254             Rx   d 8 00 00 00 02 00 00 00 00
 1.549591 1  241             Rx   d 8 AA 00 00 00 00 00 00 F4
 1.553552 1  264             Rx   d 8 01 25 00 18 1E 00 00 00
 1.554143 1  221             Rx   d 8 00 00 00 00 00 00 00 00
 1.554401 1  311             Rx   d 8 00 00 19 38 00 00 11 25
 1.561567 1  251             Rx   d 8 00 00 00 00 00 00 00 00
 1.563570 1  252             Rx   d 8 00 00 00 01 00 00 00 00
 1.565568 1  253             Rx   d 8 00 00 00 00 00 00 00 00
 1.567565 1  254             Rx   d 8 00 00 00 02 00 00 00 00
 1.569585 1  241             Rx   d 8 AA 00 00 00 00 00 00 F5
 1.574147 1  221             Rx   d 8 00 00 00 00 00 00 00 00
 1.574363 1  311             Rx   d 8 00 00 19 38 00 00 11 25
 1.581565 1  251             Rx   d 8 00 00 00 00 00 00 00 00
 1.583592 1  252             Rx   d 8 00 00 00 02 00 00 00 00
 1.585594 1  253             Rx   d 8 00 00 00 00 00 00 00 00
 1.587594 1  254             Rx   d 8 00 00 00 02 00 00 00 00
 1.589640 1  241             Rx   d 8 AA 00 00 00 00 00 00 F6
 1.594146 1  221             Rx   d 8 00 00 00 00 00 00 00 00
 1.594374 1  311             Rx   d 8 00 00 19 38 00 00 11 25
 1.601594 1  251             Rx   d 8 00 00 00 00 00 00 00 00
 1.603594 1  252             Rx   d 8 00 00 00 02 00 00 00 00
 1.605619 1  253             Rx   d 8 00 00 00 00 00 00 00 00
 1.607595 1  254             Rx   d 8 00 00 00 02 00 00 00 00
 1.609639 1  241             Rx   d 8 AA 00 00 00 00 00 00 F7
 1.614152 1  221             Rx   d 8 00 00 00 00 00 00 00 00
 1.614365 1  311             Rx   d 8 00 00 19 38 00 00 11 25
 1.620620 1  261             Rx   d 8 01 28 00 18 1E 00 00 00
 1.621619 1  251             Rx   d 8 00 00 00 00 00 00 00 00
 1.623584 1  252             Rx   d 8 00 00 00 01 00 00 00 00
 1.625638 1  253             Rx   d 8 00 00 00 00 00 00 00 00
 1.627618 1  254             Rx   d 8 00 00 00 02 00 00 00 00
 1.629690 1  241             Rx   d 8 AA 00 00 00 00 00 00 F8
 1.631616 1  262             Rx   d 8 01 26 00 18 1E 00 00 00
 1.634142 1  221             Rx   d 8 00 00 00 00 00 00 00 00
 1.634390 1  311             Rx   d 8 00 00 19 38 00 00 11 25
 1.639695 1  211             Rx   d 8 00 01 01 1D 00 00 00 00
 1.641645 1  251             Rx   d 8 00 00 00 00 00 00 00 00
 1.642646 1  263             Rx   d 8 01 27 00 18 1E 00 00 00
 1.643643 1  252             Rx   d 8 00 00 00 01 00 00 00 00
 1.645647 1  253             Rx   d 8 00 00 00 00 00 00 00 00
 1.647650 1  254             Rx   d 8 00 00 00 02 00 00 00 00
 1.649698 1  241             Rx   d 8 AA 00 00 00 00 00 00 F9
 1.653646 1  264             Rx   d 8 01 25 00 18 1E 00 00 00
 1.654142 1  221             Rx   d 8 00 00 00 00 00 00 00 00
 1.654393 1  311             Rx   d 8 00 00 19 38 00 00 11 25
 1.661670 1  251             Rx   d 8 00 00 00 00 00 00 00 00
 1.663670 1  252             Rx   d 8 00 00 00 01 00 00 00 00
 1.665669 1  253             Rx   d 8 00 00 00 00 00 00 00 00
 1.667665 1  254             Rx   d 8 00 00 00 02 00 00 00 00
 1.669662 1  241             Rx   d 8 AA 00 00 00 00 00 00 FA
 1.674149 1  221             Rx   d 8 00 00 00 00 00 00 00 00
 1.674406 1  311             Rx   d 8 00 00 19 38 00 00 11 25
 1.681670 1  251             Rx   d 8 00 00 00 00 00 00 00 00
 1.683694 1  252             Rx   d 8 00 00 00 01 00 00 00 00
 1.685690 1  253             Rx   d 8 00 00 00 00 00 00 00 00
 1.687695 1  254             Rx   d 8 00 00 00 02 00 00 00 00
 1.689747 1  241             Rx   d 8 AA 00 00 00 00 00 00 FB
 1.694149 1  221             Rx   d 8 00 00 00 00 00 00 00 00
 1.694361 1  311             Rx   d 8 00 00 19 38 00 00 11 25
 1.701700 1  251             Rx   d 8 00 00 00 00 00 00 00 00
 1.703696 1  252             Rx   d 8 00 00 00 01 00 00 00 00
 1.705696 1  253             Rx   d 8 00 00 00 00 00 00 00 00
 1.707721 1  254             Rx   d 8 00 00 00 02 00 00 00 00
 1.709774 1  241             Rx   d 8 AA 00 00 00 00 00 00 FC
 1.714145 1  221             Rx   d 8 00 00 00 00 00 00 00 00
 1.714394 1  311             Rx   d 8 00 00 19 38 00 00 11 25
 1.720719 1  261             Rx   d 8 01 28 00 18 1E 00 00 00
 1.721720 1  251             Rx   d 8 00 00 00 00 00 00 00 00
 1.723685 1  252             Rx   d 8 00 00 00 01 00 00 00 00
 1.725764 1  253             Rx   d 8 00 00 00 00 00 00 00 00
 1.727728 1  254             Rx   d 8 00 00 00 02 00 00 00 00
 1.729774 1  241             Rx   d 8 AA 00 00 00 00 00 00 FD
 1.731721 1  262             Rx   d 8 01 26 00 18 1E 00 00 00
 1.734151 1  221             Rx   d 8 00 00 00 00 00 00 00 00
 1.734403 1  311             Rx   d 8 00 00 19 38 00 00 11 25
 1.741746 1  251             Rx   d 8 00 00 00 00 00 00 00 00
 1.742746 1  263             Rx   d 8 01 27 00 18 1E 00 00 00
 1.743752 1  252             Rx   d 8 00 00 00 01 00 00 00 00
 1.745744 1  253             Rx   d 8 00 00 00 00 00 00 00 00
 1.747761 1  254             Rx   d 8 00 00 00 02 00 00 00 00
 1.749796 1  241             Rx   d 8 AA 00 00 00 00 00 00 FE
 1.753745 1  264             Rx   d 8 01 25 00 18 1E 00 00 00
 1.754147 1  221             Rx   d 8 00 00 00 00 00 00 00 00
 1.754392 1  311             Rx   d 8 00 00 19 38 00 00 11 25
 1.759822 1  231             Rx   d 8 00 00 00 02 2E 00 00 00
 1.761772 1  251             Rx   d 8 00 00 00 00 00 00 00 00
 1.763773 1  252             Rx   d 8 00 00 00 01 00 00 00 00
 1.765767 1  253             Rx   d 8 00 00 00 00 00 00 00 00
 1.767770 1  254             Rx   d 8 00 00 00 03 00 00 00 00
 1.769736 1  241             Rx   d 8 AA 00 00 00 00 00 00 FF
 1.774151 1  221             Rx   d 8 00 00 00 00 00 00 00 00
 1.774395 1  311             Rx   d 8 00 00 19 38 00 00 11 25
 1.781790 1  251             Rx   d 8 00 00 00 00 00 00 00 00
 1.783766 1  252             Rx   d 8 00 00 00 01 00 00 00 00
 1.785768 1  253             Rx   d 8 00 00 00 00 00 00 00 00
 1.787790 1  254             Rx   d 8 00 00 00 03 00 00 00 00
 1.789817 1  241             Rx   d 8 AA 00 00 00 00 00 00 00
 1.794142 1  221             Rx   d 8 00 00 00 00 00 00 00 00
 1.794391 1  311             Rx   d 8 00 00 19 38 00 00 11 25
 1.801807 1  251             Rx   d 8 00 00 00 00 00 00 00 00
 1.803795 1  252             Rx   d 8 00 00 00 01 00 00 00 00
 1.805769 1  253             Rx   d 8 00 00 00 00 00 00 00 00
 1.807824 1  254             Rx   d 8 00 00 00 02 00 00 00 00
 1.809861 1  241             Rx   d 8 AA 00 00 00 00 00 00 01
 1.814112 1  221             Rx   d 8 00 00 00 00 00 00 00 00
 1.814359 1  311             Rx   d 8 00 00 19 38 00 00 11 25
 1.820824 1  261             Rx   d 8 01 28 00 18 1E 00 00 00
 1.821815 1  251             Rx   d 8 00 00 00 00 00 00 00 00
 1.823785 1  252             Rx   d 8 00 00 00 01 00 00 00 00
 1.825893 1  253             Rx   d 8 00 00 00 00 00 00 00 00
 1.827827 1  254             Rx   d 8 00 00 00 02 00 00 00 00
 1.829870 1  241             Rx   d 8 AA 00 00 00 00 00 00 02
 1.831813 1  262             Rx   d 8 01 26 00 18 1E 00 00 00
 1.834138 1  221             Rx   d 8 00 00 00 00 00 00 00 00
 1.834394 1  311             Rx   d 8 00 00 19 38 00 00 11 25
 1.839898 1  211             Rx   d 8 00 01 01 1D 00 00 00 00
 1.841846 1  251             Rx   d 8 00 00 00 00 00 00 00 00
 1.842848 1  263             Rx   d 8 01 27 00 18 1E 00 00 00
 1.843848 1  252             Rx   d 8 00 00 00 01 00 00 00 00
 1.845846 1  253             Rx   d 8 00 00 00 00 00 00 00 00
 1.847812 1  254             Rx   d 8 00 00 00 02 00 00 00 00
 1.849901 1  241             Rx   d 8 AA 00 00 00 00 00 00 03
 1.853848 1  264             Rx   d 8 01 26 00 18 1E 00 00 00
 1.854170 1  221             Rx   d 8 00 00 00 00 00 00 00 00
 1.854421 1  311             Rx   d 8 00 00 19 38 00 00 11 25
 1.861873 1  251             Rx   d 8 00 00 00 00 00 00 00 00
 1.863875 1  252             Rx   d 8 00 00 00 01 00 00 00 00
 1.865872 1  253             Rx   d 8 00 00 00 00 00 00 00 00
 1.867871 1  254             Rx   d 8 00 00 00 02 00 00 00 00
 1.869907 1  241             Rx   d 8 AA 00 00 00 00 00 00 04
 1.874173 1  221             Rx   d 8 00 00 00 00 00 00 00 00
 1.874397 1  311             Rx   d 8 00 00 19 38 00 00 11 25
 1.881871 1  251             Rx   d 8 00 00 00 00 00 00 00 00
 1.883873 1  252             Rx   d 8 00 00 00 01 00 00 00 00
 1.885898 1  253             Rx   d 8 00 00 00 00 00 00 00 00
 1.887898 1  254             Rx   d 8 00 00 00 02 00 00 00 00
 1.889923 1  241             Rx   d 8 AA 00 00 00 00 00 00 05
 1.894169 1  221             Rx   d 8 00 00 00 00 00 00 00 00
 1.894430 1  311             Rx   d 8 00 00 19 38 00 00 11 25
 1.901904 1  251             Rx   d 8 00 00 00 00 00 00 00 00
 1.903921 1  252             Rx   d 8 00 00 00 01 00 00 00 00
 1.905899 1  253             Rx   d 8 00 00 00 00 00 00 00 00
 1.907923 1  254             Rx   d 8 00 00 00 02 00 00 00 00
 1.909985 1  241             Rx   d 8 AA 00 00 00 00 00 00 06
 1.914166 1  221             Rx   d 8 00 00 00 00 00 00 00 00
 1.914390 1  311             Rx   d 8 00 00 19 38 00 00 11 25
 1.920891 1  261             Rx   d 8 01 27 00 18 1E 00 00 00
 1.921913 1  251             Rx   d 8 00 00 00 00 00 00 00 00
 1.923887 1  252             Rx   d 8 00 00 00 01 00 00 00 00
 1.925923 1  253             Rx   d 8 00 00 00 00 00 00 00 00
 1.927921 1  254             Rx   d 8 00 00 00 02 00 00 00 00
 1.929968 1  241             Rx   d 8 AA 00 00 00 00 00 00 07
 1.931922 1  262             Rx   d 8 01 26 00 18 1E 00 00 00
 1.934139 1  221             Rx   d 8 00 00 00 00 00 00 00 00
 1.934425 1  311             Rx   d 8 00 00 19 38 00 00 11 25
 1.941945 1  251             Rx   d 8 00 00 00 00 00 00 00 00
 1.942950 1  263             Rx   d 8 01 27 00 18 1E 00 00 00
 1.943944 1  252             Rx   d 8 00 00 00 01 00 00 00 00
 1.945942 1  253             Rx   d 8 00 00 00 00 00 00 00 00
 1.947950 1  254             Rx   d 8 00 00 00 02 00 00 00 00
 1.949994 1  241             Rx   d 8 AA 00 00 00 00 00 00 08
 1.953950 1  264             Rx   d 8 01 26 00 18 1E 00 00 00
 1.954191 1  221             Rx   d 8 00 00 00 00 00 00 00 00
 1.954449 1  311             Rx   d 8 00 00 19 38 00 00 11 25
 1.961972 1  251             Rx   d 8 00 00 00 00 00 00 00 00
 1.963972 1  252             Rx   d 8 00 00 00 01 00 00 00 00
 1.965939 1  253             Rx   d 8 00 00 00 00 00 00 00 00
 1.967956 1  254             Rx   d 8 00 00 00 02 00 00 00 00
 1.969970 1  241             Rx   d 8 AA 00 00 00 00 00 00 09
 1.974169 1  221             Rx   d 8 00 00 00 00 00 00 00 00
 1.974414 1  311             Rx   d 8 00 00 19 38 00 00 11 25
 1.981971 1  251             Rx   d 8 00 00 00 00 00 00 00 00
 1.983994 1  252             Rx   d 8 00 00 00 01 00 00 00 00
 1.985967 1  253             Rx   d 8 00 00 00 00 00 00 00 00
 1.987989 1  254             Rx   d 8 00 00 00 02 00 00 00 00
 1.990015 1  241             Rx   d 8 AA 00 00 00 00 00 00 0A
 1.994169 1  221             Rx   d 8 00 00 00 00 00 00 00 00
 1.994418 1  311             Rx   d 8 00 00 19 38 00 00 11 25
 2.001997 1  251             Rx   d 8 00 00 00 00 00 00 00 00
 2.003994 1  252             Rx   d 8 00 00 00 01 00 00 00 00
 2.005995 1  253             Rx   d 8 00 00 00 00 00 00 00 00
 2.007995 1  254             Rx   d 8 00 00 00 02 00 00 00 00
 2.010044 1  241             Rx   d 8 AA 00 00 00 00 00 00 0B
 2.014166 1  221             Rx   d 8 00 00 00 00 00 00 00 00
 2.014413 1  311             Rx   d 8 00 00 19 38 00 00 11 25
 2.021018 1  261             Rx   d 8 01 27 00 18 1E 00 00 00
 2.022013 1  251             Rx   d 8 00 00 00 00 00 00 00 00
 2.024020 1  252             Rx   d 8 00 00 00 01 00 00 00 00
 2.026027 1  253             Rx   d 8 00 00 00 00 00 00 00 00
 2.028023 1  254             Rx   d 8 00 00 00 02 00 00 00 00
 2.030095 1  241             Rx   d 8 AA 00 00 00 00 00 00 0C
 2.032019 1  262             Rx   d 8 01 26 00 18 1E 00 00 00
 2.034173 1  221             Rx   d 8 00 00 00 00 00 00 00 00
 2.034415 1  311             Rx   d 8 00 00 19 38 00 00 11 25
 2.040120 1  211             Rx   d 8 00 01 01 1D 00 00 00 00
 2.042049 1  251             Rx   d 8 00 00 00 00 00 00 00 00
 2.043052 1  263             Rx   d 8 01 27 00 18 1E 00 00 00
 2.044044 1  252             Rx   d 8 00 00 00 01 00 00 00 00
 2.046013 1  253             Rx   d 8 00 00 00 00 00 00 00 00
 2.048050 1  254             Rx   d 8 00 00 00 02 00 00 00 00
 2.050107 1  241             Rx   d 8 AA 00 00 00 00 00 00 0D
 2.054050 1  264             Rx   d 8 01 26 00 18 1E 00 00 00
 2.054300 1  221             Rx   d 8 00 00 00 00 00 00 00 00
 2.054551 1  311             Rx   d 8 00 00 19 38 00 00 11 25
 2.062076 1  251             Rx   d 8 00 00 00 00 00 00 00 00
 2.064071 1  252             Rx   d 8 00 00 00 01 00 00 00 00
 2.066078 1  253             Rx   d 8 00 00 00 00 00 00 00 00
 2.068068 1  254             Rx   d 8 00 00 00 02 00 00 00 00
 2.070096 1  241             Rx   d 8 AA 00 00 00 00 00 00 0E
 2.074203 1  221             Rx   d 8 00 00 00 00 00 00 00 00
 2.074433 1  311             Rx   d 8 00 00 19 38 00 00 11 25
 2.082045 1  251             Rx   d 8 00 00 00 00 00 00 00 00
 2.084106 1  252             Rx   d 8 00 00 00 01 00 00 00 00
 2.086071 1  253             Rx   d 8 00 00 00 00 00 00 00 00
 2.088103 1  254             Rx   d 8 00 00 00 02 00 00 00 00
 2.090123 1  241             Rx   d 8 AA 00 00 00 00 00 00 0F
 2.094199 1  221             Rx   d 8 00 00 00 00 00 00 00 00
 2.094423 1  311             Rx   d 8 00 00 19 38 00 00 11 25
 2.102102 1  251             Rx   d 8 00 00 00 00 00 00 00 00
 2.104092 1  252             Rx   d 8 00 00 00 01 00 00 00 00
 2.106099 1  253             Rx   d 8 00 00 00 00 00 00 00 00
 2.108123 1  254             Rx   d 8 00 00 00 02 00 00 00 00
 2.110175 1  241             Rx   d 8 AA 00 00 00 00 00 00 10
 2.114205 1  221             Rx   d 8 00 00 00 00 00 00 00 00
 2.114419 1  311             Rx   d 8 00 00 19 38 00 00 11 25
 2.121130 1  261             Rx   d 8 01 27 00 18 1E 00 00 00
 2.122128 1  251             Rx   d 8 00 00 00 00 00 00 00 00
 2.124089 1  252             Rx   d 8 00 00 00 01 00 00 00 00
 2.126122 1  253             Rx   d 8 00 00 00 00 00 00 00 00
 2.128120 1  254             Rx   d 8 00 00 00 02 00 00 00 00
 2.130197 1  241             Rx   d 8 AA 00 00 00 00 00 00 11
 2.132118 1  262             Rx   d 8 01 26 00 18 1E 00 00 00
 2.134192 1  221             Rx   d 8 00 00 00 00 00 00 00 00
 2.134389 1  311             Rx   d 8 00 00 19 38 00 00 11 25
 2.142154 1  251             Rx   d 8 00 00 00 00 00 00 00 00
 2.143163 1  263             Rx   d 8 01 27 00 18 1E 00 00 00
 2.144151 1  252             Rx   d 8 00 00 00 01 00 00 00 00
 2.146145 1  253             Rx   d 8 00 00 00 00 00 00 00 00
 2.148144 1  254             Rx   d 8 00 00 00 02 00 00 00 00
 2.150195 1  241             Rx   d 8 AA 00 00 00 00 00 00 12
 2.154158 1  264             Rx   d 8 01 25 00 18 1E 00 00 00
 2.154396 1  221             Rx   d 8 00 00 00 00 00 00 00 00
 2.154656 1  311             Rx   d 8 00 00 19 38 00 00 11 25
 2.162174 1  251             Rx   d 8 00 00 00 00 00 00 00 00
 2.164201 1  252             Rx   d 8 00 00 00 01 00 00 00 00
 2.166173 1  253             Rx   d 8 00 00 00 00 00 00 00 00
 2.168180 1  254             Rx   d 8 00 00 00 02 00 00 00 00
 2.170224 1  241             Rx   d 8 AA 00 00 00 00 00 00 13
 2.174167 1  221             Rx   d 8 00 00 00 00 00 00 00 00
 2.174412 1  311             Rx   d 8 00 00 19 38 00 00 11 25
 2.182197 1  251             Rx   d 8 00 00 00 00 00 00 00 00
 2.184167 1  252             Rx   d 8 00 00 00 01 00 00 00 00
 2.186200 1  253             Rx   d 8 00 00 00 00 00 00 00 00
 2.188200 1  254             Rx   d 8 00 00 00 02 00 00 00 00
 2.190233 1  241             Rx   d 8 AA 00 00 00 00 00 00 14
 2.194196 1  221             Rx   d 8 00 00 00 00 00 00 00 00
 2.194449 1  311             Rx   d 8 00 00 19 38 00 00 11 25
 2.202201 1  251             Rx   d 8 00 00 00 00 00 00 00 00
 2.204195 1  252             Rx   d 8 00 00 00 01 00 00 00 00
 2.206201 1  253             Rx   d 8 00 00 00 00 00 00 00 00
 2.208199 1  254             Rx   d 8 00 00 00 02 00 00 00 00
 2.210248 1  241             Rx   d 8 AA 00 00 00 00 00 00 15
 2.214222 1  221             Rx   d 8 00 00 00 00 00 00 00 00
 2.214449 1  311             Rx   d 8 00 00 19 38 00 00 11 25
 2.221234 1  261             Rx   d 8 01 27 00 18 1E 00 00 00
 2.222227 1  251             Rx   d 8 00 00 00 00 00 00 00 00
 2.224231 1  252             Rx   d 8 00 00 00 01 00 00 00 00
 2.226223 1  253             Rx   d 8 00 00 00 00 00 00 00 00
 2.228219 1  254             Rx   d 8 00 00 00 02 00 00 00 00
 2.230266 1  241             Rx   d 8 AA 00 00 00 00 00 00 16
 2.232217 1  262             Rx   d 8 01 26 00 18 1E 00 00 00
 2.234193 1  221             Rx   d 8 00 00 00 00 00 00 00 00
 2.234441 1  311             Rx   d 8 00 00 19 38 00 00 11 25
 2.240272 1  211             Rx   d 8 00 01 01 1D 00 00 00 00
 2.242249 1  251             Rx   d 8 00 00 00 00 00 00 00 00
 2.243221 1  263             Rx   d 8 01 27 00 18 1E 00 00 00
 2.244246 1  252             Rx   d 8 00 00 00 01 00 00 00 00
 2.246245 1  253             Rx   d 8 00 00 00 00 00 00 00 00
 2.248247 1  254             Rx   d 8 00 00 00 02 00 00 00 00
 2.250350 1  241             Rx   d 8 AA 00 00 00 00 00 00 17
 2.254197 1  221             Rx   d 8 00 00 00 00 00 00 00 00
 2.254444 1  311             Rx   d 8 00 00 19 38 00 00 11 25
 2.254693 1  264             Rx   d 8 01 25 00 18 1E 00 00 00
 2.260260 1  231             Rx   d 8 00 00 00 02 42 00 00 00
 2.262269 1  251             Rx   d 8 00 00 00 00 00 00 00 00
 2.264281 1  252             Rx   d 8 00 00 00 01 00 00 00 00
 2.266271 1  253             Rx   d 8 00 00 00 00 00 00 00 00
 2.268275 1  254             Rx   d 8 00 00 00 02 00 00 00 00
 2.270344 1  241             Rx   d 8 AA 00 00 00 00 00 00 18
 2.274168 1  221             Rx   d 8 00 00 00 00 00 00 00 00
 2.274414 1  311             Rx   d 8 00 00 19 38 00 00 11 25
 2.282272 1  251             Rx   d 8 00 00 00 00 00 00 00 00
 2.284348 1  252             Rx   d 8 00 00 00 01 00 00 00 00
 2.286351 1  253             Rx   d 8 00 00 00 00 00 00 00 00
 2.288343 1  254             Rx   d 8 00 00 00 02 00 00 00 00
 2.290314 1  241             Rx   d 8 AA 00 00 00 00 00 00 19
 2.294202 1  221             Rx   d 8 00 00 00 00 00 00 00 00
 2.294450 1  311             Rx   d 8 00 00 19 38 00 00 11 25
 2.302360 1  251             Rx   d 8 00 00 00 00 00 00 00 00
 2.304345 1  252             Rx   d 8 00 00 00 01 00 00 00 00
 2.306345 1  253             Rx   d 8 00 00 00 00 00 00 00 00
 2.308346 1  254             Rx   d 8 00 00 00 02 00 00 00 00
 2.310358 1  241             Rx   d 8 AA 00 00 00 00 00 00 1A
 2.314198 1  221             Rx   d 8 00 00 00 00 00 00 00 00
 2.314446 1  311             Rx   d 8 00 00 19 38 00 00 11 25
 2.321364 1  261             Rx   d 8 01 28 00 18 1E 00 00 00
 2.322350 1  251             Rx   d 8 00 00 00 00 00 00 00 00
 2.324327 1  252             Rx   d 8 00 00 00 01 00 00 00 00
 2.326359 1  253             Rx   d 8 00 00 00 00 00 00 00 00
 2.328349 1  254             Rx   d 8 00 00 00 02 00 00 00 00
 2.330338 1  241             Rx   d 8 AA 00 00 00 00 00 00 1B
 2.332347 1  262             Rx   d 8 01 26 00 18 1E 00 00 00
 2.334189 1  221             Rx   d 8 00 00 00 00 00 00 00 00
 2.334414 1  311             Rx   d 8 00 00 19 38 00 00 11 25
 2.342346 1  251             Rx   d 8 00 00 00 00 00 00 00 00
 2.343314 1  263             Rx   d 8 01 27 00 18 1E 00 00 00
 2.344314 1  252             Rx   d 8 00 00 00 01 00 00 00 00
 2.346313 1  253             Rx   d 8 00 00 00 00 00 00 00 00
 2.348313 1  254             Rx   d 8 00 00 00 02 00 00 00 00
 2.350364 1  241             Rx   d 8 AA 00 00 00 00 00 00 1C
 2.354166 1  221             Rx   d 8 00 00 00 00 00 00 00 00
 2.354414 1  311             Rx   d 8 00 00 19 38 00 00 11 25
 2.354662 1  264             Rx   d 8 01 25 00 18 1E 00 00 00
 2.362345 1  251             Rx   d 8 00 00 00 00 00 00 00 00
 2.364340 1  252             Rx   d 8 00 00 00 01 00 00 00 00
 2.366340 1  253             Rx   d 8 00 00 00 00 00 00 00 00
 2.368340 1  254             Rx   d 8 00 00 00 02 00 00 00 00
 2.370389 1  241             Rx   d 8 AA 00 00 00 00 00 00 1D
 2.374193 1  221             Rx   d 8 00 00 00 00 00 00 00 00
 2.374417 1  311             Rx   d 8 00 00 19 38 00 00 11 25
 2.382339 1  251             Rx   d 8 00 00 00 00 00 00 00 00
 2.384365 1  252             Rx   d 8 00 00 00 01 00 00 00 00
 2.386339 1  253             Rx   d 8 00 00 00 00 00 00 00 00
 2.388364 1  254             Rx   d 8 00 00 00 02 00 00 00 00
 2.390390 1  241             Rx   d 8 AA 00 00 00 00 00 00 1E
 2.394191 1  221             Rx   d 8 00 00 00 00 00 00 00 00
 2.394415 1  311             Rx   d 8 00 00 19 38 00 00 11 25
 2.402364 1  251             Rx   d 8 00 00 00 00 00 00 00 00
 2.404364 1  252             Rx   d 8 00 00 00 01 00 00 00 00
 2.406364 1  253             Rx   d 8 00 00 00 00 00 00 00 00
 2.408369 1  254             Rx   d 8 00 00 00 02 00 00 00 00
 2.410434 1  241             Rx   d 8 AA 00 00 00 00 00 00 1F
 2.414194 1  221             Rx   d 8 00 00 00 00 00 00 00 00
 2.414414 1  311             Rx   d 8 00 00 19 38 00 00 11 25
 2.421389 1  261             Rx   d 8 01 27 00 18 1E 00 00 00
 2.422389 1  251             Rx   d 8 00 00 00 00 00 00 00 00
 2.424390 1  252             Rx   d 8 00 00 00 01 00 00 00 00
 2.426391 1  253             Rx   d 8 00 00 00 00 00 00 00 00
 2.428389 1  254             Rx   d 8 00 00 00 02 00 00 00 00
 2.430443 1  241             Rx   d 8 AA 00 00 00 00 00 00 20
 2.432390 1  262             Rx   d 8 01 26 00 18 1E 00 00 00
 2.434203 1  221             Rx   d 8 00 00 00 00 00 00 00 00
 2.434459 1  311             Rx   d 8 00 00 19 38 00 00 11 25
 2.440495 1  211             Rx   d 8 00 01 01 1D 00 00 00 00
 2.442442 1  251             Rx   d 8 00 00 00 00 00 00 00 00
 2.443417 1  263             Rx   d 8 01 26 00 18 1E 00 00 00
 2.444446 1  252             Rx   d 8 00 00 00 01 00 00 00 00
 2.446442 1  253             Rx   d 8 00 00 00 00 00 00 00 00
 2.448442 1  254             Rx   d 8 00 00 00 02 00 00 00 00
 2.450492 1  241             Rx   d 8 AA 00 00 00 00 00 00 21
 2.454226 1  221             Rx   d 8 00 00 00 00 00 00 00 00
 2.454468 1  311             Rx   d 8 00 00 19 38 00 00 11 25
 2.454693 1  264             Rx   d 8 01 26 00 18 1E 00 00 00
 2.462454 1  251             Rx   d 8 00 00 00 00 00 00 00 00
 2.464471 1  252             Rx   d 8 00 00 00 01 00 00 00 00
 2.466476 1  253             Rx   d 8 00 00 00 00 00 00 00 00
 2.468525 1  254             Rx   d 8 00 00 00 02 00 00 00 00
 2.470523 1  241             Rx   d 8 AA 00 00 00 00 00 00 22
 2.474195 1  221             Rx   d 8 00 00 00 00 00 00 00 00
 2.474440 1  311             Rx   d 8 00 00 19 38 00 00 11 25
 2.482470 1  251             Rx   d 8 00 00 00 00 00 00 00 00
 2.484493 1  252             Rx   d 8 00 00 00 01 00 00 00 00
 2.486467 1  253             Rx   d 8 00 00 00 00 00 00 00 00
 2.488468 1  254             Rx   d 8 00 00 00 02 00 00 00 00
 2.490516 1  241             Rx   d 8 AA 00 00 00 00 00 00 23
 2.494224 1  221             Rx   d 8 00 00 00 00 00 00 00 00
 2.494441 1  311             Rx   d 8 00 00 19 38 00 00 11 25
 2.502496 1  251             Rx   d 8 00 00 00 00 00 00 00 00
 2.504466 1  252             Rx   d 8 00 00 00 01 00 00 00 00
 2.506465 1  253             Rx   d 8 00 00 00 00 00 00 00 00
 2.508497 1  254             Rx   d 8 00 00 00 02 00 00 00 00
 2.510548 1  241             Rx   d 8 AA 00 00 00 00 00 00 24
 2.514193 1  221             Rx   d 8 00 00 00 00 00 00 00 00
 2.514441 1  311             Rx   d 8 00 00 19 38 00 00 11 25
 2.521547 1  261             Rx   d 8 01 28 00 18 1E 00 00 00
 2.522491 1  251             Rx   d 8 00 00 00 00 00 00 00 00
 2.524546 1  252             Rx   d 8 00 00 00 01 00 00 00 00
 2.526491 1  253             Rx   d 8 00 00 00 00 00 00 00 00
 2.528522 1  254             Rx   d 8 00 00 00 02 00 00 00 00
 2.530541 1  241             Rx   d 8 AA 00 00 00 00 00 00 25
 2.532526 1  262             Rx   d 8 01 26 00 18 1E 00 00 00
 2.534192 1  221             Rx   d 8 00 00 00 00 00 00 00 00
 2.534440 1  311             Rx   d 8 00 00 19 38 00 00 11 25
 2.542547 1  251             Rx   d 8 00 00 00 00 00 00 00 00
 2.543492 1  263             Rx   d 8 01 27 00 18 1E 00 00 00
 2.544516 1  252             Rx   d 8 00 00 00 01 00 00 00 00
 2.546518 1  253             Rx   d 8 00 00 00 00 00 00 00 00
 2.548515 1  254             Rx   d 8 00 00 00 02 00 00 00 00
 2.550566 1  241             Rx   d 8 AA 00 00 00 00 00 00 26
 2.554193 1  221             Rx   d 8 00 00 00 00 00 00 00 00
 2.554441 1  311             Rx   d 8 00 00 19 38 00 00 11 25
 2.554689 1  264             Rx   d 8 01 26 00 18 1E 00 00 00
 2.562544 1  251             Rx   d 8 00 00 00 00 00 00 00 00
 2.564516 1  252             Rx   d 8 00 00 00 01 00 00 00 00
 2.566540 1  253             Rx   d 8 00 00 00 00 00 00 00 00
 2.568578 1  254             Rx   d 8 00 00 00 02 00 00 00 00
 2.570590 1  241             Rx   d 8 AA 00 00 00 00 00 00 27
 2.574218 1  221             Rx   d 8 00 00 00 00 00 00 00 00
 2.574441 1  311             Rx   d 8 00 00 19 38 00 00 11 25
 2.582544 1  251             Rx   d 8 00 00 00 00 00 00 00 00
 2.584565 1  252             Rx   d 8 00 00 00 01 00 00 00 00
 2.586540 1  253             Rx   d 8 00 00 00 00 00 00 00 00
 2.588568 1  254             Rx   d 8 00 00 00 02 00 00 00 00
 2.590619 1  241             Rx   d 8 AA 00 00 00 00 00 00 28
 2.594218 1  221             Rx   d 8 00 00 00 00 00 00 00 00
 2.594441 1  311             Rx   d 8 00 00 19 38 00 00 11 25
 2.602604 1  251             Rx   d 8 00 00 00 00 00 00 00 00
 2.604604 1  252             Rx   d 8 00 00 00 01 00 00 00 00
 2.606602 1  253             Rx   d 8 00 00 00 00 00 00 00 00
 2.608602 1  254             Rx   d 8 00 00 00 02 00 00 00 00
 2.610655 1  241             Rx   d 8 AA 00 00 00 00 00 00 29
 2.614253 1  221             Rx   d 8 00 00 00 00 00 00 00 00
 2.614475 1  311             Rx   d 8 00 00 19 38 00 00 11 25
 2.621627 1  261             Rx   d 8 01 27 00 18 1E 00 00 00
 2.622630 1  251             Rx   d 8 00 00 00 00 00 00 00 00
 2.624627 1  252             Rx   d 8 00 00 00 01 00 00 00 00
 2.626627 1  253             Rx   d 8 00 00 00 00 00 00 00 00
 2.628628 1  254             Rx   d 8 00 00 00 02 00 00 00 00
 2.630679 1  241             Rx   d 8 AA 00 00 00 00 00 00 2A
 2.632629 1  262             Rx   d 8 01 26 00 18 1E 00 00 00
 2.634253 1  221             Rx   d 8 00 00 00 00 00 00 00 00
 2.634480 1  311             Rx   d 8 00 00 19 38 00 00 11 25
 2.640683 1  211             Rx   d 8 00 01 01 1D 00 00 00 00
 2.642676 1  251             Rx   d 8 00 00 00 00 00 00 00 00
 2.643636 1  263             Rx   d 8 01 27 00 18 1E 00 00 00
 2.644651 1  252             Rx   d 8 00 00 00 01 00 00 00 00
 2.646646 1  253             Rx   d 8 00 00 00 00 00 00 00 00
 2.648656 1  254             Rx   d 8 00 00 00 02 00 00 00 00
 2.650701 1  241             Rx   d 8 AA 00 00 00 00 00 00 2B
 2.654253 1  221             Rx   d 8 00 00 00 00 00 00 00 00
 2.654502 1  311             Rx   d 8 00 00 19 38 00 00 11 25
 2.654726 1  264             Rx   d 8 01 25 00 18 1E 00 00 00
 2.662657 1  251             Rx   d 8 00 00 00 00 00 00 00 00
 2.664679 1  252             Rx   d 8 00 00 00 01 00 00 00 00
 2.666677 1  253             Rx   d 8 00 00 00 00 00 00 00 00
 2.668648 1  254             Rx   d 8 00 00 00 02 00 00 00 00
 2.670703 1  241             Rx   d 8 AA 00 00 00 00 00 00 2C
 2.674257 1  221             Rx   d 8 00 00 00 00 00 00 00 00
 2.674478 1  311             Rx   d 8 00 00 19 38 00 00 11 25
 2.682678 1  251             Rx   d 8 00 00 00 00 00 00 00 00
 2.684677 1  252             Rx   d 8 00 00 00 01 00 00 00 00
 2.686673 1  253             Rx   d 8 00 00 00 00 00 00 00 00
 2.688700 1  254             Rx   d 8 00 00 00 02 00 00 00 00
 2.690728 1  241             Rx   d 8 AA 00 00 00 00 00 00 2D
 2.694250 1  221             Rx   d 8 00 00 00 00 00 00 00 00
 2.694500 1  311             Rx   d 8 00 00 19 38 00 00 11 25
 2.702703 1  251             Rx   d 8 00 00 00 00 00 00 00 00
 2.704704 1  252             Rx   d 8 00 00 00 01 00 00 00 00
 2.706703 1  253             Rx   d 8 00 00 00 00 00 00 00 00
 2.708704 1  254             Rx   d 8 00 00 00 02 00 00 00 00
 2.710780 1  241             Rx   d 8 AA 00 00 00 00 00 00 2E
 2.714254 1  221             Rx   d 8 00 00 00 00 00 00 00 00
 2.714504 1  311             Rx   d 8 00 00 19 38 00 00 11 25
 2.721728 1  261             Rx   d 8 01 27 00 18 1E 00 00 00
 2.722703 1  251             Rx   d 8 00 00 00 00 00 00 00 00
 2.724725 1  252             Rx   d 8 00 00 00 01 00 00 00 00
 2.726724 1  253             Rx   d 8 00 00 00 00 00 00 00 00
 2.728729 1  254             Rx   d 8 00 00 00 02 00 00 00 00
 2.730778 1  241             Rx   d 8 AA 00 00 00 00 00 00 2F
 2.732728 1  262             Rx   d 8 01 26 00 18 1E 00 00 00
 2.734253 1  221             Rx   d 8 00 00 00 00 00 00 00 00
 2.734479 1  311             Rx   d 8 00 00 19 38 00 00 11 25
 2.742757 1  251             Rx   d 8 00 00 00 00 00 00 00 00
 2.743758 1  263             Rx   d 8 01 26 00 18 1E 00 00 00
 2.744753 1  252             Rx   d 8 00 00 00 01 00 00 00 00
 2.746759 1  253             Rx   d 8 00 00 00 00 00 00 00 00
 2.748759 1  254             Rx   d 8 00 00 00 02 00 00 00 00
 2.750812 1  241             Rx   d 8 AA 00 00 00 00 00 00 30
 2.754252 1  221             Rx   d 8 00 00 00 00 00 00 00 00
 2.754503 1  311             Rx   d 8 00 00 19 38 00 00 11 25
 2.754765 1  264             Rx   d 8 01 25 00 18 1E 00 00 00
 2.760811 1  231             Rx   d 8 00 00 00 02 56 00 00 00
 2.762754 1  251             Rx   d 8 00 00 00 00 00 00 00 00
 2.764759 1  252             Rx   d 8 00 00 00 01 00 00 00 00
 2.766778 1  253             Rx   d 8 00 00 00 00 00 00 00 00
 2.768791 1  254             Rx   d 8 00 00 00 02 00 00 00 00
 2.770830 1  241             Rx   d 8 AA 00 00 00 00 00 00 31
 2.774255 1  221             Rx   d 8 00 00 00 00 00 00 00 00
 2.774504 1  311             Rx   d 8 00 00 19 38 00 00 11 25
 2.782776 1  251             Rx   d 8 00 00 00 00 00 00 00 00
 2.784776 1  252             Rx   d 8 00 00 00 01 00 00 00 00
 2.786798 1  253             Rx   d 8 00 00 00 00 00 00 00 00
 2.788800 1  254             Rx   d 8 00 00 00 02 00 00 00 00
 2.790856 1  241             Rx   d 8 AA 00 00 00 00 00 00 32
 2.794251 1  221             Rx   d 8 00 00 00 00 00 00 00 00
 2.794505 1  311             Rx   d 8 00 00 19 38 00 00 11 25
 2.802806 1  251             Rx   d 8 00 00 00 00 00 00 00 00
 2.804801 1  252             Rx   d 8 00 00 00 01 00 00 00 00
 2.806802 1  253             Rx   d 8 00 00 00 00 00 00 00 00
 2.808800 1  254             Rx   d 8 00 00 00 02 00 00 00 00
 2.810893 1  241             Rx   d 8 AA 00 00 00 00 00 00 33
 2.814257 1  221             Rx   d 8 00 00 00 00 00 00 00 00
 2.814504 1  311             Rx   d 8 00 00 19 38 00 00 11 25
 2.821830 1  261             Rx   d 8 01 27 00 18 1E 00 00 00
 2.822795 1  251             Rx   d 8 00 00 00 00 00 00 00 00
 2.824829 1  252             Rx   d 8 00 00 00 01 00 00 00 00
 2.826797 1  253             Rx   d 8 00 00 00 00 00 00 00 00
 2.828832 1  254             Rx   d 8 00 00 00 02 00 00 00 00
 2.830882 1  241             Rx   d 8 AA 00 00 00 00 00 00 34
 2.832832 1  262             Rx   d 8 01 26 00 18 1E 00 00 00
 2.834252 1  221             Rx   d 8 00 00 00 00 00 00 00 00
 2.834502 1  311             Rx   d 8 00 00 19 38 00 00 11 25
 2.840891 1  211             Rx   d 8 00 01 01 1D 00 00 00 00
 2.842854 1  251             Rx   d 8 00 00 00 00 00 00 00 00
 2.843823 1  263             Rx   d 8 01 27 00 18 1E 00 00 00
 2.844846 1  252             Rx   d 8 00 00 00 01 00 00 00 00
 2.846847 1  253             Rx   d 8 00 00 00 00 00 00 00 00
 2.848850 1  254             Rx   d 8 00 00 00 02 00 00 00 00
 2.850876 1  241             Rx   d 8 AA 00 00 00 00 00 00 35
 2.854275 1  221             Rx   d 8 00 00 00 00 00 00 00 00
 2.854492 1  311             Rx   d 8 00 00 19 38 00 00 11 25
 2.854842 1  264             Rx   d 8 01 25 00 18 1E 00 00 00
 2.862854 1  251             Rx   d 8 00 00 00 00 00 00 00 00
 2.864876 1  252             Rx   d 8 00 00 00 01 00 00 00 00
 2.866882 1  253             Rx   d 8 00 00 00 00 00 00 00 00
 2.868879 1  254             Rx   d 8 00 00 00 02 00 00 00 00
 2.870896 1  241             Rx   d 8 AA 00 00 00 00 00 00 36
 2.874290 1  221             Rx   d 8 00 00 00 00 00 00 00 00
 2.874510 1  311             Rx   d 8 00 00 19 38 00 00 11 25
 2.882854 1  251             Rx   d 8 00 00 00 00 00 00 00 00
 2.884845 1  252             Rx   d 8 00 00 00 01 00 00 00 00
 2.886868 1  253             Rx   d 8 00 00 00 00 00 00 00 00
 2.888902 1  254             Rx   d 8 00 00 00 02 00 00 00 00
 2.890926 1  241             Rx   d 8 AA 00 00 00 00 00 00 37
 2.894278 1  221             Rx   d 8 00 00 00 00 00 00 00 00
 2.894504 1  311             Rx   d 8 00 00 19 38 00 00 11 25
 2.902903 1  251             Rx   d 8 00 00 00 00 00 00 00 00
 2.904907 1  252             Rx   d 8 00 00 00 01 00 00 00 00
 2.906915 1  253             Rx   d 8 00 00 00 00 00 00 00 00
 2.908909 1  254             Rx   d 8 00 00 00 02 00 00 00 00
 2.910933 1  241             Rx   d 8 AA 00 00 00 00 00 00 38
 2.914249 1  221             Rx   d 8 00 00 00 00 00 00 00 00
 2.914469 1  311             Rx   d 8 00 00 19 38 00 00 11 25
 2.921870 1  261             Rx   d 8 01 27 00 18 1E 00 00 00
 2.922895 1  251             Rx   d 8 00 00 00 00 00 00 00 00
 2.924897 1  252             Rx   d 8 00 00 00 01 00 00 00 00
 2.926897 1  253             Rx   d 8 00 00 00 00 00 00 00 00
 2.928896 1  254             Rx   d 8 00 00 00 02 00 00 00 00
 2.930895 1  241             Rx   d 8 AA 00 00 00 00 00 00 39
 2.932895 1  262             Rx   d 8 01 25 00 18 1E 00 00 00
 2.934246 1  221             Rx   d 8 00 00 00 00 00 00 00 00
 2.934471 1  311             Rx   d 8 00 00 19 38 00 00 11 25
 2.942898 1  251             Rx   d 8 00 00 00 00 00 00 00 00
 2.943919 1  263             Rx   d 8 01 27 00 18 1E 00 00 00
 2.944921 1  252             Rx   d 8 00 00 00 01 00 00 00 00
 2.946922 1  253             Rx   d 8 00 00 00 00 00 00 00 00
 2.948920 1  254             Rx   d 8 00 00 00 02 00 00 00 00
 2.950951 1  241             Rx   d 8 AA 00 00 00 00 00 00 3A
 2.954245 1  221             Rx   d 8 00 00 00 00 00 00 00 00
 2.954470 1  311             Rx   d 8 00 00 19 38 00 00 11 25
 2.954919 1  264             Rx   d 8 01 25 00 18 1E 00 00 00
 2.962922 1  251             Rx   d 8 00 00 00 00 00 00 00 00
 2.964921 1  252             Rx   d 8 00 00 00 01 00 00 00 00
 2.966946 1  253             Rx   d 8 00 00 00 00 00 00 00 00
 2.968946 1  254             Rx   d 8 00 00 00 02 00 00 00 00
 2.970946 1  241             Rx   d 8 AA 00 00 00 00 00 00 3B
 2.974246 1  221             Rx   d 8 00 00 00 00 00 00 00 00
 2.974495 1  311             Rx   d 8 00 00 19 38 00 00 11 25
 2.982957 1  251             Rx   d 8 00 00 00 00 00 00 00 00
 2.984960 1  252             Rx   d 8 00 00 00 01 00 00 00 00
 2.986947 1  253             Rx   d 8 00 00 00 00 00 00 00 00
 2.988971 1  254             Rx   d 8 00 00 00 02 00 00 00 00
 2.991042 1  241             Rx   d 8 AA 00 00 00 00 00 00 3C
 2.994246 1  221             Rx   d 8 00 00 00 00 00 00 00 00
 2.994495 1  311             Rx   d 8 00 00 19 38 00 00 11 25
 3.003003 1  251             Rx   d 8 00 00 00 00 00 00 00 00
 3.004970 1  252             Rx   d 8 00 00 00 01 00 00 00 00
 3.006972 1  253             Rx   d 8 00 00 00 00 00 00 00 00
 3.008971 1  254             Rx   d 8 00 00 00 02 00 00 00 00
 3.011045 1  241             Rx   d 8 AA 00 00 00 00 00 00 3D
 3.014247 1  221             Rx   d 8 00 00 00 00 00 00 00 00
 3.014494 1  311             Rx   d 8 00 00 19 38 00 00 11 25
 3.021973 1  261             Rx   d 8 01 27 00 18 1E 00 00 00
 3.022995 1  251             Rx   d 8 00 00 00 00 00 00 00 00
 3.025031 1  252             Rx   d 8 00 00 00 01 00 00 00 00
 3.027029 1  253             Rx   d 8 00 00 00 00 00 00 00 00
 3.029006 1  254             Rx   d 8 00 00 00 02 00 00 00 00
 3.031084 1  241             Rx   d 8 AA 00 00 00 00 00 00 3E
 3.033024 1  262             Rx   d 8 01 26 00 18 1E 00 00 00
 3.034277 1  221             Rx   d 8 00 00 00 00 00 00 00 00
 3.034491 1  311             Rx   d 8 00 00 19 38 00 00 11 25
 3.041084 1  211             Rx   d 8 00 01 01 1D 00 00 00 00
 3.043054 1  251             Rx   d 8 00 00 00 00 00 00 00 00
 3.044029 1  263             Rx   d 8 01 27 00 18 1E 00 00 00
 3.045053 1  252             Rx   d 8 00 00 00 01 00 00 00 00
 3.047059 1  253             Rx   d 8 00 00 00 00 00 00 00 00
 3.049052 1  254             Rx   d 8 00 00 00 02 00 00 00 00
 3.051052 1  241             Rx   d 8 AA 00 00 00 00 00 00 3F
 3.054283 1  221             Rx   d 8 00 00 00 00 00 00 00 00
 3.054538 1  311             Rx   d 8 00 00 19 38 00 00 11 25
 3.055036 1  264             Rx   d 8 01 25 00 18 1E 00 00 00
 3.063058 1  251             Rx   d 8 00 00 00 00 00 00 00 00
 3.065083 1  252             Rx   d 8 00 00 00 01 00 00 00 00
 3.067087 1  253             Rx   d 8 00 00 00 00 00 00 00 00
 3.069082 1  254             Rx   d 8 00 00 00 02 00 00 00 00
 3.071089 1  241             Rx   d 8 AA 00 00 00 00 00 00 40
 3.074283 1  221             Rx   d 8 00 00 00 00 00 00 00 00
 3.074539 1  311             Rx   d 8 00 00 19 38 00 00 11 25
 3.083085 1  251             Rx   d 8 00 00 00 00 00 00 00 00
 3.085085 1  252             Rx   d 8 00 00 00 01 00 00 00 00
 3.087085 1  253             Rx   d 8 00 00 00 00 00 00 00 00
 3.089080 1  254             Rx   d 8 00 00 00 02 00 00 00 00
 3.091103 1  241             Rx   d 8 AA 00 00 00 00 00 00 41
 3.094306 1  221             Rx   d 8 00 00 00 00 00 00 00 00
 3.094528 1  311             Rx   d 8 00 00 19 38 00 00 11 25
 3.103094 1  251             Rx   d 8 00 00 00 00 00 00 00 00
 3.105072 1  252             Rx   d 8 00 00 00 01 00 00 00 00
 3.107095 1  253             Rx   d 8 00 00 00 00 00 00 00 00
 3.109106 1  254             Rx   d 8 00 00 00 02 00 00 00 00
 3.111185 1  241             Rx   d 8 AA 00 00 00 00 00 00 42
 3.114353 1  221             Rx   d 8 00 00 00 00 00 00 00 00
 3.114513 1  311             Rx   d 8 00 00 19 38 00 00 11 25
 3.122106 1  261             Rx   d 8 01 27 00 18 1E 00 00 00
 3.123098 1  251             Rx   d 8 00 00 00 00 00 00 00 00
 3.125133 1  252             Rx   d 8 00 00 00 01 00 00 00 00
 3.127100 1  253             Rx   d 8 00 00 00 00 00 00 00 00
 3.129135 1  254             Rx   d 8 00 00 00 02 00 00 00 00
 3.131183 1  241             Rx   d 8 AA 00 00 00 00 00 00 43
 3.133136 1  262             Rx   d 8 01 26 00 18 1E 00 00 00
 3.134285 1  221             Rx   d 8 00 00 00 00 00 00 00 00
 3.134538 1  311             Rx   d 8 00 00 19 38 00 00 11 25
 3.143234 1  251             Rx   d 8 00 00 00 00 00 00 00 00
 3.144134 1  263             Rx   d 8 01 27 00 18 1E 00 00 00
 3.145125 1  252             Rx   d 8 00 00 00 01 00 00 00 00
 3.147125 1  253             Rx   d 8 00 00 00 00 00 00 00 00
 3.149150 1  254             Rx   d 8 00 00 00 02 00 00 00 00
 3.151201 1  241             Rx   d 8 AA 00 00 00 00 00 00 44
 3.154359 1  221             Rx   d 8 00 00 00 00 00 00 00 00
 3.154526 1  311             Rx   d 8 00 00 19 38 00 00 11 25
 3.155143 1  264             Rx   d 8 01 26 00 18 1E 00 00 00
 3.163161 1  251             Rx   d 8 00 00 00 00 00 00 00 00
 3.165161 1  252             Rx   d 8 00 00 00 01 00 00 00 00
 3.167183 1  253             Rx   d 8 00 00 00 00 00 00 00 00
 3.169181 1  254             Rx   d 8 00 00 00 02 00 00 00 00
 3.171221 1  241             Rx   d 8 AA 00 00 00 00 00 00 45
 3.174351 1  221             Rx   d 8 00 00 00 00 00 00 00 00
 3.174528 1  311             Rx   d 8 00 00 19 38 00 00 11 25
 3.183186 1  251             Rx   d 8 00 00 00 00 00 00 00 00
 3.185181 1  252             Rx   d 8 00 00 00 01 00 00 00 00
 3.187180 1  253             Rx   d 8 00 00 00 00 00 00 00 00
 3.189182 1  254             Rx   d 8 00 00 00 02 00 00 00 00
 3.191261 1  241             Rx   d 8 AA 00 00 00 00 00 00 46
 3.194308 1  221             Rx   d 8 00 00 00 00 00 00 00 00
 3.194559 1  311             Rx   d 8 00 00 19 38 00 00 11 25
 3.203209 1  251             Rx   d 8 00 00 00 00 00 00 00 00
 3.205212 1  252             Rx   d 8 00 00 00 01 00 00 00 00
 3.207207 1  253             Rx   d 8 00 00 00 00 00 00 00 00
 3.209216 1  254             Rx   d 8 00 00 00 02 00 00 00 00
 3.211261 1  241             Rx   d 8 AA 00 00 00 00 00 00 47
 3.214358 1  221             Rx   d 8 00 00 00 00 00 00 00 00
 3.214532 1  311             Rx   d 8 00 00 19 38 00 00 11 25
 3.222209 1  261             Rx   d 8 01 27 00 18 1E 00 00 00
 3.223235 1  251             Rx   d 8 00 00 00 00 00 00 00 00
 3.225241 1  252             Rx   d 8 00 00 00 01 00 00 00 00
 3.227240 1  253             Rx   d 8 00 00 00 00 00 00 00 00
 3.229234 1  254             Rx   d 8 00 00 00 02 00 00 00 00
 3.231286 1  241             Rx   d 8 AA 00 00 00 00 00 00 48
 3.233232 1  262             Rx   d 8 01 26 00 18 1E 00 00 00
 3.234358 1  221             Rx   d 8 00 00 00 00 00 00 00 00
 3.234554 1  311             Rx   d 8 00 00 19 38 00 00 11 25
 3.241351 1  211             Rx   d 8 00 01 01 1D 00 00 00 00
 3.243233 1  251             Rx   d 8 00 00 00 00 00 00 00 00
 3.244231 1  263             Rx   d 8 01 27 00 18 1E 00 00 00
 3.245257 1  252             Rx   d 8 00 00 00 01 00 00 00 00
 3.247242 1  253             Rx   d 8 00 00 00 00 00 00 00 00
 3.249256 1  254             Rx   d 8 00 00 00 02 00 00 00 00
 3.251256 1  241             Rx   d 8 AA 00 00 00 00 00 00 49
 3.254359 1  221             Rx   d 8 00 00 00 00 00 00 00 00
 3.254559 1  311             Rx   d 8 00 00 19 38 00 00 11 25
 3.255255 1  264             Rx   d 8 01 25 00 18 1E 00 00 00
 3.261362 1  231             Rx   d 8 00 00 00 02 5F 00 00 00
 3.263259 1  251             Rx   d 8 00 00 00 00 00 00 00 00
 3.265234 1  252             Rx   d 8 00 00 00 01 00 00 00 00
 3.267264 1  253             Rx   d 8 00 00 00 00 00 00 00 00
 3.269287 1  254             Rx   d 8 00 00 00 02 00 00 00 00
 3.271359 1  241             Rx   d 8 AA 00 00 00 00 00 00 4A
 3.274359 1  221             Rx   d 8 00 00 00 00 00 00 00 00
 3.274557 1  311             Rx   d 8 00 00 19 38 00 00 11 25
 3.283286 1  251             Rx   d 8 00 00 00 00 00 00 00 00
 3.285283 1  252             Rx   d 8 00 00 00 02 00 00 00 00
 3.287355 1  253             Rx   d 8 00 00 00 00 00 00 00 00
 3.289355 1  254             Rx   d 8 00 00 00 02 00 00 00 00
 3.291353 1  241             Rx   d 8 AA 00 00 00 00 00 00 4B
 3.294369 1  221             Rx   d 8 00 00 00 00 00 00 00 00
 3.294554 1  311             Rx   d 8 00 00 19 38 00 00 11 25
 3.303360 1  251             Rx   d 8 00 00 00 00 00 00 00 00
 3.305360 1  252             Rx   d 8 00 00 00 02 00 00 00 00
 3.307355 1  253             Rx   d 8 00 00 00 00 00 00 00 00
 3.309362 1  254             Rx   d 8 00 00 00 02 00 00 00 00
 3.311385 1  241             Rx   d 8 AA 00 00 00 00 00 00 4C
 3.314358 1  221             Rx   d 8 00 00 00 00 00 00 00 00
 3.314556 1  311             Rx   d 8 00 00 19 38 00 00 11 25
 3.322359 1  261             Rx   d 8 01 28 00 18 1E 00 00 00
 3.323360 1  251             Rx   d 8 00 00 00 00 00 00 00 00
 3.325363 1  252             Rx   d 8 00 00 00 01 00 00 00 00
 3.327354 1  253             Rx   d 8 00 00 00 00 00 00 00 00
 3.329362 1  254             Rx   d 8 00 00 00 02 00 00 00 00
 3.331384 1  241             Rx   d 8 AA 00 00 00 00 00 00 4D
 3.333359 1  262             Rx   d 8 01 26 00 18 1E 00 00 00
 3.334360 1  221             Rx   d 8 00 00 00 00 00 00 00 00
 3.334559 1  311             Rx   d 8 00 00 19 38 00 00 11 25
 3.343372 1  251             Rx   d 8 00 00 00 00 00 00 00 00
 3.344355 1  263             Rx   d 8 01 27 00 18 1E 00 00 00
 3.345345 1  252             Rx   d 8 00 00 00 01 00 00 00 00
 3.347356 1  253             Rx   d 8 00 00 00 00 00 00 00 00
 3.349355 1  254             Rx   d 8 00 00 00 02 00 00 00 00
 3.351366 1  241             Rx   d 8 AA 00 00 00 00 00 00 4E
 3.354355 1  221             Rx   d 8 00 00 00 00 00 00 00 00
 3.354555 1  311             Rx   d 8 00 00 19 38 00 00 11 25
 3.355357 1  264             Rx   d 8 01 25 00 18 1E 00 00 00
 3.363362 1  251             Rx   d 8 00 00 00 00 00 00 00 00
 3.365384 1  252             Rx   d 8 00 00 00 01 00 00 00 00
 3.367385 1  253             Rx   d 8 00 00 00 00 00 00 00 00
 3.369383 1  254             Rx   d 8 00 00 00 02 00 00 00 00
 3.371410 1  241             Rx   d 8 AA 00 00 00 00 00 00 4F
 3.374359 1  221             Rx   d 8 00 00 00 00 00 00 00 00
 3.374558 1  311             Rx   d 8 00 00 19 38 00 00 11 25
 3.383388 1  251             Rx   d 8 00 00 00 00 00 00 00 00
 3.385383 1  252             Rx   d 8 00 00 00 01 00 00 00 00
 3.387395 1  253             Rx   d 8 00 00 00 00 00 00 00 00
 3.389385 1  254             Rx   d 8 00 00 00 02 00 00 00 00
 3.391462 1  241             Rx   d 8 AA 00 00 00 00 00 00 50
 3.394359 1  221             Rx   d 8 00 00 00 00 00 00 00 00
 3.394559 1  311             Rx   d 8 00 00 19 38 00 00 11 25
 3.403411 1  251             Rx   d 8 00 00 00 00 00 00 00 00
 3.405410 1  252             Rx   d 8 00 00 00 01 00 00 00 00
 3.407376 1  253             Rx   d 8 00 00 00 00 00 00 00 00
 3.409376 1  254             Rx   d 8 00 00 00 02 00 00 00 00
 3.411480 1  241             Rx   d 8 AA 00 00 00 00 00 00 51
 3.414333 1  221             Rx   d 8 00 00 00 00 00 00 00 00
 3.414521 1  311             Rx   d 8 00 00 19 38 00 00 11 25
 3.422427 1  261             Rx   d 8 01 28 00 18 1E 00 00 00
 3.423427 1  251             Rx   d 8 00 00 00 00 00 00 00 00
 3.425426 1  252             Rx   d 8 00 00 00 01 00 00 00 00
 3.427427 1  253             Rx   d 8 00 00 00 00 00 00 00 00
 3.429432 1  254             Rx   d 8 00 00 00 02 00 00 00 00
 3.431450 1  241             Rx   d 8 AA 00 00 00 00 00 00 52
 3.433400 1  262             Rx   d 8 01 26 00 18 1E 00 00 00
 3.434329 1  221             Rx   d 8 00 00 00 00 00 00 00 00
 3.434533 1  311             Rx   d 8 00 00 19 38 00 00 11 25
 3.441454 1  211             Rx   d 8 00 01 01 1D 00 00 00 00
 3.443425 1  251             Rx   d 8 00 00 00 00 00 00 00 00
 3.444434 1  263             Rx   d 8 01 26 00 18 1E 00 00 00
 3.445425 1  252             Rx   d 8 00 00 00 01 00 00 00 00
 3.447458 1  253             Rx   d 8 00 00 00 00 00 00 00 00
 3.449457 1  254             Rx   d 8 00 00 00 02 00 00 00 00
 3.451427 1  241             Rx   d 8 AA 00 00 00 00 00 00 53
 3.454358 1  221             Rx   d 8 00 00 00 00 00 00 00 00
 3.454579 1  311             Rx   d 8 00 00 19 38 00 00 11 25
 3.455452 1  264             Rx   d 8 01 25 00 18 1E 00 00 00
 3.463458 1  251             Rx   d 8 00 00 00 00 00 00 00 00
 3.465462 1  252             Rx   d 8 00 00 00 01 00 00 00 00
 3.467486 1  253             Rx   d 8 00 00 00 00 00 00 00 00
 3.469480 1  254             Rx   d 8 00 00 00 02 00 00 00 00
 3.471529 1  241             Rx   d 8 AA 00 00 00 00 00 00 54
 3.474356 1  221             Rx   d 8 00 00 00 00 00 00 00 00
 3.474578 1  311             Rx   d 8 00 00 19 38 00 00 11 25
 3.483499 1  251             Rx   d 8 00 00 00 00 00 00 00 00
 3.485480 1  252             Rx   d 8 00 00 00 01 00 00 00 00
 3.487461 1  253             Rx   d 8 00 00 00 00 00 00 00 00
 3.489480 1  254             Rx   d 8 00 00 00 02 00 00 00 00
 3.491527 1  241             Rx   d 8 AA 00 00 00 00 00 00 55
 3.494354 1  221             Rx   d 8 00 00 00 00 00 00 00 00
 3.494581 1  311             Rx   d 8 00 00 19 38 00 00 11 25
 3.503509 1  251             Rx   d 8 00 00 00 00 00 00 00 00
 3.505508 1  252             Rx   d 8 00 00 00 01 00 00 00 00
 3.507508 1  253             Rx   d 8 00 00 00 00 00 00 00 00
 3.509507 1  254             Rx   d 8 00 00 00 02 00 00 00 00
 3.511560 1  241             Rx   d 8 AA 00 00 00 00 00 00 56
 3.514356 1  221             Rx   d 8 00 00 00 00 00 00 00 00
 3.514579 1  311             Rx   d 8 00 00 19 38 00 00 11 25
 3.522541 1  261             Rx   d 8 01 28 00 18 1E 00 00 00
 3.523512 1  251             Rx   d 8 00 00 00 00 00 00 00 00
 3.525537 1  252             Rx   d 8 00 00 00 01 00 00 00 00
 3.527540 1  253             Rx   d 8 00 00 00 00 00 00 00 00
 3.529520 1  254             Rx   d 8 00 00 00 02 00 00 00 00
 3.531586 1  241             Rx   d 8 AA 00 00 00 00 00 00 57
 3.533534 1  262             Rx   d 8 01 26 00 18 1E 00 00 00
 3.534352 1  221             Rx   d 8 00 00 00 00 00 00 00 00
 3.534575 1  311             Rx   d 8 00 00 19 38 00 00 11 25
 3.543540 1  251             Rx   d 8 00 00 00 00 00 00 00 00
 3.544538 1  263             Rx   d 8 01 27 00 18 1E 00 00 00
 3.545562 1  252             Rx   d 8 00 00 00 01 00 00 00 00
 3.547559 1  253             Rx   d 8 00 00 00 00 00 00 00 00
 3.549560 1  254             Rx   d 8 00 00 00 02 00 00 00 00
 3.551586 1  241             Rx   d 8 AA 00 00 00 00 00 00 58
 3.554361 1  221             Rx   d 8 00 00 00 00 00 00 00 00
 3.554584 1  311             Rx   d 8 00 00 19 38 00 00 11 25
 3.555561 1  264             Rx   d 8 01 25 00 18 1E 00 00 00
 3.563557 1  251             Rx   d 8 00 00 00 00 00 00 00 00
 3.565586 1  252             Rx   d 8 00 00 00 01 00 00 00 00
 3.567587 1  253             Rx   d 8 00 00 00 00 00 00 00 00
 3.569561 1  254             Rx   d 8 00 00 00 02 00 00 00 00
 3.571644 1  241             Rx   d 8 AA 00 00 00 00 00 00 59
 3.574362 1  221             Rx   d 8 00 00 00 00 00 00 00 00
 3.574566 1  311             Rx   d 8 00 00 19 38 00 00 11 25
 3.583589 1  251             Rx   d 8 00 00 00 00 00 00 00 00
 3.585589 1  252             Rx   d 8 00 00 00 01 00 00 00 00
 3.587597 1  253             Rx   d 8 00 00 00 00 00 00 00 00
 3.589582 1  254             Rx   d 8 00 00 00 02 00 00 00 00
 3.591635 1  241             Rx   d 8 AA 00 00 00 00 00 00 5A
 3.594356 1  221             Rx   d 8 00 00 00 00 00 00 00 00
 3.594581 1  311             Rx   d 8 00 00 19 38 00 00 11 25
 3.603611 1  251             Rx   d 8 00 00 00 00 00 00 00 00
 3.605610 1  252             Rx   d 8 00 00 00 01 00 00 00 00
 3.607615 1  253             Rx   d 8 00 00 00 00 00 00 00 00
 3.609608 1  254             Rx   d 8 00 00 00 02 00 00 00 00
 3.611658 1  241             Rx   d 8 AA 00 00 00 00 00 00 5B
 3.614361 1  221             Rx   d 8 00 00 00 00 00 00 00 00
 3.614591 1  311             Rx   d 8 00 00 19 38 00 00 11 25
 3.622615 1  261             Rx   d 8 01 27 00 18 1E 00 00 00
 3.623635 1  251             Rx   d 8 00 00 00 00 00 00 00 00
 3.625643 1  252             Rx   d 8 00 00 00 01 00 00 00 00
 3.627638 1  253             Rx   d 8 00 00 00 00 00 00 00 00
 3.629637 1  254             Rx   d 8 00 00 00 02 00 00 00 00
 3.631687 1  241             Rx   d 8 AA 00 00 00 00 00 00 5C
 3.633637 1  262             Rx   d 8 01 26 00 18 1E 00 00 00
 3.634362 1  221             Rx   d 8 00 00 00 00 00 00 00 00
 3.634584 1  311             Rx   d 8 00 00 19 38 00 00 11 25
 3.641753 1  211             Rx   d 8 00 01 01 1D 00 00 00 00
 3.643661 1  251             Rx   d 8 00 00 00 00 00 00 00 00
 3.644634 1  263             Rx   d 8 01 27 00 18 1E 00 00 00
 3.645658 1  252             Rx   d 8 00 00 00 01 00 00 00 00
 3.647659 1  253             Rx   d 8 00 00 00 00 00 00 00 00
 3.649662 1  254             Rx   d 8 00 00 00 02 00 00 00 00
 3.651711 1  241             Rx   d 8 AA 00 00 00 00 00 00 5D
 3.654355 1  221             Rx   d 8 00 00 00 00 00 00 00 00
 3.654581 1  311             Rx   d 8 00 00 19 38 00 00 11 25
 3.655664 1  264             Rx   d 8 01 25 00 18 1E 00 00 00
 3.663666 1  251             Rx   d 8 00 00 00 00 00 00 00 00
 3.665659 1  252             Rx   d 8 00 00 00 01 00 00 00 00
 3.667660 1  253             Rx   d 8 00 00 00 00 00 00 00 00
 3.669685 1  254             Rx   d 8 00 00 00 02 00 00 00 00
 3.671733 1  241             Rx   d 8 AA 00 00 00 00 00 00 5E
 3.674358 1  221             Rx   d 8 00 00 00 00 00 00 00 00
 3.674580 1  311             Rx   d 8 00 00 19 38 00 00 11 25
 3.683660 1  251             Rx   d 8 00 00 00 00 00 00 00 00
 3.685677 1  252             Rx   d 8 00 00 00 01 00 00 00 00
 3.687690 1  253             Rx   d 8 00 00 00 00 00 00 00 00
 3.689717 1  254             Rx   d 8 00 00 00 02 00 00 00 00
 3.691745 1  241             Rx   d 8 AA 00 00 00 00 00 00 5F
 3.694325 1  221             Rx   d 8 00 00 00 00 00 00 00 00
 3.694584 1  311             Rx   d 8 00 00 19 38 00 00 11 25
 3.703715 1  251             Rx   d 8 00 00 00 00 00 00 00 00
 3.705715 1  252             Rx   d 8 00 00 00 01 00 00 00 00
 3.707728 1  253             Rx   d 8 00 00 00 00 00 00 00 00
 3.709712 1  254             Rx   d 8 00 00 00 02 00 00 00 00
 3.711766 1  241             Rx   d 8 AA 00 00 00 00 00 00 60
 3.714363 1  221             Rx   d 8 00 00 00 00 00 00 00 00
 3.714613 1  311             Rx   d 8 00 00 19 38 00 00 11 25
 3.722710 1  261             Rx   d 8 01 28 00 18 1E 00 00 00
 3.723739 1  251             Rx   d 8 00 00 00 00 00 00 00 00
 3.725737 1  252             Rx   d 8 00 00 00 01 00 00 00 00
 3.727737 1  253             Rx   d 8 00 00 00 00 00 00 00 00
 3.729741 1  254             Rx   d 8 00 00 00 02 00 00 00 00
 3.731788 1  241             Rx   d 8 AA 00 00 00 00 00 00 61
 3.733738 1  262             Rx   d 8 01 26 00 18 1E 00 00 00
 3.734363 1  221             Rx   d 8 00 00 00 00 00 00 00 00
 3.734586 1  311             Rx   d 8 00 00 19 38 00 00 11 25
 3.743738 1  251             Rx   d 8 00 00 00 00 00 00 00 00
 3.744736 1  263             Rx   d 8 01 27 00 18 1E 00 00 00
 3.745761 1  252             Rx   d 8 00 00 00 01 00 00 00 00
 3.747733 1  253             Rx   d 8 00 00 00 00 00 00 00 00
 3.749762 1  254             Rx   d 8 00 00 00 02 00 00 00 00
 3.751784 1  241             Rx   d 8 AA 00 00 00 00 00 00 62
 3.754361 1  221             Rx   d 8 00 00 00 00 00 00 00 00
 3.754605 1  311             Rx   d 8 00 00 19 38 00 00 11 25
 3.755760 1  264             Rx   d 8 01 26 00 18 1E 00 00 00
 3.761834 1  231             Rx   d 8 00 00 00 02 4B 00 00 00
 3.763753 1  251             Rx   d 8 00 00 00 00 00 00 00 00
 3.765753 1  252             Rx   d 8 00 00 00 01 00 00 00 00
 3.767790 1  253             Rx   d 8 00 00 00 00 00 00 00 00
 3.769791 1  254             Rx   d 8 00 00 00 02 00 00 00 00
 3.771813 1  241             Rx   d 8 AA 00 00 00 00 00 00 63
 3.774362 1  221             Rx   d 8 00 00 00 00 00 00 00 00
 3.774603 1  311             Rx   d 8 00 00 19 38 00 00 11 25
 3.783755 1  251             Rx   d 8 00 00 00 00 00 00 00 00
 3.785788 1  252             Rx   d 8 00 00 00 01 00 00 00 00
 3.787789 1  253             Rx   d 8 00 00 00 00 00 00 00 00
 3.789782 1  254             Rx   d 8 00 00 00 02 00 00 00 00
 3.791835 1  241             Rx   d 8 AA 00 00 00 00 00 00 64
 3.794359 1  221             Rx   d 8 00 00 00 00 00 00 00 00
 3.794609 1  311             Rx   d 8 00 00 19 38 00 00 11 25
 3.803816 1  251             Rx   d 8 00 00 00 00 00 00 00 00
 3.805815 1  252             Rx   d 8 00 00 00 01 00 00 00 00
 3.807825 1  253             Rx   d 8 00 00 00 00 00 00 00 00
 3.809817 1  254             Rx   d 8 00 00 00 02 00 00 00 00
 3.811865 1  241             Rx   d 8 AA 00 00 00 00 00 00 65
 3.814365 1  221             Rx   d 8 00 00 00 00 00 00 00 00
 3.814615 1  311             Rx   d 8 00 00 19 38 00 00 11 25
 3.822841 1  261             Rx   d 8 01 28 00 18 1E 00 00 00
 3.823841 1  251             Rx   d 8 00 00 00 00 00 00 00 00
 3.825851 1  252             Rx   d 8 00 00 00 01 00 00 00 00
 3.827840 1  253             Rx   d 8 00 00 00 00 00 00 00 00
 3.829841 1  254             Rx   d 8 00 00 00 02 00 00 00 00
 3.831890 1  241             Rx   d 8 AA 00 00 00 00 00 00 66
 3.833840 1  262             Rx   d 8 01 26 00 18 1E 00 00 00
 3.834359 1  221             Rx   d 8 00 00 00 00 00 00 00 00
 3.834610 1  311             Rx   d 8 00 00 19 38 00 00 11 25
 3.841921 1  211             Rx   d 8 00 01 01 1D 00 00 00 00
 3.843836 1  251             Rx   d 8 00 00 00 00 00 00 00 00
 3.844841 1  263             Rx   d 8 01 27 00 18 1E 00 00 00
 3.845858 1  252             Rx   d 8 00 00 00 01 00 00 00 00
 3.847837 1  253             Rx   d 8 00 00 00 00 00 00 00 00
 3.849845 1  254             Rx   d 8 00 00 00 02 00 00 00 00
 3.851862 1  241             Rx   d 8 AA 00 00 00 00 00 00 67
 3.854365 1  221             Rx   d 8 00 00 00 00 00 00 00 00
 3.854614 1  311             Rx   d 8 00 00 19 38 00 00 11 25
 3.855868 1  264             Rx   d 8 01 26 00 18 1E 00 00 00
 3.863871 1  251             Rx   d 8 00 00 00 00 00 00 00 00
 3.865850 1  252             Rx   d 8 00 00 00 01 00 00 00 00
 3.867863 1  253             Rx   d 8 00 00 00 00 00 00 00 00
 3.869889 1  254             Rx   d 8 00 00 00 02 00 00 00 00
 3.871927 1  241             Rx   d 8 AA 00 00 00 00 00 00 68
 3.874365 1  221             Rx   d 8 00 00 00 00 00 00 00 00
 3.874615 1  311             Rx   d 8 00 00 19 38 00 00 11 25
 3.883855 1  251             Rx   d 8 00 00 00 00 00 00 00 00
 3.885857 1  252             Rx   d 8 00 00 00 01 00 00 00 00
 3.887889 1  253             Rx   d 8 00 00 00 00 00 00 00 00
 3.889890 1  254             Rx   d 8 00 00 00 02 00 00 00 00
 3.891943 1  241             Rx   d 8 AA 00 00 00 00 00 00 69
 3.894361 1  221             Rx   d 8 00 00 00 00 00 00 00 00
 3.894614 1  311             Rx   d 8 00 00 19 38 00 00 11 25
 3.903918 1  251             Rx   d 8 00 00 00 00 00 00 00 00
 3.905911 1  252             Rx   d 8 00 00 00 01 00 00 00 00
 3.907883 1  253             Rx   d 8 00 00 00 00 00 00 00 00
 3.909885 1  254             Rx   d 8 00 00 00 02 00 00 00 00
 3.911936 1  241             Rx   d 8 AA 00 00 00 00 00 00 6A
 3.914355 1  221             Rx   d 8 00 00 00 00 00 00 00 00
 3.914575 1  311             Rx   d 8 00 00 19 38 00 00 11 25
 3.922880 1  261             Rx   d 8 01 28 00 18 1E 00 00 00
 3.923904 1  251             Rx   d 8 00 00 00 00 00 00 00 00
 3.925903 1  252             Rx   d 8 00 00 00 01 00 00 00 00
 3.927905 1  253             Rx   d 8 00 00 00 00 00 00 00 00
 3.929906 1  254             Rx   d 8 00 00 00 02 00 00 00 00
 3.931955 1  241             Rx   d 8 AA 00 00 00 00 00 00 6B
 3.933908 1  262             Rx   d 8 01 26 00 18 1E 00 00 00
 3.934354 1  221             Rx   d 8 00 00 00 00 00 00 00 00
 3.934578 1  311             Rx   d 8 00 00 19 38 00 00 11 25
 3.943965 1  251             Rx   d 8 00 00 00 00 00 00 00 00
 3.944930 1  263             Rx   d 8 01 27 00 18 1E 00 00 00
 3.945904 1  252             Rx   d 8 00 00 00 01 00 00 00 00
 3.947930 1  253             Rx   d 8 00 00 00 00 00 00 00 00
 3.949928 1  254             Rx   d 8 00 00 00 02 00 00 00 00
 3.951990 1  241             Rx   d 8 AA 00 00 00 00 00 00 6C
 3.954355 1  221             Rx   d 8 00 00 00 00 00 00 00 00
 3.954576 1  311             Rx   d 8 00 00 19 38 00 00 11 25
 3.955929 1  264             Rx   d 8 01 26 00 18 1E 00 00 00
 3.963929 1  251             Rx   d 8 00 00 00 00 00 00 00 00
 3.965930 1  252             Rx   d 8 00 00 00 01 00 00 00 00
 3.967954 1  253             Rx   d 8 00 00 00 00 00 00 00 00
 3.969928 1  254             Rx   d 8 00 00 00 02 00 00 00 00
 3.971980 1  241             Rx   d 8 AA 00 00 00 00 00 00 6D
 3.974353 1  221             Rx   d 8 00 00 00 00 00 00 00 00
 3.974576 1  311             Rx   d 8 00 00 19 38 00 00 11 25
 3.983969 1  251             Rx   d 8 00 00 00 00 00 00 00 00
 3.985980 1  252             Rx   d 8 00 00 00 01 00 00 00 00
 3.987959 1  253             Rx   d 8 00 00 00 00 00 00 00 00
 3.989956 1  254             Rx   d 8 00 00 00 02 00 00 00 00
 3.992032 1  241             Rx   d 8 AA 00 00 00 00 00 00 6E
 3.994355 1  221             Rx   d 8 00 00 00 00 00 00 00 00
 3.994576 1  311             Rx   d 8 00 00 19 38 00 00 11 25
 4.003983 1  251             Rx   d 8 00 00 00 00 00 00 00 00
 4.005979 1  252             Rx   d 8 00 00 00 01 00 00 00 00
 4.008006 1  253             Rx   d 8 00 00 00 00 00 00 00 00
 4.009981 1  254             Rx   d 8 00 00 00 02 00 00 00 00
 4.012053 1  241             Rx   d 8 AA 00 00 00 00 00 00 6F
 4.014354 1  221             Rx   d 8 00 00 00 00 00 00 00 00
 4.014601 1  311             Rx   d 8 00 00 19 38 00 00 11 25
 4.022981 1  261             Rx   d 8 01 27 00 18 1E 00 00 00
 4.024004 1  251             Rx   d 8 00 00 00 00 00 00 00 00
 4.026005 1  252             Rx   d 8 00 00 00 01 00 00 00 00
 4.028019 1  253             Rx   d 8 00 00 00 00 00 00 00 00
 4.030015 1  254             Rx   d 8 00 00 00 02 00 00 00 00
 4.032055 1  241             Rx   d 8 AA 00 00 00 00 00 00 70
 4.034004 1  262             Rx   d 8 01 26 00 18 1E 00 00 00
 4.034354 1  221             Rx   d 8 00 00 00 00 00 00 00 00
 4.034602 1  311             Rx   d 8 00 00 19 38 00 00 11 25
 4.042080 1  211             Rx   d 8 00 01 01 1D 00 00 00 00
 4.044005 1  251             Rx   d 8 00 00 00 00 00 00 00 00
 4.045006 1  263             Rx   d 8 01 27 00 18 1E 00 00 00
 4.046030 1  252             Rx   d 8 00 00 00 01 00 00 00 00
 4.048031 1  253             Rx   d 8 00 00 00 00 00 00 00 00
