date Fri Nov 03 05:16:29.678 PM 2023
base hex  timestamps absolute
internal events logged
Begin Triggerblock Fri Nov 03 05:16:29.673 PM 2023
 0.000000 Start of measurement
 0.000000 1  251             Rx   d 8 00 00 00 00 00 00 00 00
 0.000974 1  263             Rx   d 8 01 29 00 1C 1E 00 00 00
 0.001970 1  252             Rx   d 8 00 00 00 01 00 00 00 00
 0.003717 1  221             Rx   d 8 00 00 00 00 00 00 00 00
 0.003987 1  311             Rx   d 8 00 00 02 26 00 00 02 63
 0.004235 1  253             Rx   d 8 00 00 00 00 00 00 00 00
 0.005964 1  254             Rx   d 8 00 00 00 02 00 00 00 00
 0.007967 1  241             Rx   d 8 AA 00 00 00 00 00 00 C0
 0.011984 1  264             Rx   d 8 01 27 00 1C 1E 00 00 00
 0.020075 1  251             Rx   d 8 00 00 00 00 00 00 00 00
 0.021999 1  252             Rx   d 8 00 00 00 01 00 00 00 00
 0.023797 1  221             Rx   d 8 00 00 00 00 00 00 00 00
 0.023993 1  311             Rx   d 8 00 00 02 26 00 00 02 63
 0.024241 1  253             Rx   d 8 00 00 00 00 00 00 00 00
 0.025994 1  254             Rx   d 8 00 00 00 02 00 00 00 00
 0.028051 1  241             Rx   d 8 AA 00 00 00 00 00 00 C1
 0.040099 1  251             Rx   d 8 00 00 00 00 00 00 00 00
 0.042070 1  252             Rx   d 8 00 00 00 01 00 00 00 00
 0.043799 1  221             Rx   d 8 00 00 00 00 00 00 00 00
 0.043998 1  311             Rx   d 8 00 00 02 26 00 00 02 63
 0.044241 1  253             Rx   d 8 00 00 00 00 00 00 00 00
 0.046072 1  254             Rx   d 8 00 00 00 02 00 00 00 00
 0.048082 1  241             Rx   d 8 AA 00 00 00 00 00 00 C2
 0.059994 1  251             Rx   d 8 00 00 00 00 00 00 00 00
 0.061988 1  252             Rx   d 8 00 00 00 01 00 00 00 00
 0.063738 1  221             Rx   d 8 00 00 00 00 00 00 00 00
 0.063961 1  311             Rx   d 8 00 00 02 26 00 00 02 63
 0.064209 1  253             Rx   d 8 00 00 00 00 00 00 00 00
 0.066017 1  254             Rx   d 8 00 00 00 02 00 00 00 00
 0.068066 1  241             Rx   d 8 AA 00 00 00 00 00 00 C3
 0.079015 1  261             Rx   d 8 01 29 00 1C 1E 00 00 00
 0.080013 1  251             Rx   d 8 00 00 00 00 00 00 00 00
 0.082017 1  252             Rx   d 8 00 00 00 01 00 00 00 00
 0.083778 1  221             Rx   d 8 00 00 00 00 00 00 00 00
 0.083996 1  311             Rx   d 8 00 00 02 26 00 00 02 63
 0.084241 1  253             Rx   d 8 00 00 00 00 00 00 00 00
 0.086077 1  254             Rx   d 8 00 00 00 02 00 00 00 00
 0.088129 1  241             Rx   d 8 AA 00 00 00 00 00 00 C4
 0.090060 1  262             Rx   d 8 01 28 00 1C 1E 00 00 00
 0.098136 1  211             Rx   d 8 00 01 01 1E 00 00 00 00
 0.100085 1  251             Rx   d 8 00 00 00 00 00 00 00 00
 0.101041 1  263             Rx   d 8 01 29 00 1C 1E 00 00 00
 0.102037 1  252             Rx   d 8 00 00 00 01 00 00 00 00
 0.103739 1  221             Rx   d 8 00 00 00 00 00 00 00 00
 0.103961 1  311             Rx   d 8 00 00 02 26 00 00 02 63
 0.104209 1  253             Rx   d 8 00 00 00 00 00 00 00 00
 0.106038 1  254             Rx   d 8 00 00 00 02 00 00 00 00
 0.108088 1  241             Rx   d 8 AA 00 00 00 00 00 00 C5
 0.112042 1  264             Rx   d 8 01 27 00 1C 1E 00 00 00
 0.120043 1  251             Rx   d 8 00 00 00 00 00 00 00 00
 0.122097 1  252             Rx   d 8 00 00 00 01 00 00 00 00
 0.123811 1  221             Rx   d 8 00 00 00 00 00 00 00 00
 0.123999 1  311             Rx   d 8 00 00 02 26 00 00 02 63
 0.124249 1  253             Rx   d 8 00 00 00 00 00 00 00 00
 0.126153 1  254             Rx   d 8 00 00 00 02 00 00 00 00
 0.128214 1  241             Rx   d 8 AA 00 00 00 00 00 00 C6
 0.140136 1  251             Rx   d 8 00 00 00 00 00 00 00 00
 0.142183 1  252             Rx   d 8 00 00 00 01 00 00 00 00
 0.143783 1  221             Rx   d 8 00 00 00 00 00 00 00 00
 0.143993 1  311             Rx   d 8 00 00 02 26 00 00 02 63
 0.144269 1  253             Rx   d 8 00 00 00 00 00 00 00 00
 0.146093 1  254             Rx   d 8 00 00 00 02 00 00 00 00
 0.148114 1  241             Rx   d 8 AA 00 00 00 00 00 00 C7
 0.160090 1  251             Rx   d 8 00 00 00 00 00 00 00 00
 0.162115 1  252             Rx   d 8 00 00 00 01 00 00 00 00
 0.163739 1  221             Rx   d 8 00 00 00 00 00 00 00 00
 0.163962 1  311             Rx   d 8 00 00 02 26 00 00 02 63
 0.164234 1  253             Rx   d 8 00 00 00 00 00 00 00 00
 0.166206 1  254             Rx   d 8 00 00 00 02 00 00 00 00
 0.168256 1  241             Rx   d 8 AA 00 00 00 00 00 00 C8
 0.179156 1  261             Rx   d 8 01 29 00 1C 1E 00 00 00
 0.180152 1  251             Rx   d 8 00 00 00 00 00 00 00 00
 0.182151 1  252             Rx   d 8 00 00 00 01 00 00 00 00
 0.183777 1  221             Rx   d 8 00 00 00 00 00 00 00 00
 0.184026 1  311             Rx   d 8 00 00 02 26 00 00 02 63
 0.184273 1  253             Rx   d 8 00 00 00 00 00 00 00 00
 0.186148 1  254             Rx   d 8 00 00 00 02 00 00 00 00
 0.188259 1  241             Rx   d 8 AA 00 00 00 00 00 00 C9
 0.190232 1  262             Rx   d 8 01 29 00 1C 1E 00 00 00
 0.200186 1  251             Rx   d 8 00 00 00 00 00 00 00 00
 0.201187 1  263             Rx   d 8 01 29 00 1C 1E 00 00 00
 0.202177 1  252             Rx   d 8 00 00 00 01 00 00 00 00
 0.203754 1  221             Rx   d 8 00 00 00 00 00 00 00 00
 0.204000 1  311             Rx   d 8 00 00 02 26 00 00 02 63
 0.204280 1  253             Rx   d 8 00 00 00 00 00 00 00 00
 0.206184 1  254             Rx   d 8 00 00 00 02 00 00 00 00
 0.208205 1  241             Rx   d 8 AA 00 00 00 00 00 00 CA
 0.212145 1  264             Rx   d 8 01 27 00 1C 1E 00 00 00
 0.220202 1  251             Rx   d 8 00 00 00 00 00 00 00 00
 0.222200 1  252             Rx   d 8 00 00 00 01 00 00 00 00
 0.223776 1  221             Rx   d 8 00 00 00 00 00 00 00 00
 0.224020 1  311             Rx   d 8 00 00 02 26 00 00 02 63
 0.224268 1  253             Rx   d 8 00 00 00 00 00 00 00 00
 0.226198 1  254             Rx   d 8 00 00 00 02 00 00 00 00
 0.228197 1  241             Rx   d 8 AA 00 00 00 00 00 00 CB
 0.240201 1  251             Rx   d 8 00 00 00 00 00 00 00 00
 0.242198 1  252             Rx   d 8 00 00 00 02 00 00 00 00
 0.243773 1  221             Rx   d 8 00 00 00 00 00 00 00 00
 0.244032 1  311             Rx   d 8 00 00 02 26 00 00 02 63
 0.244269 1  253             Rx   d 8 00 00 00 00 00 00 00 00
 0.246225 1  254             Rx   d 8 00 00 00 02 00 00 00 00
 0.248225 1  241             Rx   d 8 AA 00 00 00 00 00 00 CC
 0.260230 1  251             Rx   d 8 00 00 00 00 00 00 00 00
 0.262254 1  252             Rx   d 8 00 00 00 02 00 00 00 00
 0.263779 1  221             Rx   d 8 00 00 00 00 00 00 00 00
 0.264027 1  311             Rx   d 8 00 00 02 26 00 00 02 63
 0.264282 1  253             Rx   d 8 00 00 00 00 00 00 00 00
 0.266230 1  254             Rx   d 8 00 00 00 02 00 00 00 00
 0.268302 1  241             Rx   d 8 AA 00 00 00 00 00 00 CD
 0.279295 1  261             Rx   d 8 01 29 00 1C 1E 00 00 00
 0.280257 1  251             Rx   d 8 00 00 00 00 00 00 00 00
 0.282253 1  252             Rx   d 8 00 00 00 01 00 00 00 00
 0.283782 1  221             Rx   d 8 00 00 00 00 00 00 00 00
 0.284029 1  311             Rx   d 8 00 00 02 26 00 00 02 63
 0.284274 1  253             Rx   d 8 00 00 00 00 00 00 00 00
 0.286279 1  254             Rx   d 8 00 00 00 02 00 00 00 00
 0.288305 1  241             Rx   d 8 AA 00 00 00 00 00 00 CE
 0.290250 1  262             Rx   d 8 01 28 00 1C 1E 00 00 00
 0.298354 1  211             Rx   d 8 00 01 01 1E 00 00 00 00
 0.300360 1  251             Rx   d 8 00 00 00 00 00 00 00 00
 0.301279 1  263             Rx   d 8 01 29 00 1C 1E 00 00 00
 0.302279 1  252             Rx   d 8 00 00 00 01 00 00 00 00
 0.303781 1  221             Rx   d 8 00 00 00 00 00 00 00 00
 0.304026 1  311             Rx   d 8 00 00 02 26 00 00 02 63
 0.304274 1  253             Rx   d 8 00 00 00 00 00 00 00 00
 0.306279 1  254             Rx   d 8 00 00 00 02 00 00 00 00
 0.308274 1  241             Rx   d 8 AA 00 00 00 00 00 00 CF
 0.312256 1  264             Rx   d 8 01 28 00 1C 1E 00 00 00
 0.318373 1  231             Rx   d 8 00 00 00 02 03 00 00 00
 0.320358 1  251             Rx   d 8 00 00 00 00 00 00 00 00
 0.322316 1  252             Rx   d 8 00 00 00 01 00 00 00 00
 0.323777 1  221             Rx   d 8 00 00 00 00 00 00 00 00
 0.324025 1  311             Rx   d 8 00 00 02 26 00 00 02 63
 0.324299 1  253             Rx   d 8 00 00 00 00 00 00 00 00
 0.326270 1  254             Rx   d 8 00 00 00 02 00 00 00 00
 0.328302 1  241             Rx   d 8 AA 00 00 00 00 00 00 D0
 0.340401 1  251             Rx   d 8 00 00 00 00 00 00 00 00
 0.342354 1  252             Rx   d 8 00 00 00 01 00 00 00 00
 0.343845 1  221             Rx   d 8 00 00 00 00 00 00 00 00
 0.344058 1  311             Rx   d 8 00 00 02 26 00 00 02 63
 0.344329 1  253             Rx   d 8 00 00 00 00 00 00 00 00
 0.346344 1  254             Rx   d 8 00 00 00 02 00 00 00 00
 0.348364 1  241             Rx   d 8 AA 00 00 00 00 00 00 D1
 0.360331 1  251             Rx   d 8 00 00 00 00 00 00 00 00
 0.362340 1  252             Rx   d 8 00 00 00 01 00 00 00 00
 0.363836 1  221             Rx   d 8 00 00 00 00 00 00 00 00
 0.363994 1  311             Rx   d 8 00 00 02 26 00 00 02 63
 0.364394 1  253             Rx   d 8 00 00 00 00 00 00 00 00
 0.366476 1  254             Rx   d 8 00 00 00 02 00 00 00 00
 0.368406 1  241             Rx   d 8 AA 00 00 00 00 00 00 D2
 0.379325 1  261             Rx   d 8 01 29 00 1C 1E 00 00 00
 0.380319 1  251             Rx   d 8 00 00 00 00 00 00 00 00
 0.382319 1  252             Rx   d 8 00 00 00 01 00 00 00 00
 0.383769 1  221             Rx   d 8 00 00 00 00 00 00 00 00
 0.383992 1  311             Rx   d 8 00 00 02 26 00 00 02 63
 0.384315 1  253             Rx   d 8 00 00 00 00 00 00 00 00
 0.386319 1  254             Rx   d 8 00 00 00 02 00 00 00 00
 0.388320 1  241             Rx   d 8 AA 00 00 00 00 00 00 D3
 0.390320 1  262             Rx   d 8 01 28 00 1C 1E 00 00 00
 0.400434 1  251             Rx   d 8 00 00 00 00 00 00 00 00
 0.401436 1  263             Rx   d 8 01 29 00 1C 1E 00 00 00
 0.402386 1  252             Rx   d 8 00 00 00 01 00 00 00 00
 0.403859 1  221             Rx   d 8 00 00 00 00 00 00 00 00
 0.404037 1  311             Rx   d 8 00 00 02 26 00 00 02 63
 0.404433 1  253             Rx   d 8 00 00 00 00 00 00 00 00
 0.406384 1  254             Rx   d 8 00 00 00 02 00 00 00 00
 0.408439 1  241             Rx   d 8 AA 00 00 00 00 00 00 D4
 0.412382 1  264             Rx   d 8 01 27 00 1C 1E 00 00 00
 0.420420 1  251             Rx   d 8 00 00 00 00 00 00 00 00
 0.422376 1  252             Rx   d 8 00 00 00 01 00 00 00 00
 0.423851 1  221             Rx   d 8 00 00 00 00 00 00 00 00
 0.424052 1  311             Rx   d 8 00 00 02 26 00 00 02 63
 0.424444 1  253             Rx   d 8 00 00 00 00 00 00 00 00
 0.426402 1  254             Rx   d 8 00 00 00 02 00 00 00 00
 0.428451 1  241             Rx   d 8 AA 00 00 00 00 00 00 D5
 0.440412 1  251             Rx   d 8 00 00 00 00 00 00 00 00
 0.442373 1  252             Rx   d 8 00 00 00 01 00 00 00 00
 0.443861 1  221             Rx   d 8 00 00 00 00 00 00 00 00
 0.444058 1  311             Rx   d 8 00 00 02 26 00 00 02 63
 0.444494 1  253             Rx   d 8 00 00 00 00 00 00 00 00
 0.446404 1  254             Rx   d 8 00 00 00 02 00 00 00 00
 0.448509 1  241             Rx   d 8 AA 00 00 00 00 00 00 D6
 0.460433 1  251             Rx   d 8 00 00 00 00 00 00 00 00
 0.462457 1  252             Rx   d 8 00 00 00 01 00 00 00 00
 0.463861 1  221             Rx   d 8 00 00 00 00 00 00 00 00
 0.464057 1  311             Rx   d 8 00 00 02 26 00 00 02 63
 0.464467 1  253             Rx   d 8 00 00 00 00 00 00 00 00
 0.466458 1  254             Rx   d 8 00 00 00 02 00 00 00 00
 0.468524 1  241             Rx   d 8 AA 00 00 00 00 00 00 D7
 0.479428 1  261             Rx   d 8 01 29 00 1C 1E 00 00 00
 0.480421 1  251             Rx   d 8 00 00 00 00 00 00 00 00
 0.482422 1  252             Rx   d 8 00 00 00 01 00 00 00 00
 0.483772 1  221             Rx   d 8 00 00 00 00 00 00 00 00
 0.484020 1  311             Rx   d 8 00 00 02 26 00 00 02 63
 0.484417 1  253             Rx   d 8 00 00 00 00 00 00 00 00
 0.486421 1  254             Rx   d 8 00 00 00 02 00 00 00 00
 0.488472 1  241             Rx   d 8 AA 00 00 00 00 00 00 D8
 0.490422 1  262             Rx   d 8 01 28 00 1C 1E 00 00 00
 0.498509 1  211             Rx   d 8 00 01 01 1E 00 00 00 00
 0.500480 1  251             Rx   d 8 00 00 00 00 00 00 00 00
 0.501484 1  263             Rx   d 8 01 29 00 1C 1E 00 00 00
 0.502483 1  252             Rx   d 8 00 00 00 01 00 00 00 00
 0.503807 1  221             Rx   d 8 00 00 00 00 00 00 00 00
 0.504058 1  311             Rx   d 8 00 00 02 26 00 00 02 63
 0.504482 1  253             Rx   d 8 00 00 00 00 00 00 00 00
 0.506479 1  254             Rx   d 8 00 00 00 02 00 00 00 00
 0.508529 1  241             Rx   d 8 AA 00 00 00 00 00 00 D9
 0.512450 1  264             Rx   d 8 01 27 00 1C 1E 00 00 00
 0.520483 1  251             Rx   d 8 00 00 00 00 00 00 00 00
 0.522504 1  252             Rx   d 8 00 00 00 01 00 00 00 00
 0.523804 1  221             Rx   d 8 00 00 00 00 00 00 00 00
 0.524053 1  311             Rx   d 8 00 00 02 26 00 00 02 63
 0.524502 1  253             Rx   d 8 00 00 00 00 00 00 00 00
 0.526514 1  254             Rx   d 8 00 00 00 02 00 00 00 00
 0.528603 1  241             Rx   d 8 AA 00 00 00 00 00 00 DA
 0.540534 1  251             Rx   d 8 00 00 00 00 00 00 00 00
 0.542529 1  252             Rx   d 8 00 00 00 01 00 00 00 00
 0.543805 1  221             Rx   d 8 00 00 00 00 00 00 00 00
 0.544054 1  311             Rx   d 8 00 00 02 26 00 00 02 63
 0.544525 1  253             Rx   d 8 00 00 00 00 00 00 00 00
 0.546530 1  254             Rx   d 8 00 00 00 02 00 00 00 00
 0.548612 1  241             Rx   d 8 AA 00 00 00 00 00 00 DB
 0.560537 1  251             Rx   d 8 00 00 00 00 00 00 00 00
 0.562534 1  252             Rx   d 8 00 00 00 01 00 00 00 00
 0.563809 1  221             Rx   d 8 00 00 00 00 00 00 00 00
 0.564054 1  311             Rx   d 8 00 00 02 26 00 00 02 63
 0.564555 1  253             Rx   d 8 00 00 00 00 00 00 00 00
 0.566573 1  254             Rx   d 8 00 00 00 02 00 00 00 00
 0.568611 1  241             Rx   d 8 AA 00 00 00 00 00 00 DC
 0.579567 1  261             Rx   d 8 01 29 00 1C 1E 00 00 00
 0.580580 1  251             Rx   d 8 00 00 00 00 00 00 00 00
 0.582566 1  252             Rx   d 8 00 00 00 01 00 00 00 00
 0.583809 1  221             Rx   d 8 00 00 00 00 00 00 00 00
 0.584058 1  311             Rx   d 8 00 00 02 26 00 00 02 63
 0.584584 1  253             Rx   d 8 00 00 00 00 00 00 00 00
 0.586557 1  254             Rx   d 8 00 00 00 02 00 00 00 00
 0.588634 1  241             Rx   d 8 AA 00 00 00 00 00 00 DD
 0.590563 1  262             Rx   d 8 01 29 00 1C 1E 00 00 00
 0.591311 1  421             Tx   d 1 01
 0.600585 1  251             Rx   d 8 00 00 00 00 00 00 00 00
 0.601585 1  263             Rx   d 8 01 29 00 1C 1E 00 00 00
 0.602610 1  252             Rx   d 8 00 00 00 01 00 00 00 00
 0.603812 1  221             Rx   d 8 00 00 00 00 00 00 00 00
 0.604059 1  311             Rx   d 8 00 00 02 26 00 00 02 63
 0.604573 1  253             Rx   d 8 00 00 00 00 00 00 00 00
 0.606581 1  254             Rx   d 8 00 00 00 02 00 00 00 00
 0.608626 1  241             Rx   d 8 AA 00 00 00 00 00 00 DE
 0.612583 1  264             Rx   d 8 01 27 00 1C 1E 00 00 00
 0.620610 1  251             Rx   d 8 00 00 00 00 00 00 00 00
 0.622578 1  252             Rx   d 8 00 00 00 01 00 00 00 00
 0.623832 1  221             Rx   d 8 00 00 00 00 00 00 00 00
 0.624051 1  311             Rx   d 8 00 00 02 26 00 00 02 63
 0.624600 1  253             Rx   d 8 00 00 00 00 00 00 00 00
 0.626604 1  254             Rx   d 8 00 00 00 02 00 00 00 00
 0.628617 1  241             Rx   d 8 AA 00 00 00 00 00 00 DF
 0.640638 1  251             Rx   d 8 00 00 00 00 00 00 00 00
 0.642605 1  252             Rx   d 8 00 00 00 01 00 00 00 00
 0.643835 1  221             Rx   d 8 00 00 00 00 00 00 00 00
 0.644057 1  311             Rx   d 8 00 00 02 26 00 00 02 63
 0.644647 1  253             Rx   d 8 00 00 00 00 00 00 00 00
 0.646636 1  254             Rx   d 8 00 00 00 02 00 00 00 00
 0.648717 1  241             Rx   d 8 AA 00 00 00 00 00 00 E0
 0.660716 1  251             Rx   d 8 00 00 00 00 00 00 00 00
 0.662637 1  252             Rx   d 8 00 00 00 01 00 00 00 00
 0.663836 1  221             Rx   d 8 00 00 00 00 00 00 00 00
 0.664085 1  311             Rx   d 8 00 00 02 26 00 00 02 63
 0.664660 1  253             Rx   d 8 00 00 00 00 00 00 00 00
 0.666661 1  254             Rx   d 8 00 00 00 02 00 00 00 00
 0.668712 1  241             Rx   d 8 AA 00 00 00 00 00 00 E1
 0.679632 1  261             Rx   d 8 01 29 00 1C 1E 00 00 00
 0.680676 1  251             Rx   d 8 00 00 00 00 00 00 00 00
 0.682626 1  252             Rx   d 8 00 00 00 01 00 00 00 00
 0.683801 1  221             Rx   d 8 00 00 00 00 00 00 00 00
 0.684023 1  311             Rx   d 8 00 00 02 26 00 00 02 63
 0.684622 1  253             Rx   d 8 00 00 00 00 00 00 00 00
 0.686654 1  254             Rx   d 8 00 00 00 02 00 00 00 00
 0.688678 1  241             Rx   d 8 AA 00 00 00 00 00 00 E2
 0.690637 1  262             Rx   d 8 01 29 00 1C 1E 00 00 00
 0.698705 1  211             Rx   d 8 00 01 01 1E 00 00 00 00
 0.700677 1  251             Rx   d 8 00 00 00 00 00 00 00 00
 0.701782 1  263             Rx   d 8 01 29 00 1C 1E 00 00 00
 0.702766 1  252             Rx   d 8 00 00 00 01 00 00 00 00
 0.703899 1  221             Rx   d 8 00 00 00 00 00 00 00 00
 0.704085 1  311             Rx   d 8 00 00 02 26 00 00 02 63
 0.704714 1  253             Rx   d 8 00 00 00 00 00 00 00 00
 0.706712 1  254             Rx   d 8 00 00 00 02 00 00 00 00
 0.708740 1  241             Rx   d 8 AA 00 00 00 00 00 00 E3
 0.712715 1  264             Rx   d 8 01 27 00 1C 1E 00 00 00
 0.720710 1  251             Rx   d 8 00 00 00 00 00 00 00 00
 0.722711 1  252             Rx   d 8 00 00 00 01 00 00 00 00
 0.723835 1  221             Rx   d 8 00 00 00 00 00 00 00 00
 0.724083 1  311             Rx   d 8 00 00 02 26 00 00 02 63
 0.724710 1  253             Rx   d 8 00 00 00 00 00 00 00 00
 0.726709 1  254             Rx   d 8 00 00 00 02 00 00 00 00
 0.728769 1  241             Rx   d 8 AA 00 00 00 00 00 00 E4
 0.740745 1  251             Rx   d 8 00 00 00 00 00 00 00 00
 0.742795 1  252             Rx   d 8 00 00 00 01 00 00 00 00
 0.743834 1  221             Rx   d 8 00 00 00 00 00 00 00 00
 0.744083 1  311             Rx   d 8 00 00 02 26 00 00 02 63
 0.744805 1  253             Rx   d 8 00 00 00 00 00 00 00 00
 0.746739 1  254             Rx   d 8 00 00 00 02 00 00 00 00
 0.748757 1  241             Rx   d 8 AA 00 00 00 00 00 00 E5
 0.760707 1  251             Rx   d 8 00 00 00 00 00 00 00 00
 0.762706 1  252             Rx   d 8 00 00 00 01 00 00 00 00
 0.763807 1  221             Rx   d 8 00 00 00 00 00 00 00 00
 0.764071 1  311             Rx   d 8 00 00 02 26 00 00 02 63
 0.764703 1  253             Rx   d 8 00 00 00 00 00 00 00 00
 0.766704 1  254             Rx   d 8 00 00 00 02 00 00 00 00
 0.768780 1  241             Rx   d 8 AA 00 00 00 00 00 00 E6
 0.779732 1  261             Rx   d 8 01 29 00 1C 1E 00 00 00
 0.780758 1  251             Rx   d 8 00 00 00 00 00 00 00 00
 0.782762 1  252             Rx   d 8 00 00 00 01 00 00 00 00
 0.783834 1  221             Rx   d 8 00 00 00 00 00 00 00 00
 0.784084 1  311             Rx   d 8 00 00 02 26 00 00 02 63
 0.784730 1  253             Rx   d 8 00 00 00 00 00 00 00 00
 0.786759 1  254             Rx   d 8 00 00 00 02 00 00 00 00
 0.788784 1  241             Rx   d 8 AA 00 00 00 00 00 00 E7
 0.790728 1  262             Rx   d 8 01 28 00 1C 1E 00 00 00
 0.800772 1  251             Rx   d 8 00 00 00 00 00 00 00 00
 0.801768 1  263             Rx   d 8 01 29 00 1C 1E 00 00 00
 0.802757 1  252             Rx   d 8 00 00 00 01 00 00 00 00
 0.803804 1  221             Rx   d 8 00 00 00 00 00 00 00 00
 0.804052 1  311             Rx   d 8 00 00 02 26 00 00 02 63
 0.804755 1  253             Rx   d 8 00 00 00 00 00 00 00 00
 0.806755 1  254             Rx   d 8 00 00 00 02 00 00 00 00
 0.808755 1  241             Rx   d 8 AA 00 00 00 00 00 00 E8
 0.812794 1  264             Rx   d 8 01 27 00 1C 1E 00 00 00
 0.818823 1  231             Rx   d 8 00 00 00 02 17 00 00 00
 0.820783 1  251             Rx   d 8 00 00 00 00 00 00 00 00
 0.822807 1  252             Rx   d 8 00 00 00 01 00 00 00 00
 0.823814 1  221             Rx   d 8 00 00 00 00 00 00 00 00
 0.824053 1  311             Rx   d 8 00 00 02 26 00 00 02 63
 0.824782 1  253             Rx   d 8 00 00 00 00 00 00 00 00
 0.826784 1  254             Rx   d 8 00 00 00 02 00 00 00 00
 0.828806 1  241             Rx   d 8 AA 00 00 00 00 00 00 E9
 0.840784 1  251             Rx   d 8 00 00 00 00 00 00 00 00
 0.842781 1  252             Rx   d 8 00 00 00 01 00 00 00 00
 0.843831 1  221             Rx   d 8 00 00 00 00 00 00 00 00
 0.844053 1  311             Rx   d 8 00 00 02 26 00 00 02 63
 0.844780 1  253             Rx   d 8 00 00 00 00 00 00 00 00
 0.846805 1  254             Rx   d 8 00 00 00 02 00 00 00 00
 0.848808 1  241             Rx   d 8 AA 00 00 00 00 00 00 EA
 0.860811 1  251             Rx   d 8 00 00 00 00 00 00 00 00
 0.862808 1  252             Rx   d 8 00 00 00 01 00 00 00 00
 0.863830 1  221             Rx   d 8 00 00 00 00 00 00 00 00
 0.864077 1  311             Rx   d 8 00 00 02 26 00 00 02 63
 0.864806 1  253             Rx   d 8 00 00 00 00 00 00 00 00
 0.866832 1  254             Rx   d 8 00 00 00 02 00 00 00 00
 0.868856 1  241             Rx   d 8 AA 00 00 00 00 00 00 EB
 0.879837 1  261             Rx   d 8 01 29 00 1C 1E 00 00 00
 0.880833 1  251             Rx   d 8 00 00 00 00 00 00 00 00
 0.882831 1  252             Rx   d 8 00 00 00 01 00 00 00 00
 0.883831 1  221             Rx   d 8 00 00 00 00 00 00 00 00
 0.884079 1  311             Rx   d 8 00 00 02 26 00 00 02 63
 0.884881 1  253             Rx   d 8 00 00 00 00 00 00 00 00
 0.886837 1  254             Rx   d 8 00 00 00 02 00 00 00 00
 0.888931 1  241             Rx   d 8 AA 00 00 00 00 00 00 EC
 0.890863 1  262             Rx   d 8 01 28 00 1C 1E 00 00 00
 0.898973 1  211             Rx   d 8 00 01 01 1E 00 00 00 00
 0.900897 1  251             Rx   d 8 00 00 00 00 00 00 00 00
 0.901876 1  263             Rx   d 8 01 29 00 1C 1E 00 00 00
 0.902856 1  252             Rx   d 8 00 00 00 01 00 00 00 00
 0.903806 1  221             Rx   d 8 00 00 00 00 00 00 00 00
 0.904053 1  311             Rx   d 8 00 00 02 26 00 00 02 63
 0.904856 1  253             Rx   d 8 00 00 00 00 00 00 00 00
 0.906856 1  254             Rx   d 8 00 00 00 02 00 00 00 00
 0.908906 1  241             Rx   d 8 AA 00 00 00 00 00 00 ED
 0.912857 1  264             Rx   d 8 01 27 00 1C 1E 00 00 00
 0.920888 1  251             Rx   d 8 00 00 00 00 00 00 00 00
 0.922916 1  252             Rx   d 8 00 00 00 01 00 00 00 00
 0.923865 1  221             Rx   d 8 00 00 00 00 00 00 00 00
 0.924090 1  311             Rx   d 8 00 00 02 26 00 00 02 63
 0.924915 1  253             Rx   d 8 00 00 00 00 00 00 00 00
 0.926915 1  254             Rx   d 8 00 00 00 02 00 00 00 00
 0.928916 1  241             Rx   d 8 AA 00 00 00 00 00 00 EE
 0.940931 1  251             Rx   d 8 00 00 00 00 00 00 00 00
 0.942951 1  252             Rx   d 8 00 00 00 01 00 00 00 00
 0.943867 1  221             Rx   d 8 00 00 00 00 00 00 00 00
 0.944109 1  311             Rx   d 8 00 00 02 26 00 00 02 63
 0.944943 1  253             Rx   d 8 00 00 00 00 00 00 00 00
 0.946913 1  254             Rx   d 8 00 00 00 02 00 00 00 00
 0.948959 1  241             Rx   d 8 AA 00 00 00 00 00 00 EF
 0.960911 1  251             Rx   d 8 00 00 00 00 00 00 00 00
 0.962910 1  252             Rx   d 8 00 00 00 01 00 00 00 00
 0.963832 1  221             Rx   d 8 00 00 00 00 00 00 00 00
 0.964079 1  311             Rx   d 8 00 00 02 26 00 00 02 63
 0.964908 1  253             Rx   d 8 00 00 00 00 00 00 00 00
 0.966934 1  254             Rx   d 8 00 00 00 02 00 00 00 00
 0.969015 1  241             Rx   d 8 AA 00 00 00 00 00 00 F0
 0.979975 1  261             Rx   d 8 01 29 00 1C 1E 00 00 00
 0.980972 1  251             Rx   d 8 00 00 00 00 00 00 00 00
 0.982964 1  252             Rx   d 8 00 00 00 01 00 00 00 00
 0.983863 1  221             Rx   d 8 00 00 00 00 00 00 00 00
 0.984109 1  311             Rx   d 8 00 00 02 26 00 00 02 63
 0.984962 1  253             Rx   d 8 00 00 00 00 00 00 00 00
 0.986962 1  254             Rx   d 8 00 00 00 02 00 00 00 00
 0.989012 1  241             Rx   d 8 AA 00 00 00 00 00 00 F1
 0.990962 1  262             Rx   d 8 01 29 00 1C 1E 00 00 00
 1.000998 1  251             Rx   d 8 00 00 00 00 00 00 00 00
 1.001999 1  263             Rx   d 8 01 29 00 1C 1E 00 00 00
 1.002996 1  252             Rx   d 8 00 00 00 01 00 00 00 00
 1.003873 1  221             Rx   d 8 00 00 00 00 00 00 00 00
 1.004119 1  311             Rx   d 8 00 00 02 26 00 00 02 63
 1.004997 1  253             Rx   d 8 00 00 00 00 00 00 00 00
 1.006998 1  254             Rx   d 8 00 00 00 02 00 00 00 00
 1.009051 1  241             Rx   d 8 AA 00 00 00 00 00 00 F2
 1.012997 1  264             Rx   d 8 01 27 00 1C 1E 00 00 00
 1.021024 1  251             Rx   d 8 00 00 00 00 00 00 00 00
 1.023022 1  252             Rx   d 8 00 00 00 01 00 00 00 00
 1.023873 1  221             Rx   d 8 00 00 00 00 00 00 00 00
 1.024121 1  311             Rx   d 8 00 00 02 26 00 00 02 63
 1.025022 1  253             Rx   d 8 00 00 00 00 00 00 00 00
 1.027017 1  254             Rx   d 8 00 00 00 02 00 00 00 00
 1.029042 1  241             Rx   d 8 AA 00 00 00 00 00 00 F3
 1.041024 1  251             Rx   d 8 00 00 00 00 00 00 00 00
 1.043019 1  252             Rx   d 8 00 00 00 01 00 00 00 00
 1.043870 1  221             Rx   d 8 00 00 00 00 00 00 00 00
 1.044117 1  311             Rx   d 8 00 00 02 26 00 00 02 63
 1.045018 1  253             Rx   d 8 00 00 00 00 00 00 00 00
 1.047048 1  254             Rx   d 8 00 00 00 02 00 00 00 00
 1.049071 1  241             Rx   d 8 AA 00 00 00 00 00 00 F4
 1.061048 1  251             Rx   d 8 00 00 00 00 00 00 00 00
 1.063042 1  252             Rx   d 8 00 00 00 01 00 00 00 00
 1.063874 1  221             Rx   d 8 00 00 00 00 00 00 00 00
 1.064122 1  311             Rx   d 8 00 00 02 26 00 00 02 63
 1.065073 1  253             Rx   d 8 00 00 00 00 00 00 00 00
 1.067037 1  254             Rx   d 8 00 00 00 02 00 00 00 00
 1.069097 1  241             Rx   d 8 AA 00 00 00 00 00 00 F5
 1.080067 1  261             Rx   d 8 01 29 00 1C 1E 00 00 00
 1.081070 1  251             Rx   d 8 00 00 00 00 00 00 00 00
 1.083093 1  252             Rx   d 8 00 00 00 01 00 00 00 00
 1.083868 1  221             Rx   d 8 00 00 00 00 00 00 00 00
 1.084116 1  311             Rx   d 8 00 00 02 26 00 00 02 63
 1.085080 1  253             Rx   d 8 00 00 00 00 00 00 00 00
 1.087073 1  254             Rx   d 8 00 00 00 02 00 00 00 00
 1.089125 1  241             Rx   d 8 AA 00 00 00 00 00 00 F6
 1.091076 1  262             Rx   d 8 01 29 00 1C 1E 00 00 00
 1.099152 1  211             Rx   d 8 00 01 01 1E 00 00 00 00
 1.101070 1  251             Rx   d 8 00 00 00 00 00 00 00 00
 1.102066 1  263             Rx   d 8 01 29 00 1C 1E 00 00 00
 1.103100 1  252             Rx   d 8 00 00 00 01 00 00 00 00
 1.103876 1  221             Rx   d 8 00 00 00 00 00 00 00 00
 1.104124 1  311             Rx   d 8 00 00 02 26 00 00 02 63
 1.105098 1  253             Rx   d 8 00 00 00 00 00 00 00 00
 1.107099 1  254             Rx   d 8 00 00 00 02 00 00 00 00
 1.109119 1  241             Rx   d 8 AA 00 00 00 00 00 00 F7
 1.113097 1  264             Rx   d 8 01 27 00 1C 1E 00 00 00
 1.121089 1  251             Rx   d 8 00 00 00 00 00 00 00 00
 1.123091 1  252             Rx   d 8 00 00 00 01 00 00 00 00
 1.123837 1  221             Rx   d 8 00 00 00 00 00 00 00 00
 1.124084 1  311             Rx   d 8 00 00 02 26 00 00 02 63
 1.125103 1  253             Rx   d 8 00 00 00 00 00 00 00 00
 1.127088 1  254             Rx   d 8 00 00 00 02 00 00 00 00
 1.129136 1  241             Rx   d 8 AA 00 00 00 00 00 00 F8
 1.141120 1  251             Rx   d 8 00 00 00 00 00 00 00 00
 1.143124 1  252             Rx   d 8 00 00 00 01 00 00 00 00
 1.143893 1  221             Rx   d 8 00 00 00 00 00 00 00 00
 1.144131 1  311             Rx   d 8 00 00 02 26 00 00 02 63
 1.145125 1  253             Rx   d 8 00 00 00 00 00 00 00 00
 1.147124 1  254             Rx   d 8 00 00 00 02 00 00 00 00
 1.149168 1  241             Rx   d 8 AA 00 00 00 00 00 00 F9
 1.161121 1  251             Rx   d 8 00 00 00 00 00 00 00 00
 1.163120 1  252             Rx   d 8 00 00 00 01 00 00 00 00
 1.163863 1  221             Rx   d 8 00 00 00 00 00 00 00 00
 1.164085 1  311             Rx   d 8 00 00 02 26 00 00 02 63
 1.165117 1  253             Rx   d 8 00 00 00 00 00 00 00 00
 1.167114 1  254             Rx   d 8 00 00 00 02 00 00 00 00
 1.169140 1  241             Rx   d 8 AA 00 00 00 00 00 00 FA
 1.180144 1  261             Rx   d 8 01 29 00 1C 1E 00 00 00
 1.181139 1  251             Rx   d 8 00 00 00 00 00 00 00 00
 1.183141 1  252             Rx   d 8 00 00 00 01 00 00 00 00
 1.183886 1  221             Rx   d 8 00 00 00 00 00 00 00 00
 1.184087 1  311             Rx   d 8 00 00 02 26 00 00 02 63
 1.185160 1  253             Rx   d 8 00 00 00 00 00 00 00 00
 1.187145 1  254             Rx   d 8 00 00 00 02 00 00 00 00
 1.189194 1  241             Rx   d 8 AA 00 00 00 00 00 00 FB
 1.191141 1  262             Rx   d 8 01 28 00 1C 1E 00 00 00
 1.201164 1  251             Rx   d 8 00 00 00 00 00 00 00 00
 1.202139 1  263             Rx   d 8 01 29 00 1C 1E 00 00 00
 1.203165 1  252             Rx   d 8 00 00 00 01 00 00 00 00
 1.203878 1  221             Rx   d 8 00 00 00 00 00 00 00 00
 1.204087 1  311             Rx   d 8 00 00 02 26 00 00 02 63
 1.205196 1  253             Rx   d 8 00 00 00 00 00 00 00 00
 1.207165 1  254             Rx   d 8 00 00 00 02 00 00 00 00
 1.209214 1  241             Rx   d 8 AA 00 00 00 00 00 00 FC
 1.213165 1  264             Rx   d 8 01 27 00 1C 1E 00 00 00
 1.221191 1  251             Rx   d 8 00 00 00 00 00 00 00 00
 1.223191 1  252             Rx   d 8 00 00 00 01 00 00 00 00
 1.223863 1  221             Rx   d 8 00 00 00 00 00 00 00 00
 1.224111 1  311             Rx   d 8 00 00 02 26 00 00 02 63
 1.225190 1  253             Rx   d 8 00 00 00 00 00 00 00 00
 1.227190 1  254             Rx   d 8 00 00 00 02 00 00 00 00
 1.229215 1  241             Rx   d 8 AA 00 00 00 00 00 00 FD
 1.241223 1  251             Rx   d 8 00 00 00 00 00 00 00 00
 1.243221 1  252             Rx   d 8 00 00 00 01 00 00 00 00
 1.243897 1  221             Rx   d 8 00 00 00 00 00 00 00 00
 1.244131 1  311             Rx   d 8 00 00 02 26 00 00 02 63
 1.245222 1  253             Rx   d 8 00 00 00 00 00 00 00 00
 1.247254 1  254             Rx   d 8 00 00 00 02 00 00 00 00
 1.249254 1  241             Rx   d 8 AA 00 00 00 00 00 00 FE
 1.261245 1  251             Rx   d 8 00 00 00 00 00 00 00 00
 1.263247 1  252             Rx   d 8 00 00 00 01 00 00 00 00
 1.263863 1  221             Rx   d 8 00 00 00 00 00 00 00 00
 1.264112 1  311             Rx   d 8 00 00 02 26 00 00 02 63
 1.265214 1  253             Rx   d 8 00 00 00 00 00 00 00 00
 1.267241 1  254             Rx   d 8 00 00 00 02 00 00 00 00
 1.269295 1  241             Rx   d 8 AA 00 00 00 00 00 00 FF
 1.280286 1  261             Rx   d 8 01 2A 00 1C 1E 00 00 00
 1.281245 1  251             Rx   d 8 00 00 00 00 00 00 00 00
 1.283240 1  252             Rx   d 8 00 00 00 01 00 00 00 00
 1.283900 1  221             Rx   d 8 00 00 00 00 00 00 00 00
 1.284151 1  311             Rx   d 8 00 00 02 26 00 00 02 63
 1.285275 1  253             Rx   d 8 00 00 00 00 00 00 00 00
 1.287244 1  254             Rx   d 8 00 00 00 02 00 00 00 00
 1.289300 1  241             Rx   d 8 AA 00 00 00 00 00 00 00
 1.291244 1  262             Rx   d 8 01 28 00 1C 1E 00 00 00
 1.299335 1  211             Rx   d 8 00 01 01 1E 00 00 00 00
 1.301269 1  251             Rx   d 8 00 00 00 00 00 00 00 00
 1.302266 1  263             Rx   d 8 01 29 00 1C 1E 00 00 00
 1.303267 1  252             Rx   d 8 00 00 00 01 00 00 00 00
 1.303865 1  221             Rx   d 8 00 00 00 00 00 00 00 00
 1.304113 1  311             Rx   d 8 00 00 02 26 00 00 02 63
 1.305265 1  253             Rx   d 8 00 00 00 00 00 00 00 00
 1.307267 1  254             Rx   d 8 00 00 00 02 00 00 00 00
 1.309319 1  241             Rx   d 8 AA 00 00 00 00 00 00 01
 1.313297 1  264             Rx   d 8 01 28 00 1C 1E 00 00 00
 1.319371 1  231             Rx   d 8 00 00 00 02 2B 00 00 00
 1.321293 1  251             Rx   d 8 00 00 00 00 00 00 00 00
 1.323320 1  252             Rx   d 8 00 00 00 01 00 00 00 00
 1.323900 1  221             Rx   d 8 00 00 00 00 00 00 00 00
 1.324142 1  311             Rx   d 8 00 00 02 26 00 00 02 63
 1.325294 1  253             Rx   d 8 00 00 00 00 00 00 00 00
 1.327294 1  254             Rx   d 8 00 00 00 02 00 00 00 00
 1.329368 1  241             Rx   d 8 AA 00 00 00 00 00 00 02
 1.341321 1  251             Rx   d 8 00 00 00 00 00 00 00 00
 1.343342 1  252             Rx   d 8 00 00 00 01 00 00 00 00
 1.343869 1  221             Rx   d 8 00 00 00 00 00 00 00 00
 1.344143 1  311             Rx   d 8 00 00 02 26 00 00 02 63
 1.345328 1  253             Rx   d 8 00 00 00 00 00 00 00 00
 1.347326 1  254             Rx   d 8 00 00 00 02 00 00 00 00
 1.349350 1  241             Rx   d 8 AA 00 00 00 00 00 00 03
 1.361319 1  251             Rx   d 8 00 00 00 00 00 00 00 00
 1.363318 1  252             Rx   d 8 00 00 00 01 00 00 00 00
 1.363868 1  221             Rx   d 8 00 00 00 00 00 00 00 00
 1.364115 1  311             Rx   d 8 00 00 02 26 00 00 02 63
 1.365316 1  253             Rx   d 8 00 00 00 00 00 00 00 00
 1.367375 1  254             Rx   d 8 00 00 00 02 00 00 00 00
 1.369394 1  241             Rx   d 8 AA 00 00 00 00 00 00 04
 1.380345 1  261             Rx   d 8 01 29 00 1C 1E 00 00 00
 1.381342 1  251             Rx   d 8 00 00 00 00 00 00 00 00
 1.383344 1  252             Rx   d 8 00 00 00 01 00 00 00 00
 1.383893 1  221             Rx   d 8 00 00 00 00 00 00 00 00
 1.384115 1  311             Rx   d 8 00 00 02 26 00 00 02 63
 1.385341 1  253             Rx   d 8 00 00 00 00 00 00 00 00
 1.387368 1  254             Rx   d 8 00 00 00 02 00 00 00 00
 1.389427 1  241             Rx   d 8 AA 00 00 00 00 00 00 05
 1.391350 1  262             Rx   d 8 01 28 00 1C 1E 00 00 00
 1.401373 1  251             Rx   d 8 00 00 00 00 00 00 00 00
 1.402348 1  263             Rx   d 8 01 29 00 1C 1E 00 00 00
 1.403374 1  252             Rx   d 8 00 00 00 01 00 00 00 00
 1.403871 1  221             Rx   d 8 00 00 00 00 00 00 00 00
 1.404118 1  311             Rx   d 8 00 00 02 26 00 00 02 63
 1.405372 1  253             Rx   d 8 00 00 00 00 00 00 00 00
 1.407373 1  254             Rx   d 8 00 00 00 02 00 00 00 00
 1.409419 1  241             Rx   d 8 AA 00 00 00 00 00 00 06
 1.413371 1  264             Rx   d 8 01 27 00 1C 1E 00 00 00
 1.421372 1  251             Rx   d 8 00 00 00 00 00 00 00 00
 1.423397 1  252             Rx   d 8 00 00 00 01 00 00 00 00
 1.423895 1  221             Rx   d 8 00 00 00 00 00 00 00 00
 1.424117 1  311             Rx   d 8 00 00 02 26 00 00 02 63
 1.425396 1  253             Rx   d 8 00 00 00 00 00 00 00 00
 1.427396 1  254             Rx   d 8 00 00 00 02 00 00 00 00
 1.429445 1  241             Rx   d 8 AA 00 00 00 00 00 00 07
 1.441431 1  251             Rx   d 8 00 00 00 00 00 00 00 00
 1.443395 1  252             Rx   d 8 00 00 00 01 00 00 00 00
 1.443894 1  221             Rx   d 8 00 00 00 00 00 00 00 00
 1.444141 1  311             Rx   d 8 00 00 02 26 00 00 02 63
 1.445395 1  253             Rx   d 8 00 00 00 00 00 00 00 00
 1.447405 1  254             Rx   d 8 00 00 00 02 00 00 00 00
 1.449460 1  241             Rx   d 8 AA 00 00 00 00 00 00 08
 1.461449 1  251             Rx   d 8 00 00 00 00 00 00 00 00
 1.463474 1  252             Rx   d 8 00 00 00 01 00 00 00 00
 1.463929 1  221             Rx   d 8 00 00 00 00 00 00 00 00
 1.464119 1  311             Rx   d 8 00 00 02 26 00 00 02 63
 1.465419 1  253             Rx   d 8 00 00 00 00 00 00 00 00
 1.467454 1  254             Rx   d 8 00 00 00 02 00 00 00 00
 1.469503 1  241             Rx   d 8 AA 00 00 00 00 00 00 09
 1.480481 1  261             Rx   d 8 01 29 00 1C 1E 00 00 00
 1.481447 1  251             Rx   d 8 00 00 00 00 00 00 00 00
 1.483473 1  252             Rx   d 8 00 00 00 01 00 00 00 00
 1.483945 1  221             Rx   d 8 00 00 00 00 00 00 00 00
 1.484169 1  311             Rx   d 8 00 00 02 26 00 00 02 63
 1.485445 1  253             Rx   d 8 00 00 00 00 00 00 00 00
 1.487477 1  254             Rx   d 8 00 00 00 02 00 00 00 00
 1.489505 1  241             Rx   d 8 AA 00 00 00 00 00 00 0A
 1.491448 1  262             Rx   d 8 01 28 00 1C 1E 00 00 00
 1.499530 1  211             Rx   d 8 00 01 01 1E 00 00 00 00
 1.501503 1  251             Rx   d 8 00 00 00 00 00 00 00 00
 1.502484 1  263             Rx   d 8 01 29 00 1C 1E 00 00 00
 1.503509 1  252             Rx   d 8 00 00 00 01 00 00 00 00
 1.503927 1  221             Rx   d 8 00 00 00 00 00 00 00 00
 1.504181 1  311             Rx   d 8 00 00 02 26 00 00 02 63
 1.505508 1  253             Rx   d 8 00 00 00 00 00 00 00 00
 1.507501 1  254             Rx   d 8 00 00 00 02 00 00 00 00
 1.509554 1  241             Rx   d 8 AA 00 00 00 00 00 00 0B
 1.513495 1  264             Rx   d 8 01 27 00 1C 1E 00 00 00
 1.521513 1  251             Rx   d 8 00 00 00 00 00 00 00 00
 1.523497 1  252             Rx   d 8 00 00 00 01 00 00 00 00
 1.523895 1  221             Rx   d 8 00 00 00 00 00 00 00 00
 1.524149 1  311             Rx   d 8 00 00 02 26 00 00 02 63
 1.525512 1  253             Rx   d 8 00 00 00 00 00 00 00 00
 1.527532 1  254             Rx   d 8 00 00 00 02 00 00 00 00
 1.529556 1  241             Rx   d 8 AA 00 00 00 00 00 00 0C
 1.541526 1  251             Rx   d 8 00 00 00 00 00 00 00 00
 1.543556 1  252             Rx   d 8 00 00 00 01 00 00 00 00
 1.543930 1  221             Rx   d 8 00 00 00 00 00 00 00 00
 1.544177 1  311             Rx   d 8 00 00 02 26 00 00 02 63
 1.545526 1  253             Rx   d 8 00 00 00 00 00 00 00 00
 1.547531 1  254             Rx   d 8 00 00 00 02 00 00 00 00
 1.549552 1  241             Rx   d 8 AA 00 00 00 00 00 00 0D
 1.561553 1  251             Rx   d 8 00 00 00 00 00 00 00 00
 1.563556 1  252             Rx   d 8 00 00 00 01 00 00 00 00
 1.563926 1  221             Rx   d 8 00 00 00 00 00 00 00 00
 1.564177 1  311             Rx   d 8 00 00 02 26 00 00 02 63
 1.565550 1  253             Rx   d 8 00 00 00 00 00 00 00 00
 1.567557 1  254             Rx   d 8 00 00 00 02 00 00 00 00
 1.569602 1  241             Rx   d 8 AA 00 00 00 00 00 00 0E
 1.580580 1  261             Rx   d 8 01 29 00 1C 1E 00 00 00
 1.581579 1  251             Rx   d 8 00 00 00 00 00 00 00 00
 1.583584 1  252             Rx   d 8 00 00 00 01 00 00 00 00
 1.583943 1  221             Rx   d 8 00 00 00 00 00 00 00 00
 1.584183 1  311             Rx   d 8 00 00 02 26 00 00 02 63
 1.585584 1  253             Rx   d 8 00 00 00 00 00 00 00 00
 1.587585 1  254             Rx   d 8 00 00 00 02 00 00 00 00
 1.589632 1  241             Rx   d 8 AA 00 00 00 00 00 00 0F
 1.591577 1  262             Rx   d 8 01 28 00 1C 1E 00 00 00
 1.601610 1  251             Rx   d 8 00 00 00 00 00 00 00 00
 1.602607 1  263             Rx   d 8 01 29 00 1C 1E 00 00 00
 1.603606 1  252             Rx   d 8 00 00 00 01 00 00 00 00
 1.603932 1  221             Rx   d 8 00 00 00 00 00 00 00 00
 1.604176 1  311             Rx   d 8 00 00 02 26 00 00 02 63
 1.605612 1  253             Rx   d 8 00 00 00 00 00 00 00 00
 1.607608 1  254             Rx   d 8 00 00 00 02 00 00 00 00
 1.609658 1  241             Rx   d 8 AA 00 00 00 00 00 00 10
 1.613608 1  264             Rx   d 8 01 27 00 1C 1E 00 00 00
 1.621612 1  251             Rx   d 8 00 00 00 00 00 00 00 00
 1.623598 1  252             Rx   d 8 00 00 00 01 00 00 00 00
 1.623897 1  221             Rx   d 8 00 00 00 00 00 00 00 00
 1.624181 1  311             Rx   d 8 00 00 02 26 00 00 02 63
 1.625606 1  253             Rx   d 8 00 00 00 00 00 00 00 00
 1.627636 1  254             Rx   d 8 00 00 00 02 00 00 00 00
 1.629660 1  241             Rx   d 8 AA 00 00 00 00 00 00 11
 1.641635 1  251             Rx   d 8 00 00 00 00 00 00 00 00
 1.643640 1  252             Rx   d 8 00 00 00 01 00 00 00 00
 1.643923 1  221             Rx   d 8 00 00 00 00 00 00 00 00
 1.644186 1  311             Rx   d 8 00 00 02 26 00 00 02 63
 1.645602 1  253             Rx   d 8 00 00 00 00 00 00 00 00
 1.647601 1  254             Rx   d 8 00 00 00 02 00 00 00 00
 1.649701 1  241             Rx   d 8 AA 00 00 00 00 00 00 12
 1.661628 1  251             Rx   d 8 00 00 00 00 00 00 00 00
 1.663626 1  252             Rx   d 8 00 00 00 01 00 00 00 00
 1.663898 1  221             Rx   d 8 00 00 00 00 00 00 00 00
 1.664146 1  311             Rx   d 8 00 00 02 26 00 00 02 63
 1.665626 1  253             Rx   d 8 00 00 00 00 00 00 00 00
 1.667649 1  254             Rx   d 8 00 00 00 02 00 00 00 00
 1.669700 1  241             Rx   d 8 AA 00 00 00 00 00 00 13
 1.680628 1  261             Rx   d 8 01 2A 00 1C 1E 00 00 00
 1.681699 1  251             Rx   d 8 00 00 00 00 00 00 00 00
 1.683699 1  252             Rx   d 8 00 00 00 01 00 00 00 00
 1.683922 1  221             Rx   d 8 00 00 00 00 00 00 00 00
 1.684170 1  311             Rx   d 8 00 00 02 26 00 00 02 63
 1.685700 1  253             Rx   d 8 00 00 00 00 00 00 00 00
 1.687700 1  254             Rx   d 8 00 00 00 02 00 00 00 00
 1.689699 1  241             Rx   d 8 AA 00 00 00 00 00 00 14
 1.691703 1  262             Rx   d 8 01 28 00 1C 1E 00 00 00
 1.699728 1  211             Rx   d 8 00 01 01 1E 00 00 00 00
 1.701699 1  251             Rx   d 8 00 00 00 00 00 00 00 00
 1.702699 1  263             Rx   d 8 01 29 00 1C 1E 00 00 00
 1.703699 1  252             Rx   d 8 00 00 00 01 00 00 00 00
 1.703922 1  221             Rx   d 8 00 00 00 00 00 00 00 00
 1.704170 1  311             Rx   d 8 00 00 02 26 00 00 02 63
 1.705700 1  253             Rx   d 8 00 00 00 00 00 00 00 00
 1.707700 1  254             Rx   d 8 00 00 00 02 00 00 00 00
 1.709701 1  241             Rx   d 8 AA 00 00 00 00 00 00 15
 1.713701 1  264             Rx   d 8 01 27 00 1C 1E 00 00 00
 1.721702 1  251             Rx   d 8 00 00 00 00 00 00 00 00
 1.723701 1  252             Rx   d 8 00 00 00 01 00 00 00 00
 1.723923 1  221             Rx   d 8 00 00 00 00 00 00 00 00
 1.724171 1  311             Rx   d 8 00 00 02 26 00 00 02 63
 1.725700 1  253             Rx   d 8 00 00 00 00 00 00 00 00
 1.727701 1  254             Rx   d 8 00 00 00 02 00 00 00 00
 1.729726 1  241             Rx   d 8 AA 00 00 00 00 00 00 16
 1.741700 1  251             Rx   d 8 00 00 00 00 00 00 00 00
 1.743701 1  252             Rx   d 8 00 00 00 01 00 00 00 00
 1.743950 1  221             Rx   d 8 00 00 00 00 00 00 00 00
 1.744198 1  311             Rx   d 8 00 00 02 26 00 00 02 63
 1.745701 1  253             Rx   d 8 00 00 00 00 00 00 00 00
 1.747705 1  254             Rx   d 8 00 00 00 02 00 00 00 00
 1.749776 1  241             Rx   d 8 AA 00 00 00 00 00 00 17
 1.761728 1  251             Rx   d 8 00 00 00 00 00 00 00 00
 1.763725 1  252             Rx   d 8 00 00 00 01 00 00 00 00
 1.763974 1  221             Rx   d 8 00 00 00 00 00 00 00 00
 1.764223 1  311             Rx   d 8 00 00 02 26 00 00 02 63
 1.765753 1  253             Rx   d 8 00 00 00 00 00 00 00 00
 1.767727 1  254             Rx   d 8 00 00 00 02 00 00 00 00
 1.769776 1  241             Rx   d 8 AA 00 00 00 00 00 00 18
 1.780758 1  261             Rx   d 8 01 29 00 1C 1E 00 00 00
 1.781754 1  251             Rx   d 8 00 00 00 00 00 00 00 00
 1.783752 1  252             Rx   d 8 00 00 00 01 00 00 00 00
 1.784000 1  221             Rx   d 8 00 00 00 00 00 00 00 00
 1.784248 1  311             Rx   d 8 00 00 02 26 00 00 02 63
 1.785752 1  253             Rx   d 8 00 00 00 00 00 00 00 00
 1.787753 1  254             Rx   d 8 00 00 00 02 00 00 00 00
 1.789777 1  241             Rx   d 8 AA 00 00 00 00 00 00 19
 1.791758 1  262             Rx   d 8 01 28 00 1C 1E 00 00 00
 1.801777 1  251             Rx   d 8 00 00 00 00 00 00 00 00
 1.802752 1  263             Rx   d 8 01 29 00 1C 1E 00 00 00
 1.803777 1  252             Rx   d 8 00 00 00 01 00 00 00 00
 1.804025 1  221             Rx   d 8 00 00 00 00 00 00 00 00
 1.804275 1  311             Rx   d 8 00 00 02 26 00 00 02 63
 1.805777 1  253             Rx   d 8 00 00 00 00 00 00 00 00
 1.807777 1  254             Rx   d 8 00 00 00 02 00 00 00 00
 1.809830 1  241             Rx   d 8 AA 00 00 00 00 00 00 1A
 1.813780 1  264             Rx   d 8 01 27 00 1C 1E 00 00 00
 1.819805 1  231             Rx   d 8 00 00 00 02 3F 00 00 00
 1.821779 1  251             Rx   d 8 00 00 00 00 00 00 00 00
 1.823803 1  252             Rx   d 8 00 00 00 01 00 00 00 00
 1.824026 1  221             Rx   d 8 00 00 00 00 00 00 00 00
 1.824275 1  311             Rx   d 8 00 00 02 26 00 00 02 63
 1.825802 1  253             Rx   d 8 00 00 00 00 00 00 00 00
 1.827801 1  254             Rx   d 8 00 00 00 02 00 00 00 00
 1.829853 1  241             Rx   d 8 AA 00 00 00 00 00 00 1B
 1.841809 1  251             Rx   d 8 00 00 00 00 00 00 00 00
 1.843830 1  252             Rx   d 8 00 00 00 01 00 00 00 00
 1.844076 1  221             Rx   d 8 00 00 00 00 00 00 00 00
 1.844299 1  311             Rx   d 8 00 00 02 26 00 00 02 63
 1.845803 1  253             Rx   d 8 00 00 00 00 00 00 00 00
 1.847805 1  254             Rx   d 8 00 00 00 02 00 00 00 00
 1.849899 1  241             Rx   d 8 AA 00 00 00 00 00 00 1C
 1.861832 1  251             Rx   d 8 00 00 00 00 00 00 00 00
 1.863830 1  252             Rx   d 8 00 00 00 01 00 00 00 00
 1.864076 1  221             Rx   d 8 00 00 00 00 00 00 00 00
 1.864324 1  311             Rx   d 8 00 00 02 26 00 00 02 63
 1.865828 1  253             Rx   d 8 00 00 00 00 00 00 00 00
 1.867831 1  254             Rx   d 8 00 00 00 02 00 00 00 00
 1.869905 1  241             Rx   d 8 AA 00 00 00 00 00 00 1D
 1.880831 1  261             Rx   d 8 01 29 00 1C 1E 00 00 00
 1.881855 1  251             Rx   d 8 00 00 00 00 00 00 00 00
 1.883855 1  252             Rx   d 8 00 00 00 01 00 00 00 00
 1.884102 1  221             Rx   d 8 00 00 00 00 00 00 00 00
 1.884351 1  311             Rx   d 8 00 00 02 26 00 00 02 63
 1.885855 1  253             Rx   d 8 00 00 00 00 00 00 00 00
 1.887854 1  254             Rx   d 8 00 00 00 02 00 00 00 00
 1.889903 1  241             Rx   d 8 AA 00 00 00 00 00 00 1E
 1.891857 1  262             Rx   d 8 01 29 00 1C 1E 00 00 00
 1.899935 1  211             Rx   d 8 00 01 01 1E 00 00 00 00
 1.901881 1  251             Rx   d 8 00 00 00 00 00 00 00 00
 1.902855 1  263             Rx   d 8 01 29 00 1C 1E 00 00 00
 1.903880 1  252             Rx   d 8 00 00 00 01 00 00 00 00
 1.904127 1  221             Rx   d 8 00 00 00 00 00 00 00 00
 1.904350 1  311             Rx   d 8 00 00 02 26 00 00 02 63
 1.905879 1  253             Rx   d 8 00 00 00 00 00 00 00 00
 1.907880 1  254             Rx   d 8 00 00 00 02 00 00 00 00
 1.909905 1  241             Rx   d 8 AA 00 00 00 00 00 00 1F
 1.913882 1  264             Rx   d 8 01 27 00 1C 1E 00 00 00
 1.921884 1  251             Rx   d 8 00 00 00 00 00 00 00 00
 1.923881 1  252             Rx   d 8 00 00 00 01 00 00 00 00
 1.924153 1  221             Rx   d 8 00 00 00 00 00 00 00 00
 1.924376 1  311             Rx   d 8 00 00 02 26 00 00 02 63
 1.925879 1  253             Rx   d 8 00 00 00 00 00 00 00 00
 1.927905 1  254             Rx   d 8 00 00 00 02 00 00 00 00
 1.929933 1  241             Rx   d 8 AA 00 00 00 00 00 00 20
 1.941908 1  251             Rx   d 8 00 00 00 00 00 00 00 00
 1.943930 1  221             Rx   d 8 00 00 00 00 00 00 00 00
 1.944177 1  311             Rx   d 8 00 00 02 26 00 00 02 63
 1.945905 1  253             Rx   d 8 00 00 00 00 00 00 00 00
 1.947943 1  254             Rx   d 8 00 00 00 02 00 00 00 00
 1.949981 1  241             Rx   d 8 AA 00 00 00 00 00 00 21
 1.961935 1  251             Rx   d 8 00 00 00 00 00 00 00 00
 1.963956 1  221             Rx   d 8 00 00 00 00 00 00 00 00
 1.964204 1  311             Rx   d 8 00 00 02 26 00 00 02 63
 1.964451 1  252             Rx   d 8 00 00 00 01 00 00 00 00
 1.965930 1  253             Rx   d 8 00 00 00 00 00 00 00 00
 1.967931 1  254             Rx   d 8 00 00 00 02 00 00 00 00
 1.970006 1  241             Rx   d 8 AA 00 00 00 00 00 00 22
 1.980932 1  261             Rx   d 8 01 29 00 1C 1E 00 00 00
 1.981957 1  251             Rx   d 8 00 00 00 00 00 00 00 00
 1.983957 1  221             Rx   d 8 00 00 00 00 00 00 00 00
 1.984204 1  311             Rx   d 8 00 00 02 26 00 00 02 63
 1.984451 1  252             Rx   d 8 00 00 00 01 00 00 00 00
 1.985956 1  253             Rx   d 8 00 00 00 00 00 00 00 00
 1.987956 1  254             Rx   d 8 00 00 00 02 00 00 00 00
 1.990007 1  241             Rx   d 8 AA 00 00 00 00 00 00 23
 1.991960 1  262             Rx   d 8 01 29 00 1C 1E 00 00 00
 2.001960 1  251             Rx   d 8 00 00 00 00 00 00 00 00
 2.002958 1  263             Rx   d 8 01 29 00 1C 1E 00 00 00
 2.003957 1  221             Rx   d 8 00 00 00 00 00 00 00 00
 2.004180 1  311             Rx   d 8 00 00 02 26 00 00 02 63
 2.004453 1  252             Rx   d 8 00 00 00 01 00 00 00 00
 2.005980 1  253             Rx   d 8 00 00 00 00 00 00 00 00
 2.007980 1  254             Rx   d 8 00 00 00 02 00 00 00 00
 2.010033 1  241             Rx   d 8 AA 00 00 00 00 00 00 24
 2.013983 1  264             Rx   d 8 01 27 00 1C 1E 00 00 00
 2.021988 1  251             Rx   d 8 00 00 00 00 00 00 00 00
 2.023958 1  221             Rx   d 8 00 00 00 00 00 00 00 00
 2.024220 1  311             Rx   d 8 00 00 02 26 00 00 02 63
 2.024451 1  252             Rx   d 8 00 00 00 01 00 00 00 00
 2.026006 1  253             Rx   d 8 00 00 00 00 00 00 00 00
 2.028008 1  254             Rx   d 8 00 00 00 02 00 00 00 00
 2.030033 1  241             Rx   d 8 AA 00 00 00 00 00 00 25
 2.042011 1  251             Rx   d 8 00 00 00 00 00 00 00 00
 2.043958 1  221             Rx   d 8 00 00 00 00 00 00 00 00
 2.044204 1  311             Rx   d 8 00 00 02 26 00 00 02 63
 2.044453 1  252             Rx   d 8 00 00 00 01 00 00 00 00
 2.046007 1  253             Rx   d 8 00 00 00 00 00 00 00 00
 2.048009 1  254             Rx   d 8 00 00 00 02 00 00 00 00
 2.050007 1  241             Rx   d 8 AA 00 00 00 00 00 00 26
 2.062035 1  251             Rx   d 8 00 00 00 00 00 00 00 00
 2.063961 1  221             Rx   d 8 00 00 00 00 00 00 00 00
 2.064210 1  311             Rx   d 8 00 00 02 26 00 00 02 63
 2.064455 1  252             Rx   d 8 00 00 00 01 00 00 00 00
 2.066033 1  253             Rx   d 8 00 00 00 00 00 00 00 00
 2.068033 1  254             Rx   d 8 00 00 00 02 00 00 00 00
 2.070083 1  241             Rx   d 8 AA 00 00 00 00 00 00 27
 2.081062 1  261             Rx   d 8 01 29 00 1C 1E 00 00 00
 2.082059 1  251             Rx   d 8 00 00 00 00 00 00 00 00
 2.083960 1  221             Rx   d 8 00 00 00 00 00 00 00 00
 2.084207 1  311             Rx   d 8 00 00 02 26 00 00 02 63
 2.084455 1  252             Rx   d 8 00 00 00 01 00 00 00 00
 2.086078 1  253             Rx   d 8 00 00 00 00 00 00 00 00
 2.088059 1  254             Rx   d 8 00 00 00 02 00 00 00 00
 2.090111 1  241             Rx   d 8 AA 00 00 00 00 00 00 28
 2.092060 1  262             Rx   d 8 01 28 00 1C 1E 00 00 00
 2.100139 1  211             Rx   d 8 00 01 01 1E 00 00 00 00
 2.102080 1  251             Rx   d 8 00 00 00 00 00 00 00 00
 2.103060 1  263             Rx   d 8 01 29 00 1C 1E 00 00 00
 2.103959 1  221             Rx   d 8 00 00 00 00 00 00 00 00
 2.104207 1  311             Rx   d 8 00 00 02 26 00 00 02 63
 2.104453 1  252             Rx   d 8 00 00 00 01 00 00 00 00
 2.106083 1  253             Rx   d 8 00 00 00 00 00 00 00 00
 2.108085 1  254             Rx   d 8 00 00 00 02 00 00 00 00
 2.110111 1  241             Rx   d 8 AA 00 00 00 00 00 00 29
 2.114085 1  264             Rx   d 8 01 27 00 1C 1E 00 00 00
 2.122087 1  251             Rx   d 8 00 00 00 00 00 00 00 00
 2.123960 1  221             Rx   d 8 00 00 00 00 00 00 00 00
 2.124209 1  311             Rx   d 8 00 00 02 26 00 00 02 63
 2.124476 1  252             Rx   d 8 00 00 00 01 00 00 00 00
 2.126084 1  253             Rx   d 8 00 00 00 00 00 00 00 00
 2.128109 1  254             Rx   d 8 00 00 00 02 00 00 00 00
 2.130160 1  241             Rx   d 8 AA 00 00 00 00 00 00 2A
 2.142113 1  251             Rx   d 8 00 00 00 00 00 00 00 00
 2.143961 1  221             Rx   d 8 00 00 00 00 00 00 00 00
 2.144208 1  311             Rx   d 8 00 00 02 26 00 00 02 63
 2.144456 1  252             Rx   d 8 00 00 00 01 00 00 00 00
 2.146109 1  253             Rx   d 8 00 00 00 00 00 00 00 00
 2.148134 1  254             Rx   d 8 00 00 00 02 00 00 00 00
 2.150185 1  241             Rx   d 8 AA 00 00 00 00 00 00 2B
 2.162138 1  251             Rx   d 8 00 00 00 00 00 00 00 00
 2.163965 1  221             Rx   d 8 00 00 00 00 00 00 00 00
 2.164210 1  311             Rx   d 8 00 00 02 26 00 00 02 63
 2.164458 1  252             Rx   d 8 00 00 00 01 00 00 00 00
 2.166146 1  253             Rx   d 8 00 00 00 00 00 00 00 00
 2.168137 1  254             Rx   d 8 00 00 00 02 00 00 00 00
 2.170210 1  241             Rx   d 8 AA 00 00 00 00 00 00 2C
 2.181137 1  261             Rx   d 8 01 29 00 1C 1E 00 00 00
 2.182163 1  251             Rx   d 8 00 00 00 00 00 00 00 00
 2.183962 1  221             Rx   d 8 00 00 00 00 00 00 00 00
 2.184209 1  311             Rx   d 8 00 00 02 26 00 00 02 63
 2.184458 1  252             Rx   d 8 00 00 00 01 00 00 00 00
 2.186160 1  253             Rx   d 8 00 00 00 00 00 00 00 00
 2.188161 1  254             Rx   d 8 00 00 00 02 00 00 00 00
 2.190212 1  241             Rx   d 8 AA 00 00 00 00 00 00 2D
 2.192163 1  262             Rx   d 8 01 28 00 1C 1E 00 00 00
 2.202189 1  251             Rx   d 8 00 00 00 00 00 00 00 00
 2.203186 1  263             Rx   d 8 01 29 00 1C 1E 00 00 00
 2.203961 1  221             Rx   d 8 00 00 00 00 00 00 00 00
 2.204209 1  311             Rx   d 8 00 00 02 26 00 00 02 63
 2.204456 1  252             Rx   d 8 00 00 00 01 00 00 00 00
 2.206187 1  253             Rx   d 8 00 00 00 00 00 00 00 00
 2.208186 1  254             Rx   d 8 00 00 00 02 00 00 00 00
 2.210237 1  241             Rx   d 8 AA 00 00 00 00 00 00 2E
 2.214186 1  264             Rx   d 8 01 27 00 1C 1E 00 00 00
 2.222188 1  251             Rx   d 8 00 00 00 00 00 00 00 00
 2.223987 1  221             Rx   d 8 00 00 00 00 00 00 00 00
 2.224210 1  311             Rx   d 8 00 00 02 26 00 00 02 63
 2.224458 1  252             Rx   d 8 00 00 00 01 00 00 00 00
 2.226189 1  253             Rx   d 8 00 00 00 00 00 00 00 00
 2.228211 1  254             Rx   d 8 00 00 00 02 00 00 00 00
 2.230260 1  241             Rx   d 8 AA 00 00 00 00 00 00 2F
 2.242214 1  251             Rx   d 8 00 00 00 00 00 00 00 00
 2.243988 1  221             Rx   d 8 00 00 00 00 00 00 00 00
 2.244211 1  311             Rx   d 8 00 00 02 26 00 00 02 63
 2.244458 1  252             Rx   d 8 00 00 00 01 00 00 00 00
 2.246237 1  253             Rx   d 8 00 00 00 00 00 00 00 00
 2.248212 1  254             Rx   d 8 00 00 00 02 00 00 00 00
 2.250265 1  241             Rx   d 8 AA 00 00 00 00 00 00 30
 2.262240 1  251             Rx   d 8 00 00 00 00 00 00 00 00
 2.263988 1  221             Rx   d 8 00 00 00 00 00 00 00 00
 2.264235 1  311             Rx   d 8 00 00 02 26 00 00 02 63
 2.264482 1  252             Rx   d 8 00 00 00 01 00 00 00 00
 2.266240 1  253             Rx   d 8 00 00 00 00 00 00 00 00
 2.268243 1  254             Rx   d 8 00 00 00 02 00 00 00 00
 2.270315 1  241             Rx   d 8 AA 00 00 00 00 00 00 31
 2.281243 1  261             Rx   d 8 01 29 00 1C 1E 00 00 00
 2.282265 1  251             Rx   d 8 00 00 00 00 00 00 00 00
 2.283989 1  221             Rx   d 8 00 00 00 00 00 00 00 00
 2.284235 1  311             Rx   d 8 00 00 02 26 00 00 02 63
 2.284459 1  252             Rx   d 8 00 00 00 01 00 00 00 00
 2.286264 1  253             Rx   d 8 00 00 00 00 00 00 00 00
 2.288265 1  254             Rx   d 8 00 00 00 02 00 00 00 00
 2.290313 1  241             Rx   d 8 AA 00 00 00 00 00 00 32
 2.292265 1  262             Rx   d 8 01 28 00 1C 1E 00 00 00
 2.300317 1  211             Rx   d 8 00 01 01 1E 00 00 00 00
 2.302265 1  251             Rx   d 8 00 00 00 00 00 00 00 00
 2.303263 1  263             Rx   d 8 01 29 00 1C 1E 00 00 00
 2.303987 1  221             Rx   d 8 00 00 00 00 00 00 00 00
 2.304235 1  311             Rx   d 8 00 00 02 26 00 00 02 63
 2.304484 1  252             Rx   d 8 00 00 00 01 00 00 00 00
 2.306264 1  253             Rx   d 8 00 00 00 00 00 00 00 00
 2.308293 1  254             Rx   d 8 00 00 00 02 00 00 00 00
 2.310315 1  241             Rx   d 8 AA 00 00 00 00 00 00 33
 2.314357 1  264             Rx   d 8 01 28 00 1C 1E 00 00 00
 2.320368 1  231             Rx   d 8 00 00 00 02 53 00 00 00
 2.322295 1  251             Rx   d 8 00 00 00 00 00 00 00 00
 2.323989 1  221             Rx   d 8 00 00 00 00 00 00 00 00
 2.324236 1  311             Rx   d 8 00 00 02 26 00 00 02 63
 2.324484 1  252             Rx   d 8 00 00 00 01 00 00 00 00
 2.326291 1  253             Rx   d 8 00 00 00 00 00 00 00 00
 2.328314 1  254             Rx   d 8 00 00 00 02 00 00 00 00
 2.330340 1  241             Rx   d 8 AA 00 00 00 00 00 00 34
 2.342317 1  251             Rx   d 8 00 00 00 00 00 00 00 00
 2.343991 1  221             Rx   d 8 00 00 00 00 00 00 00 00
 2.344238 1  311             Rx   d 8 00 00 02 26 00 00 02 63
 2.344486 1  252             Rx   d 8 00 00 00 01 00 00 00 00
 2.346314 1  253             Rx   d 8 00 00 00 00 00 00 00 00
 2.348315 1  254             Rx   d 8 00 00 00 02 00 00 00 00
 2.350370 1  241             Rx   d 8 AA 00 00 00 00 00 00 35
 2.362343 1  251             Rx   d 8 00 00 00 00 00 00 00 00
 2.363992 1  221             Rx   d 8 00 00 00 00 00 00 00 00
 2.364238 1  311             Rx   d 8 00 00 02 26 00 00 02 63
 2.364485 1  252             Rx   d 8 00 00 00 01 00 00 00 00
 2.366348 1  253             Rx   d 8 00 00 00 00 00 00 00 00
 2.368341 1  254             Rx   d 8 00 00 00 02 00 00 00 00
 2.370391 1  241             Rx   d 8 AA 00 00 00 00 00 00 36
 2.381344 1  261             Rx   d 8 01 29 00 1C 1E 00 00 00
 2.382367 1  251             Rx   d 8 00 00 00 00 00 00 00 00
 2.383991 1  221             Rx   d 8 00 00 00 00 00 00 00 00
 2.384239 1  311             Rx   d 8 00 00 02 26 00 00 02 63
 2.384487 1  252             Rx   d 8 00 00 00 02 00 00 00 00
 2.386365 1  253             Rx   d 8 00 00 00 00 00 00 00 00
 2.388365 1  254             Rx   d 8 00 00 00 02 00 00 00 00
 2.390416 1  241             Rx   d 8 AA 00 00 00 00 00 00 37
 2.392366 1  262             Rx   d 8 01 29 00 1C 1E 00 00 00
 2.402394 1  251             Rx   d 8 00 00 00 00 00 00 00 00
 2.403368 1  263             Rx   d 8 01 29 00 1C 1E 00 00 00
 2.403990 1  221             Rx   d 8 00 00 00 00 00 00 00 00
 2.404238 1  311             Rx   d 8 00 00 02 26 00 00 02 63
 2.404488 1  252             Rx   d 8 00 00 00 02 00 00 00 00
 2.406394 1  253             Rx   d 8 00 00 00 00 00 00 00 00
 2.408389 1  254             Rx   d 8 00 00 00 02 00 00 00 00
 2.410441 1  241             Rx   d 8 AA 00 00 00 00 00 00 38
 2.414391 1  264             Rx   d 8 01 27 00 1C 1E 00 00 00
 2.422396 1  251             Rx   d 8 00 00 00 00 00 00 00 00
 2.423992 1  221             Rx   d 8 00 00 00 00 00 00 00 00
 2.424239 1  311             Rx   d 8 00 00 02 26 00 00 02 63
 2.424487 1  252             Rx   d 8 00 00 00 02 00 00 00 00
 2.426391 1  253             Rx   d 8 00 00 00 00 00 00 00 00
 2.428415 1  254             Rx   d 8 00 00 00 02 00 00 00 00
 2.430444 1  241             Rx   d 8 AA 00 00 00 00 00 00 39
 2.442422 1  251             Rx   d 8 00 00 00 00 00 00 00 00
 2.444016 1  221             Rx   d 8 00 00 00 00 00 00 00 00
 2.444238 1  311             Rx   d 8 00 00 02 26 00 00 02 63
 2.444487 1  252             Rx   d 8 00 00 00 01 00 00 00 00
 2.446440 1  253             Rx   d 8 00 00 00 00 00 00 00 00
 2.448417 1  254             Rx   d 8 00 00 00 02 00 00 00 00
 2.450465 1  241             Rx   d 8 AA 00 00 00 00 00 00 3A
 2.462446 1  251             Rx   d 8 00 00 00 00 00 00 00 00
 2.464017 1  221             Rx   d 8 00 00 00 00 00 00 00 00
 2.464240 1  311             Rx   d 8 00 00 02 26 00 00 02 63
 2.464489 1  252             Rx   d 8 00 00 00 01 00 00 00 00
 2.466442 1  253             Rx   d 8 00 00 00 00 00 00 00 00
 2.468444 1  254             Rx   d 8 00 00 00 02 00 00 00 00
 2.470518 1  241             Rx   d 8 AA 00 00 00 00 00 00 3B
 2.481443 1  261             Rx   d 8 01 29 00 1C 1E 00 00 00
 2.482469 1  251             Rx   d 8 00 00 00 00 00 00 00 00
 2.483992 1  221             Rx   d 8 00 00 00 00 00 00 00 00
 2.484239 1  311             Rx   d 8 00 00 02 26 00 00 02 63
 2.484487 1  252             Rx   d 8 00 00 00 01 00 00 00 00
 2.486469 1  253             Rx   d 8 00 00 00 00 00 00 00 00
 2.488466 1  254             Rx   d 8 00 00 00 02 00 00 00 00
 2.490493 1  241             Rx   d 8 AA 00 00 00 00 00 00 3C
 2.492468 1  262             Rx   d 8 01 28 00 1C 1E 00 00 00
 2.500522 1  211             Rx   d 8 00 01 01 1E 00 00 00 00
 2.502469 1  251             Rx   d 8 00 00 00 00 00 00 00 00
 2.503469 1  263             Rx   d 8 01 29 00 1C 1E 00 00 00
 2.504018 1  221             Rx   d 8 00 00 00 00 00 00 00 00
 2.504239 1  311             Rx   d 8 00 00 02 26 00 00 02 63
 2.504487 1  252             Rx   d 8 00 00 00 01 00 00 00 00
 2.506492 1  253             Rx   d 8 00 00 00 00 00 00 00 00
 2.508492 1  254             Rx   d 8 00 00 00 02 00 00 00 00
 2.510544 1  241             Rx   d 8 AA 00 00 00 00 00 00 3D
 2.514494 1  264             Rx   d 8 01 27 00 1C 1E 00 00 00
 2.522499 1  251             Rx   d 8 00 00 00 00 00 00 00 00
 2.524020 1  221             Rx   d 8 00 00 00 00 00 00 00 00
 2.524242 1  311             Rx   d 8 00 00 02 26 00 00 02 63
 2.524514 1  252             Rx   d 8 00 00 00 01 00 00 00 00
 2.526520 1  253             Rx   d 8 00 00 00 00 00 00 00 00
 2.528519 1  254             Rx   d 8 00 00 00 02 00 00 00 00
 2.530546 1  241             Rx   d 8 AA 00 00 00 00 00 00 3E
 2.542521 1  251             Rx   d 8 00 00 00 00 00 00 00 00
 2.544019 1  221             Rx   d 8 00 00 00 00 00 00 00 00
 2.544266 1  311             Rx   d 8 00 00 02 26 00 00 02 63
 2.544514 1  252             Rx   d 8 00 00 00 01 00 00 00 00
 2.546521 1  253             Rx   d 8 00 00 00 00 00 00 00 00
 2.548521 1  254             Rx   d 8 00 00 00 02 00 00 00 00
 2.550519 1  241             Rx   d 8 AA 00 00 00 00 00 00 3F
 2.562547 1  251             Rx   d 8 00 00 00 00 00 00 00 00
 2.564019 1  221             Rx   d 8 00 00 00 00 00 00 00 00
 2.564267 1  311             Rx   d 8 00 00 02 26 00 00 02 63
 2.564539 1  252             Rx   d 8 00 00 00 01 00 00 00 00
 2.566544 1  253             Rx   d 8 00 00 00 00 00 00 00 00
 2.568544 1  254             Rx   d 8 00 00 00 02 00 00 00 00
 2.570594 1  241             Rx   d 8 AA 00 00 00 00 00 00 40
 2.581551 1  261             Rx   d 8 01 29 00 1C 1E 00 00 00
 2.582573 1  251             Rx   d 8 00 00 00 00 00 00 00 00
 2.584019 1  221             Rx   d 8 00 00 00 00 00 00 00 00
 2.584268 1  311             Rx   d 8 00 00 02 26 00 00 02 63
 2.584566 1  252             Rx   d 8 00 00 00 01 00 00 00 00
 2.586572 1  253             Rx   d 8 00 00 00 00 00 00 00 00
 2.588572 1  254             Rx   d 8 00 00 00 02 00 00 00 00
 2.590620 1  241             Rx   d 8 AA 00 00 00 00 00 00 41
 2.592569 1  262             Rx   d 8 01 28 00 1C 1E 00 00 00
 2.602573 1  251             Rx   d 8 00 00 00 00 00 00 00 00
 2.603573 1  263             Rx   d 8 01 29 00 1C 1E 00 00 00
 2.604020 1  221             Rx   d 8 00 00 00 00 00 00 00 00
 2.604268 1  311             Rx   d 8 00 00 02 26 00 00 02 63
 2.604591 1  252             Rx   d 8 00 00 00 01 00 00 00 00
 2.606596 1  253             Rx   d 8 00 00 00 00 00 00 00 00
 2.608595 1  254             Rx   d 8 00 00 00 02 00 00 00 00
 2.610646 1  241             Rx   d 8 AA 00 00 00 00 00 00 42
 2.614596 1  264             Rx   d 8 01 27 00 1C 1E 00 00 00
 2.622602 1  251             Rx   d 8 00 00 00 00 00 00 00 00
 2.624021 1  221             Rx   d 8 00 00 00 00 00 00 00 00
 2.624268 1  311             Rx   d 8 00 00 02 26 00 00 02 63
 2.624616 1  252             Rx   d 8 00 00 00 01 00 00 00 00
 2.626621 1  253             Rx   d 8 00 00 00 00 00 00 00 00
 2.628595 1  254             Rx   d 8 00 00 00 02 00 00 00 00
 2.630644 1  241             Rx   d 8 AA 00 00 00 00 00 00 43
 2.642628 1  251             Rx   d 8 00 00 00 00 00 00 00 00
 2.644022 1  221             Rx   d 8 00 00 00 00 00 00 00 00
 2.644269 1  311             Rx   d 8 00 00 02 26 00 00 02 63
 2.644618 1  252             Rx   d 8 00 00 00 01 00 00 00 00
 2.646647 1  253             Rx   d 8 00 00 00 00 00 00 00 00
 2.648623 1  254             Rx   d 8 00 00 00 02 00 00 00 00
 2.650721 1  241             Rx   d 8 AA 00 00 00 00 00 00 44
 2.662650 1  251             Rx   d 8 00 00 00 00 00 00 00 00
 2.664022 1  221             Rx   d 8 00 00 00 00 00 00 00 00
 2.664272 1  311             Rx   d 8 00 00 02 26 00 00 02 63
 2.802778 1  251             Rx   d 8 00 00 00 00 00 00 00 00
 2.810849 1  241             Rx   d 8 AA 00 00 00 00 00 00 4C
 2.820855 1  231             Rx   d 8 00 00 00 02 62 00 00 00
 2.844051 1  221             Rx   d 8 00 00 00 00 00 00 00 00
 2.862830 1  251             Rx   d 8 00 00 00 00 00 00 00 00
 2.864053 1  221             Rx   d 8 00 00 00 00 00 00 00 00
 2.864298 1  311             Rx   d 8 00 00 02 26 00 00 02 63
 2.870852 1  241             Rx   d 8 AA 00 00 00 00 00 00 4F
 2.902879 1  251             Rx   d 8 00 00 00 00 00 00 00 00
 2.903876 1  263             Rx   d 8 01 29 00 1C 1E 00 00 00
 2.914910 1  264             Rx   d 8 01 27 00 1C 1E 00 00 00
 2.942933 1  251             Rx   d 8 00 00 00 00 00 00 00 00
 2.944059 1  221             Rx   d 8 00 00 00 00 00 00 00 00
 2.988981 1  254             Rx   d 8 00 00 00 02 00 00 00 00
 3.043031 1  251             Rx   d 8 00 00 00 00 00 00 00 00
 3.103081 1  251             Rx   d 8 00 00 00 00 00 00 00 00
 3.104079 1  221             Rx   d 8 00 00 00 00 00 00 00 00
 3.109139 1  254             Rx   d 8 00 00 00 02 00 00 00 00
 3.111187 1  241             Rx   d 8 AA 00 00 00 00 00 00 5B
 3.115141 1  264             Rx   d 8 01 27 00 1C 1E 00 00 00
 3.123114 1  251             Rx   d 8 00 00 00 00 00 00 00 00
 3.163188 1  251             Rx   d 8 00 00 00 00 00 00 00 00
 3.164114 1  221             Rx   d 8 00 00 00 00 00 00 00 00
 3.167185 1  253             Rx   d 8 00 00 00 00 00 00 00 00
 3.182163 1  261             Rx   d 8 01 29 00 1C 1E 00 00 00
 3.204360 1  311             Rx   d 8 00 00 02 26 00 00 02 63
 3.204608 1  263             Rx   d 8 01 29 00 1C 1E 00 00 00
 3.205221 1  252             Rx   d 8 00 00 00 01 00 00 00 00
 3.223209 1  251             Rx   d 8 00 00 00 00 00 00 00 00
 3.224080 1  221             Rx   d 8 00 00 00 00 00 00 00 00
 3.224330 1  311             Rx   d 8 00 00 02 26 00 00 02 63
 3.247233 1  253             Rx   d 8 00 00 00 00 00 00 00 00
 3.282296 1  261             Rx   d 8 01 29 00 1C 1E 00 00 00
 3.363364 1  251             Rx   d 8 00 00 00 00 00 00 00 00
 3.364109 1  221             Rx   d 8 00 00 00 00 00 00 00 00
 3.364356 1  311             Rx   d 8 00 00 02 26 00 00 02 63
 3.365359 1  252             Rx   d 8 00 00 00 01 00 00 00 00
 3.367359 1  253             Rx   d 8 00 00 00 00 00 00 00 00
 3.369360 1  254             Rx   d 8 00 00 00 02 00 00 00 00
 3.371438 1  241             Rx   d 8 AA 00 00 00 00 00 00 68
 3.382390 1  261             Rx   d 8 01 29 00 1C 1E 00 00 00
 3.383394 1  251             Rx   d 8 00 00 00 00 00 00 00 00
 3.384171 1  221             Rx   d 8 00 00 00 00 00 00 00 00
 3.384399 1  311             Rx   d 8 00 00 02 26 00 00 02 63
 3.385420 1  252             Rx   d 8 00 00 00 01 00 00 00 00
 3.387396 1  253             Rx   d 8 00 00 00 00 00 00 00 00
 3.389416 1  254             Rx   d 8 00 00 00 02 00 00 00 00
 3.391465 1  241             Rx   d 8 AA 00 00 00 00 00 00 69
 3.393420 1  262             Rx   d 8 01 28 00 1C 1E 00 00 00
 3.403416 1  251             Rx   d 8 00 00 00 00 00 00 00 00
 3.404141 1  221             Rx   d 8 00 00 00 00 00 00 00 00
 3.404400 1  311             Rx   d 8 00 00 02 26 00 00 02 63
 3.404643 1  263             Rx   d 8 01 29 00 1C 1E 00 00 00
 3.405443 1  252             Rx   d 8 00 00 00 01 00 00 00 00
 3.407428 1  253             Rx   d 8 00 00 00 00 00 00 00 00
 3.409431 1  254             Rx   d 8 00 00 00 02 00 00 00 00
 3.411494 1  241             Rx   d 8 AA 00 00 00 00 00 00 6A
 3.415455 1  264             Rx   d 8 01 27 00 1C 1E 00 00 00
 3.423442 1  251             Rx   d 8 00 00 00 00 00 00 00 00
 3.424138 1  221             Rx   d 8 00 00 00 00 00 00 00 00
 3.424386 1  311             Rx   d 8 00 00 02 26 00 00 02 63
 3.425438 1  252             Rx   d 8 00 00 00 01 00 00 00 00
 3.427440 1  253             Rx   d 8 00 00 00 00 00 00 00 00
 3.429445 1  254             Rx   d 8 00 00 00 02 00 00 00 00
 3.431463 1  241             Rx   d 8 AA 00 00 00 00 00 00 6B
 3.443468 1  251             Rx   d 8 00 00 00 00 00 00 00 00
 3.444139 1  221             Rx   d 8 00 00 00 00 00 00 00 00
 3.444388 1  311             Rx   d 8 00 00 02 26 00 00 02 63
 3.445464 1  252             Rx   d 8 00 00 00 01 00 00 00 00
 3.447466 1  253             Rx   d 8 00 00 00 00 00 00 00 00
 3.449444 1  254             Rx   d 8 00 00 00 02 00 00 00 00
 3.451515 1  241             Rx   d 8 AA 00 00 00 00 00 00 6C
 3.463465 1  251             Rx   d 8 00 00 00 00 00 00 00 00
 3.464111 1  221             Rx   d 8 00 00 00 00 00 00 00 00
 3.464358 1  311             Rx   d 8 00 00 02 26 00 00 02 63
 3.465461 1  252             Rx   d 8 00 00 00 01 00 00 00 00
 3.467461 1  253             Rx   d 8 00 00 00 00 00 00 00 00
 3.469461 1  254             Rx   d 8 00 00 00 02 00 00 00 00
 3.471537 1  241             Rx   d 8 AA 00 00 00 00 00 00 6D
 3.482465 1  261             Rx   d 8 01 29 00 1C 1E 00 00 00
 3.483486 1  251             Rx   d 8 00 00 00 00 00 00 00 00
 3.484110 1  221             Rx   d 8 00 00 00 00 00 00 00 00
 3.484358 1  311             Rx   d 8 00 00 02 26 00 00 02 63
 3.485486 1  252             Rx   d 8 00 00 00 01 00 00 00 00
 3.487522 1  253             Rx   d 8 00 00 00 00 00 00 00 00
 3.489520 1  254             Rx   d 8 00 00 00 02 00 00 00 00
 3.491549 1  241             Rx   d 8 AA 00 00 00 00 00 00 6E
 3.493524 1  262             Rx   d 8 01 28 00 1C 1E 00 00 00
 3.501544 1  211             Rx   d 8 00 01 01 1E 00 00 00 00
 3.503517 1  251             Rx   d 8 00 00 00 00 00 00 00 00
 3.504144 1  221             Rx   d 8 00 00 00 00 00 00 00 00
 3.504386 1  311             Rx   d 8 00 00 02 26 00 00 02 63
 3.504614 1  263             Rx   d 8 01 29 00 1C 1E 00 00 00
 3.505548 1  252             Rx   d 8 00 00 00 01 00 00 00 00
 3.507545 1  253             Rx   d 8 00 00 00 00 00 00 00 00
 3.509524 1  254             Rx   d 8 00 00 00 02 00 00 00 00
 3.511574 1  241             Rx   d 8 AA 00 00 00 00 00 00 6F
 3.515558 1  264             Rx   d 8 01 27 00 1C 1E 00 00 00
 3.523545 1  251             Rx   d 8 00 00 00 00 00 00 00 00
 3.524166 1  221             Rx   d 8 00 00 00 00 00 00 00 00
 3.524389 1  311             Rx   d 8 00 00 02 26 00 00 02 63
 3.525546 1  252             Rx   d 8 00 00 00 01 00 00 00 00
 3.527540 1  253             Rx   d 8 00 00 00 00 00 00 00 00
 3.529549 1  254             Rx   d 8 00 00 00 02 00 00 00 00
 3.531597 1  241             Rx   d 8 AA 00 00 00 00 00 00 70
 3.543572 1  251             Rx   d 8 00 00 00 00 00 00 00 00
 3.544173 1  221             Rx   d 8 00 00 00 00 00 00 00 00
 3.544399 1  311             Rx   d 8 00 00 02 26 00 00 02 63
 3.545571 1  252             Rx   d 8 00 00 00 01 00 00 00 00
 3.547567 1  253             Rx   d 8 00 00 00 00 00 00 00 00
 3.549576 1  254             Rx   d 8 00 00 00 02 00 00 00 00
 3.551575 1  241             Rx   d 8 AA 00 00 00 00 00 00 71
 3.563544 1  251             Rx   d 8 00 00 00 00 00 00 00 00
 3.564140 1  221             Rx   d 8 00 00 00 00 00 00 00 00
 3.564364 1  311             Rx   d 8 00 00 02 26 00 00 02 63
 3.565565 1  252             Rx   d 8 00 00 00 01 00 00 00 00
 3.567566 1  253             Rx   d 8 00 00 00 00 00 00 00 00
 3.569565 1  254             Rx   d 8 00 00 00 02 00 00 00 00
 3.571614 1  241             Rx   d 8 AA 00 00 00 00 00 00 72
 3.582595 1  261             Rx   d 8 01 29 00 1C 1E 00 00 00
 3.583598 1  251             Rx   d 8 00 00 00 00 00 00 00 00
 3.584171 1  221             Rx   d 8 00 00 00 00 00 00 00 00
 3.584395 1  311             Rx   d 8 00 00 02 26 00 00 02 63
 3.585622 1  252             Rx   d 8 00 00 00 01 00 00 00 00
 3.587600 1  253             Rx   d 8 00 00 00 00 00 00 00 00
 3.589628 1  254             Rx   d 8 00 00 00 02 00 00 00 00
 3.591647 1  241             Rx   d 8 AA 00 00 00 00 00 00 73
 3.593624 1  262             Rx   d 8 01 29 00 1C 1E 00 00 00
 3.603631 1  251             Rx   d 8 00 00 00 00 00 00 00 00
 3.604142 1  221             Rx   d 8 00 00 00 00 00 00 00 00
 3.604388 1  311             Rx   d 8 00 00 02 26 00 00 02 63
 3.604612 1  263             Rx   d 8 01 29 00 1C 1E 00 00 00
 3.605591 1  252             Rx   d 8 00 00 00 01 00 00 00 00
 3.607620 1  253             Rx   d 8 00 00 00 00 00 00 00 00
 3.609617 1  254             Rx   d 8 00 00 00 02 00 00 00 00
 3.611693 1  241             Rx   d 8 AA 00 00 00 00 00 00 74
 3.615652 1  264             Rx   d 8 01 27 00 1C 1E 00 00 00
 3.623646 1  251             Rx   d 8 00 00 00 00 00 00 00 00
 3.624173 1  221             Rx   d 8 00 00 00 00 00 00 00 00
 3.624390 1  311             Rx   d 8 00 00 02 26 00 00 02 63
 3.625648 1  252             Rx   d 8 00 00 00 01 00 00 00 00
 3.627654 1  253             Rx   d 8 00 00 00 00 00 00 00 00
 3.629649 1  254             Rx   d 8 00 00 00 02 00 00 00 00
 3.631700 1  241             Rx   d 8 AA 00 00 00 00 00 00 75
 3.643677 1  251             Rx   d 8 00 00 00 00 00 00 00 00
 3.644173 1  221             Rx   d 8 00 00 00 00 00 00 00 00
 3.644421 1  311             Rx   d 8 00 00 02 26 00 00 02 63
 3.645673 1  252             Rx   d 8 00 00 00 01 00 00 00 00
 3.647673 1  253             Rx   d 8 00 00 00 00 00 00 00 00
 3.649672 1  254             Rx   d 8 00 00 00 02 00 00 00 00
 3.651724 1  241             Rx   d 8 AA 00 00 00 00 00 00 76
 3.663673 1  251             Rx   d 8 00 00 00 00 00 00 00 00
 3.664170 1  221             Rx   d 8 00 00 00 00 00 00 00 00
 3.664417 1  311             Rx   d 8 00 00 02 26 00 00 02 63
 3.665700 1  252             Rx   d 8 00 00 00 01 00 00 00 00
 3.667696 1  253             Rx   d 8 00 00 00 00 00 00 00 00
 3.669695 1  254             Rx   d 8 00 00 00 02 00 00 00 00
 3.671768 1  241             Rx   d 8 AA 00 00 00 00 00 00 77
 3.682709 1  261             Rx   d 8 01 29 00 1C 1E 00 00 00
 3.683706 1  251             Rx   d 8 00 00 00 00 00 00 00 00
 3.684206 1  221             Rx   d 8 00 00 00 00 00 00 00 00
 3.684433 1  311             Rx   d 8 00 00 02 26 00 00 02 63
 3.685707 1  252             Rx   d 8 00 00 00 01 00 00 00 00
 3.687778 1  253             Rx   d 8 00 00 00 00 00 00 00 00
 3.689706 1  254             Rx   d 8 00 00 00 02 00 00 00 00
 3.691778 1  241             Rx   d 8 AA 00 00 00 00 00 00 78
 3.693778 1  262             Rx   d 8 01 28 00 1C 1E 00 00 00
 3.701781 1  211             Rx   d 8 00 01 01 1E 00 00 00 00
 3.703729 1  251             Rx   d 8 00 00 00 00 00 00 00 00
 3.704182 1  221             Rx   d 8 00 00 00 00 00 00 00 00
 3.704392 1  311             Rx   d 8 00 00 02 26 00 00 02 63
 3.704721 1  263             Rx   d 8 01 29 00 1C 1E 00 00 00
 3.705732 1  252             Rx   d 8 00 00 00 01 00 00 00 00
 3.707729 1  253             Rx   d 8 00 00 00 00 00 00 00 00
 3.709722 1  254             Rx   d 8 00 00 00 02 00 00 00 00
 3.711770 1  241             Rx   d 8 AA 00 00 00 00 00 00 79
 3.715770 1  264             Rx   d 8 01 27 00 1C 1E 00 00 00
 3.723773 1  251             Rx   d 8 00 00 00 00 00 00 00 00
 3.724169 1  221             Rx   d 8 00 00 00 00 00 00 00 00
 3.724416 1  311             Rx   d 8 00 00 02 26 00 00 02 63
 3.725776 1  252             Rx   d 8 00 00 00 01 00 00 00 00
 3.727772 1  253             Rx   d 8 00 00 00 00 00 00 00 00
 3.729778 1  254             Rx   d 8 00 00 00 02 00 00 00 00
 3.731800 1  241             Rx   d 8 AA 00 00 00 00 00 00 7A
 3.743775 1  251             Rx   d 8 00 00 00 00 00 00 00 00
 3.744196 1  221             Rx   d 8 00 00 00 00 00 00 00 00
 3.744421 1  311             Rx   d 8 00 00 02 26 00 00 02 63
 3.745777 1  252             Rx   d 8 00 00 00 01 00 00 00 00
 3.747786 1  253             Rx   d 8 00 00 00 00 00 00 00 00
 3.749783 1  254             Rx   d 8 00 00 00 02 00 00 00 00
 3.751831 1  241             Rx   d 8 AA 00 00 00 00 00 00 7B
 3.763800 1  251             Rx   d 8 00 00 00 00 00 00 00 00
 3.764171 1  221             Rx   d 8 00 00 00 00 00 00 00 00
 3.764421 1  311             Rx   d 8 00 00 02 26 00 00 02 63
 3.765796 1  252             Rx   d 8 00 00 00 01 00 00 00 00
 3.767804 1  253             Rx   d 8 00 00 00 00 00 00 00 00
 3.769798 1  254             Rx   d 8 00 00 00 02 00 00 00 00
 3.771876 1  241             Rx   d 8 AA 00 00 00 00 00 00 7C
 3.782803 1  261             Rx   d 8 01 29 00 1C 1E 00 00 00
 3.783836 1  251             Rx   d 8 00 00 00 00 00 00 00 00
 3.784202 1  221             Rx   d 8 00 00 00 00 00 00 00 00
 3.784449 1  311             Rx   d 8 00 00 02 26 00 00 02 63
 3.785805 1  252             Rx   d 8 00 00 00 01 00 00 00 00
 3.787803 1  253             Rx   d 8 00 00 00 00 00 00 00 00
 3.789800 1  254             Rx   d 8 00 00 00 02 00 00 00 00
 3.791858 1  241             Rx   d 8 AA 00 00 00 00 00 00 7D
 3.793827 1  262             Rx   d 8 01 29 00 1C 1E 00 00 00
 3.803833 1  251             Rx   d 8 00 00 00 00 00 00 00 00
 3.804203 1  221             Rx   d 8 00 00 00 00 00 00 00 00
 3.804425 1  311             Rx   d 8 00 00 02 26 00 00 02 63
 3.804827 1  263             Rx   d 8 01 29 00 1C 1E 00 00 00
 3.805797 1  252             Rx   d 8 00 00 00 01 00 00 00 00
 3.807823 1  253             Rx   d 8 00 00 00 00 00 00 00 00
 3.809855 1  254             Rx   d 8 00 00 00 02 00 00 00 00
 3.811874 1  241             Rx   d 8 AA 00 00 00 00 00 00 7E
 3.815923 1  264             Rx   d 8 01 27 00 1C 1E 00 00 00
 3.821907 1  231             Rx   d 8 00 00 00 02 3A 00 00 00
 3.823857 1  251             Rx   d 8 00 00 00 00 00 00 00 00
 3.824206 1  221             Rx   d 8 00 00 00 00 00 00 00 00
 3.824416 1  311             Rx   d 8 00 00 02 26 00 00 02 63
 3.825847 1  252             Rx   d 8 00 00 00 01 00 00 00 00
 3.827852 1  253             Rx   d 8 00 00 00 00 00 00 00 00
 3.829852 1  254             Rx   d 8 00 00 00 02 00 00 00 00
 3.831823 1  241             Rx   d 8 AA 00 00 00 00 00 00 7F
 3.843880 1  251             Rx   d 8 00 00 00 00 00 00 00 00
 3.844196 1  221             Rx   d 8 00 00 00 00 00 00 00 00
 3.844446 1  311             Rx   d 8 00 00 02 26 00 00 02 63
 3.845874 1  252             Rx   d 8 00 00 00 01 00 00 00 00
 3.847873 1  253             Rx   d 8 00 00 00 00 00 00 00 00
 3.849897 1  254             Rx   d 8 00 00 00 02 00 00 00 00
 3.851926 1  241             Rx   d 8 AA 00 00 00 00 00 00 80
 3.863905 1  251             Rx   d 8 00 00 00 00 00 00 00 00
 3.864202 1  221             Rx   d 8 00 00 00 00 00 00 00 00
 3.864453 1  311             Rx   d 8 00 00 02 26 00 00 02 63
 3.865904 1  252             Rx   d 8 00 00 00 01 00 00 00 00
 3.867898 1  253             Rx   d 8 00 00 00 00 00 00 00 00
 3.869897 1  254             Rx   d 8 00 00 00 02 00 00 00 00
 3.871957 1  241             Rx   d 8 AA 00 00 00 00 00 00 81
 3.882872 1  261             Rx   d 8 01 29 00 1C 1E 00 00 00
 3.883870 1  251             Rx   d 8 00 00 00 00 00 00 00 00
 3.884167 1  221             Rx   d 8 00 00 00 00 00 00 00 00
 3.884417 1  311             Rx   d 8 00 00 02 26 00 00 02 63
 3.885869 1  252             Rx   d 8 00 00 00 01 00 00 00 00
 3.887870 1  253             Rx   d 8 00 00 00 00 00 00 00 00
 3.889895 1  254             Rx   d 8 00 00 00 02 00 00 00 00
 3.891944 1  241             Rx   d 8 AA 00 00 00 00 00 00 82
 3.893897 1  262             Rx   d 8 01 28 00 1C 1E 00 00 00
 3.901981 1  211             Rx   d 8 00 01 01 1E 00 00 00 00
 3.903929 1  251             Rx   d 8 00 00 00 00 00 00 00 00
 3.904204 1  221             Rx   d 8 00 00 00 00 00 00 00 00
 3.904450 1  311             Rx   d 8 00 00 02 26 00 00 02 63
 3.904926 1  263             Rx   d 8 01 29 00 1C 1E 00 00 00
 3.905924 1  252             Rx   d 8 00 00 00 01 00 00 00 00
 3.907931 1  253             Rx   d 8 00 00 00 00 00 00 00 00
 3.909962 1  254             Rx   d 8 00 00 00 02 00 00 00 00
 3.911979 1  241             Rx   d 8 AA 00 00 00 00 00 00 83
 3.915954 1  264             Rx   d 8 01 27 00 1C 1E 00 00 00
 3.923959 1  251             Rx   d 8 00 00 00 00 00 00 00 00
 3.924202 1  221             Rx   d 8 00 00 00 00 00 00 00 00
 3.924450 1  311             Rx   d 8 00 00 02 26 00 00 02 63
 3.925953 1  252             Rx   d 8 00 00 00 01 00 00 00 00
 3.927953 1  253             Rx   d 8 00 00 00 00 00 00 00 00
 3.929953 1  254             Rx   d 8 00 00 00 02 00 00 00 00
 3.931962 1  241             Rx   d 8 AA 00 00 00 00 00 00 84
 3.943985 1  251             Rx   d 8 00 00 00 00 00 00 00 00
 3.944224 1  221             Rx   d 8 00 00 00 00 00 00 00 00
 3.944478 1  311             Rx   d 8 00 00 02 26 00 00 02 63
 3.945983 1  252             Rx   d 8 00 00 00 01 00 00 00 00
 3.947978 1  253             Rx   d 8 00 00 00 00 00 00 00 00
 3.949981 1  254             Rx   d 8 00 00 00 02 00 00 00 00
 3.952031 1  241             Rx   d 8 AA 00 00 00 00 00 00 85
 3.963987 1  251             Rx   d 8 00 00 00 00 00 00 00 00
 3.964234 1  221             Rx   d 8 00 00 00 00 00 00 00 00
 3.964483 1  311             Rx   d 8 00 00 02 26 00 00 02 63
 3.966009 1  252             Rx   d 8 00 00 00 01 00 00 00 00
 3.968015 1  253             Rx   d 8 00 00 00 00 00 00 00 00
 3.970005 1  254             Rx   d 8 00 00 00 02 00 00 00 00
 3.972056 1  241             Rx   d 8 AA 00 00 00 00 00 00 86
 3.982979 1  261             Rx   d 8 01 29 00 1C 1E 00 00 00
 3.983973 1  251             Rx   d 8 00 00 00 00 00 00 00 00
 3.984220 1  221             Rx   d 8 00 00 00 00 00 00 00 00
 3.984466 1  311             Rx   d 8 00 00 02 26 00 00 02 63
 3.985972 1  252             Rx   d 8 00 00 00 01 00 00 00 00
 3.987998 1  253             Rx   d 8 00 00 00 00 00 00 00 00
 3.989992 1  254             Rx   d 8 00 00 00 02 00 00 00 00
 3.992049 1  241             Rx   d 8 AA 00 00 00 00 00 00 87
 3.993973 1  262             Rx   d 8 01 28 00 1C 1E 00 00 00
 4.004033 1  251             Rx   d 8 00 00 00 00 00 00 00 00
 4.004280 1  221             Rx   d 8 00 00 00 00 00 00 00 00
 4.004497 1  311             Rx   d 8 00 00 02 26 00 00 02 63
 4.005030 1  263             Rx   d 8 01 29 00 1C 1E 00 00 00
 4.006053 1  252             Rx   d 8 00 00 00 01 00 00 00 00
 4.008002 1  253             Rx   d 8 00 00 00 00 00 00 00 00
 4.009999 1  254             Rx   d 8 00 00 00 02 00 00 00 00
 4.012080 1  241             Rx   d 8 AA 00 00 00 00 00 00 88
 4.016056 1  264             Rx   d 8 01 27 00 1C 1E 00 00 00
 4.024055 1  251             Rx   d 8 00 00 00 00 00 00 00 00
 4.024304 1  221             Rx   d 8 00 00 00 00 00 00 00 00
 4.024553 1  311             Rx   d 8 00 00 02 26 00 00 02 63
 4.026058 1  252             Rx   d 8 00 00 00 01 00 00 00 00
 4.028058 1  253             Rx   d 8 00 00 00 00 00 00 00 00
 4.030057 1  254             Rx   d 8 00 00 00 02 00 00 00 00
 4.032101 1  241             Rx   d 8 AA 00 00 00 00 00 00 89
 4.044086 1  251             Rx   d 8 00 00 00 00 00 00 00 00
 4.044332 1  221             Rx   d 8 00 00 00 00 00 00 00 00
 4.044552 1  311             Rx   d 8 00 00 02 26 00 00 02 63
 4.046082 1  252             Rx   d 8 00 00 00 01 00 00 00 00
 4.048076 1  253             Rx   d 8 00 00 00 00 00 00 00 00
 4.050107 1  254             Rx   d 8 00 00 00 02 00 00 00 00
 4.052107 1  241             Rx   d 8 AA 00 00 00 00 00 00 8A
 4.064118 1  251             Rx   d 8 00 00 00 00 00 00 00 00
 4.064359 1  221             Rx   d 8 00 00 00 00 00 00 00 00
 4.064582 1  311             Rx   d 8 00 00 02 26 00 00 02 63
 4.066111 1  252             Rx   d 8 00 00 00 01 00 00 00 00
 4.068120 1  253             Rx   d 8 00 00 00 00 00 00 00 00
 4.070110 1  254             Rx   d 8 00 00 00 02 00 00 00 00
 4.072161 1  241             Rx   d 8 AA 00 00 00 00 00 00 8B
 4.083107 1  261             Rx   d 8 01 29 00 1C 1E 00 00 00
 4.084106 1  251             Rx   d 8 00 00 00 00 00 00 00 00
 4.084354 1  221             Rx   d 8 00 00 00 00 00 00 00 00
 4.084605 1  311             Rx   d 8 00 00 02 26 00 00 02 63
 4.086105 1  252             Rx   d 8 00 00 00 01 00 00 00 00
 4.088134 1  253             Rx   d 8 00 00 00 00 00 00 00 00
 4.090129 1  254             Rx   d 8 00 00 00 02 00 00 00 00
 4.092182 1  241             Rx   d 8 AA 00 00 00 00 00 00 8C
 4.094136 1  262             Rx   d 8 01 28 00 1C 1E 00 00 00
 4.102186 1  211             Rx   d 8 00 01 01 1E 00 00 00 00
 4.104133 1  251             Rx   d 8 00 00 00 00 00 00 00 00
 4.104381 1  221             Rx   d 8 00 00 00 00 00 00 00 00
 4.104629 1  311             Rx   d 8 00 00 02 26 00 00 02 63
 4.105137 1  263             Rx   d 8 01 29 00 1C 1E 00 00 00
 4.106133 1  252             Rx   d 8 00 00 00 01 00 00 00 00
 4.108105 1  253             Rx   d 8 00 00 00 00 00 00 00 00
 4.110132 1  254             Rx   d 8 00 00 00 02 00 00 00 00
 4.112184 1  241             Rx   d 8 AA 00 00 00 00 00 00 8D
 4.116132 1  264             Rx   d 8 01 28 00 1C 1E 00 00 00
 4.124161 1  251             Rx   d 8 00 00 00 00 00 00 00 00
 4.124408 1  221             Rx   d 8 00 00 00 00 00 00 00 00
 4.124622 1  311             Rx   d 8 00 00 02 26 00 00 02 63
 4.126156 1  252             Rx   d 8 00 00 00 01 00 00 00 00
 4.128161 1  253             Rx   d 8 00 00 00 00 00 00 00 00
 4.130159 1  254             Rx   d 8 00 00 00 02 00 00 00 00
 4.132210 1  241             Rx   d 8 AA 00 00 00 00 00 00 8E
 4.144186 1  251             Rx   d 8 00 00 00 00 00 00 00 00
 4.144432 1  221             Rx   d 8 00 00 00 00 00 00 00 00
 4.144676 1  311             Rx   d 8 00 00 02 26 00 00 02 63
 4.146183 1  252             Rx   d 8 00 00 00 01 00 00 00 00
 4.148186 1  253             Rx   d 8 00 00 00 00 00 00 00 00
 4.150187 1  254             Rx   d 8 00 00 00 02 00 00 00 00
 4.152215 1  241             Rx   d 8 AA 00 00 00 00 00 00 8F
 4.164219 1  251             Rx   d 8 00 00 00 00 00 00 00 00
 4.164442 1  221             Rx   d 8 00 00 00 00 00 00 00 00
 4.164689 1  311             Rx   d 8 00 00 02 26 00 00 02 63
 4.166214 1  252             Rx   d 8 00 00 00 01 00 00 00 00
 4.168216 1  253             Rx   d 8 00 00 00 00 00 00 00 00
 4.170213 1  254             Rx   d 8 00 00 00 02 00 00 00 00
 4.172224 1  241             Rx   d 8 AA 00 00 00 00 00 00 90
 4.183212 1  261             Rx   d 8 01 29 00 1C 1E 00 00 00
 4.184239 1  221             Rx   d 8 00 00 00 00 00 00 00 00
 4.184487 1  311             Rx   d 8 00 00 02 26 00 00 02 63
 4.184741 1  251             Rx   d 8 00 00 00 00 00 00 00 00
 4.186224 1  252             Rx   d 8 00 00 00 01 00 00 00 00
 4.188214 1  253             Rx   d 8 00 00 00 00 00 00 00 00
 4.190257 1  254             Rx   d 8 00 00 00 02 00 00 00 00
 4.192279 1  241             Rx   d 8 AA 00 00 00 00 00 00 91
 4.194240 1  262             Rx   d 8 01 28 00 1C 1E 00 00 00
 4.204241 1  221             Rx   d 8 00 00 00 00 00 00 00 00
 4.204486 1  311             Rx   d 8 00 00 02 26 00 00 02 63
 4.204736 1  251             Rx   d 8 00 00 00 00 00 00 00 00
 4.205215 1  263             Rx   d 8 01 29 00 1C 1E 00 00 00
 4.206239 1  252             Rx   d 8 00 00 00 01 00 00 00 00
 4.208240 1  253             Rx   d 8 00 00 00 00 00 00 00 00
 4.210206 1  254             Rx   d 8 00 00 00 02 00 00 00 00
 4.212285 1  241             Rx   d 8 AA 00 00 00 00 00 00 92
 4.216258 1  264             Rx   d 8 01 27 00 1C 1E 00 00 00
 4.224233 1  221             Rx   d 8 00 00 00 00 00 00 00 00
 4.224479 1  311             Rx   d 8 00 00 02 26 00 00 02 63
 4.224728 1  251             Rx   d 8 00 00 00 00 00 00 00 00
 4.226229 1  252             Rx   d 8 00 00 00 01 00 00 00 00
 4.228262 1  253             Rx   d 8 00 00 00 00 00 00 00 00
 4.230260 1  254             Rx   d 8 00 00 00 02 00 00 00 00
 4.232313 1  241             Rx   d 8 AA 00 00 00 00 00 00 93
 4.244239 1  221             Rx   d 8 00 00 00 00 00 00 00 00
 4.244483 1  311             Rx   d 8 00 00 02 26 00 00 02 63
 4.244733 1  251             Rx   d 8 00 00 00 00 00 00 00 00
 4.246284 1  252             Rx   d 8 00 00 00 01 00 00 00 00
 4.248285 1  253             Rx   d 8 00 00 00 00 00 00 00 00
 4.250285 1  254             Rx   d 8 00 00 00 02 00 00 00 00
 4.252336 1  241             Rx   d 8 AA 00 00 00 00 00 00 94
 4.264236 1  221             Rx   d 8 00 00 00 00 00 00 00 00
 4.264485 1  311             Rx   d 8 00 00 02 26 00 00 02 63
 4.264701 1  251             Rx   d 8 00 00 00 00 00 00 00 00
 4.266309 1  252             Rx   d 8 00 00 00 01 00 00 00 00
 4.268312 1  253             Rx   d 8 00 00 00 00 00 00 00 00
 4.270320 1  254             Rx   d 8 00 00 00 02 00 00 00 00
 4.272340 1  241             Rx   d 8 AA 00 00 00 00 00 00 95
 4.283315 1  261             Rx   d 8 01 29 00 1C 1E 00 00 00
 4.284261 1  221             Rx   d 8 00 00 00 00 00 00 00 00
 4.284454 1  311             Rx   d 8 00 00 02 26 00 00 02 63
 4.284734 1  251             Rx   d 8 00 00 00 00 00 00 00 00
 4.286281 1  252             Rx   d 8 00 00 00 01 00 00 00 00
 4.288312 1  253             Rx   d 8 00 00 00 00 00 00 00 00
 4.290332 1  254             Rx   d 8 00 00 00 02 00 00 00 00
 4.292364 1  241             Rx   d 8 AA 00 00 00 00 00 00 96
 4.294338 1  262             Rx   d 8 01 29 00 1C 1E 00 00 00
 4.302347 1  211             Rx   d 8 00 01 01 1E 00 00 00 00
 4.304261 1  221             Rx   d 8 00 00 00 00 00 00 00 00
 4.304484 1  311             Rx   d 8 00 00 02 26 00 00 02 63
 4.304734 1  251             Rx   d 8 00 00 00 00 00 00 00 00
 4.305336 1  263             Rx   d 8 01 29 00 1C 1E 00 00 00
 4.306329 1  252             Rx   d 8 00 00 00 01 00 00 00 00
 4.308339 1  253             Rx   d 8 00 00 00 00 00 00 00 00
 4.310308 1  254             Rx   d 8 00 00 00 02 00 00 00 00
 4.312383 1  241             Rx   d 8 AA 00 00 00 00 00 00 97
 4.316344 1  264             Rx   d 8 01 27 00 1C 1E 00 00 00
 4.322447 1  231             Rx   d 8 00 00 00 02 26 00 00 00
 4.324267 1  221             Rx   d 8 00 00 00 00 00 00 00 00
 4.324487 1  311             Rx   d 8 00 00 02 26 00 00 02 63
 4.324730 1  251             Rx   d 8 00 00 00 00 00 00 00 00
 4.326335 1  252             Rx   d 8 00 00 00 01 00 00 00 00
 4.328378 1  253             Rx   d 8 00 00 00 00 00 00 00 00
 4.330334 1  254             Rx   d 8 00 00 00 02 00 00 00 00
 4.332491 1  241             Rx   d 8 AA 00 00 00 00 00 00 98
 4.344265 1  221             Rx   d 8 00 00 00 00 00 00 00 00
 4.344455 1  311             Rx   d 8 00 00 02 26 00 00 02 63
 4.344736 1  251             Rx   d 8 00 00 00 00 00 00 00 00
 4.346394 1  252             Rx   d 8 00 00 00 01 00 00 00 00
 4.348408 1  253             Rx   d 8 00 00 00 00 00 00 00 00
 4.350390 1  254             Rx   d 8 00 00 00 02 00 00 00 00
 4.352439 1  241             Rx   d 8 AA 00 00 00 00 00 00 99
 4.364265 1  221             Rx   d 8 00 00 00 00 00 00 00 00
 4.364512 1  311             Rx   d 8 00 00 02 26 00 00 02 63
 4.364788 1  251             Rx   d 8 00 00 00 00 00 00 00 00
 4.366391 1  252             Rx   d 8 00 00 00 01 00 00 00 00
 4.368410 1  253             Rx   d 8 00 00 00 00 00 00 00 00
 4.370414 1  254             Rx   d 8 00 00 00 02 00 00 00 00
 4.372481 1  241             Rx   d 8 AA 00 00 00 00 00 00 9A
 4.383386 1  261             Rx   d 8 01 29 00 1C 1E 00 00 00
 4.384231 1  221             Rx   d 8 00 00 00 00 00 00 00 00
 4.384478 1  311             Rx   d 8 00 00 02 26 00 00 02 63
 4.384701 1  251             Rx   d 8 00 00 00 00 00 00 00 00
 4.386406 1  252             Rx   d 8 00 00 00 01 00 00 00 00
 4.388381 1  253             Rx   d 8 00 00 00 00 00 00 00 00
 4.390406 1  254             Rx   d 8 00 00 00 02 00 00 00 00
 4.392431 1  241             Rx   d 8 AA 00 00 00 00 00 00 9B
 4.394407 1  262             Rx   d 8 01 29 00 1C 1E 00 00 00
 4.404270 1  221             Rx   d 8 00 00 00 00 00 00 00 00
 4.404511 1  311             Rx   d 8 00 00 02 26 00 00 02 63
 4.404792 1  251             Rx   d 8 00 00 00 00 00 00 00 00
 4.405439 1  263             Rx   d 8 01 29 00 1C 1E 00 00 00
 4.406441 1  252             Rx   d 8 00 00 00 01 00 00 00 00
 4.408428 1  253             Rx   d 8 00 00 00 00 00 00 00 00
 4.410460 1  254             Rx   d 8 00 00 00 02 00 00 00 00
 4.412488 1  241             Rx   d 8 AA 00 00 00 00 00 00 9C
 4.416467 1  264             Rx   d 8 01 27 00 1C 1E 00 00 00
 4.424262 1  221             Rx   d 8 00 00 00 00 00 00 00 00
 4.424510 1  311             Rx   d 8 00 00 02 26 00 00 02 63
 4.424788 1  251             Rx   d 8 00 00 00 00 00 00 00 00
 4.426474 1  252             Rx   d 8 00 00 00 01 00 00 00 00
 4.428471 1  253             Rx   d 8 00 00 00 00 00 00 00 00
 4.430453 1  254             Rx   d 8 00 00 00 02 00 00 00 00
 4.432473 1  241             Rx   d 8 AA 00 00 00 00 00 00 9D
 4.444273 1  221             Rx   d 8 00 00 00 00 00 00 00 00
 4.444515 1  311             Rx   d 8 00 00 02 26 00 00 02 63
 4.444791 1  251             Rx   d 8 00 00 00 00 00 00 00 00
 4.446492 1  252             Rx   d 8 00 00 00 01 00 00 00 00
 4.448495 1  253             Rx   d 8 00 00 00 00 00 00 00 00
 4.450494 1  254             Rx   d 8 00 00 00 02 00 00 00 00
 4.452490 1  241             Rx   d 8 AA 00 00 00 00 00 00 9E
 4.464279 1  221             Rx   d 8 00 00 00 00 00 00 00 00
 4.464512 1  311             Rx   d 8 00 00 02 26 00 00 02 63
 4.464792 1  251             Rx   d 8 00 00 00 00 00 00 00 00
 4.466520 1  252             Rx   d 8 00 00 00 01 00 00 00 00
 4.468516 1  253             Rx   d 8 00 00 00 00 00 00 00 00
 4.470518 1  254             Rx   d 8 00 00 00 02 00 00 00 00
 4.472605 1  241             Rx   d 8 AA 00 00 00 00 00 00 9F
 4.483486 1  261             Rx   d 8 01 29 00 1C 1E 00 00 00
 4.484232 1  221             Rx   d 8 00 00 00 00 00 00 00 00
 4.484482 1  311             Rx   d 8 00 00 02 26 00 00 02 63
 4.484757 1  251             Rx   d 8 00 00 00 00 00 00 00 00
 4.486485 1  252             Rx   d 8 00 00 00 01 00 00 00 00
 4.488509 1  253             Rx   d 8 00 00 00 00 00 00 00 00
 4.490484 1  254             Rx   d 8 00 00 00 02 00 00 00 00
 4.492533 1  241             Rx   d 8 AA 00 00 00 00 00 00 A0
 4.494511 1  262             Rx   d 8 01 29 00 1C 1E 00 00 00
 4.502536 1  211             Rx   d 8 00 01 01 1E 00 00 00 00
 4.504265 1  221             Rx   d 8 00 00 00 00 00 00 00 00
 4.504511 1  311             Rx   d 8 00 00 02 26 00 00 02 63
 4.504787 1  251             Rx   d 8 00 00 00 00 00 00 00 00
 4.505536 1  263             Rx   d 8 01 29 00 1C 1E 00 00 00
 4.506562 1  252             Rx   d 8 00 00 00 01 00 00 00 00
 4.508546 1  253             Rx   d 8 00 00 00 00 00 00 00 00
 4.510545 1  254             Rx   d 8 00 00 00 02 00 00 00 00
 4.512563 1  241             Rx   d 8 AA 00 00 00 00 00 00 A1
 4.516551 1  264             Rx   d 8 01 27 00 1C 1E 00 00 00
 4.524273 1  221             Rx   d 8 00 00 00 00 00 00 00 00
 4.524519 1  311             Rx   d 8 00 00 02 26 00 00 02 63
 4.524800 1  251             Rx   d 8 00 00 00 00 00 00 00 00
 4.526573 1  252             Rx   d 8 00 00 00 01 00 00 00 00
 4.528568 1  253             Rx   d 8 00 00 00 00 00 00 00 00
 4.530568 1  254             Rx   d 8 00 00 00 02 00 00 00 00
 4.532621 1  241             Rx   d 8 AA 00 00 00 00 00 00 A2
 4.544298 1  221             Rx   d 8 00 00 00 00 00 00 00 00
 4.544516 1  311             Rx   d 8 00 00 02 26 00 00 02 63
 4.544794 1  251             Rx   d 8 00 00 00 00 00 00 00 00
 4.546595 1  252             Rx   d 8 00 00 00 01 00 00 00 00
 4.548594 1  253             Rx   d 8 00 00 00 00 00 00 00 00
 4.550594 1  254             Rx   d 8 00 00 00 02 00 00 00 00
 4.552643 1  241             Rx   d 8 AA 00 00 00 00 00 00 A3
 4.564304 1  221             Rx   d 8 00 00 00 00 00 00 00 00
 4.564515 1  311             Rx   d 8 00 00 02 26 00 00 02 63
 4.564795 1  251             Rx   d 8 00 00 00 00 00 00 00 00
 4.566626 1  252             Rx   d 8 00 00 00 01 00 00 00 00
 4.568595 1  253             Rx   d 8 00 00 00 00 00 00 00 00
 4.570629 1  254             Rx   d 8 00 00 00 02 00 00 00 00
 4.572786 1  241             Rx   d 8 AA 00 00 00 00 00 00 A4
 4.583588 1  261             Rx   d 8 01 2A 00 1C 1E 00 00 00
 4.584236 1  221             Rx   d 8 00 00 00 00 00 00 00 00
 4.584482 1  311             Rx   d 8 00 00 02 26 00 00 02 63
 4.584761 1  251             Rx   d 8 00 00 00 00 00 00 00 00
 4.586618 1  252             Rx   d 8 00 00 00 01 00 00 00 00
 4.588618 1  253             Rx   d 8 00 00 00 00 00 00 00 00
 4.590616 1  254             Rx   d 8 00 00 00 02 00 00 00 00
 4.592637 1  241             Rx   d 8 AA 00 00 00 00 00 00 A5
 4.594589 1  262             Rx   d 8 01 28 00 1C 1E 00 00 00
 4.604300 1  221             Rx   d 8 00 00 00 00 00 00 00 00
 4.604498 1  311             Rx   d 8 00 00 02 26 00 00 02 63
 4.604764 1  251             Rx   d 8 00 00 00 00 00 00 00 00
 4.605613 1  263             Rx   d 8 01 29 00 1C 1E 00 00 00
 4.606614 1  252             Rx   d 8 00 00 00 01 00 00 00 00
 4.608616 1  253             Rx   d 8 00 00 00 00 00 00 00 00
 4.610614 1  254             Rx   d 8 00 00 00 02 00 00 00 00
 4.612664 1  241             Rx   d 8 AA 00 00 00 00 00 00 A6
 4.616659 1  264             Rx   d 8 01 27 00 1C 1E 00 00 00
 4.624265 1  221             Rx   d 8 00 00 00 00 00 00 00 00
 4.624513 1  311             Rx   d 8 00 00 02 26 00 00 02 63
 4.624761 1  251             Rx   d 8 00 00 00 00 00 00 00 00
 4.626639 1  252             Rx   d 8 00 00 00 01 00 00 00 00
 4.628637 1  253             Rx   d 8 00 00 00 00 00 00 00 00
 4.630638 1  254             Rx   d 8 00 00 00 02 00 00 00 00
 4.632699 1  241             Rx   d 8 AA 00 00 00 00 00 00 A7
 4.644273 1  221             Rx   d 8 00 00 00 00 00 00 00 00
 4.644512 1  311             Rx   d 8 00 00 02 26 00 00 02 63
 4.644762 1  251             Rx   d 8 00 00 00 00 00 00 00 00
 4.646663 1  252             Rx   d 8 00 00 00 01 00 00 00 00
 4.648666 1  253             Rx   d 8 00 00 00 00 00 00 00 00
 4.650664 1  254             Rx   d 8 00 00 00 02 00 00 00 00
 4.652688 1  241             Rx   d 8 AA 00 00 00 00 00 00 A8
 4.664267 1  221             Rx   d 8 00 00 00 00 00 00 00 00
 4.664510 1  311             Rx   d 8 00 00 02 26 00 00 02 63
 4.664762 1  251             Rx   d 8 00 00 00 00 00 00 00 00
 4.666695 1  252             Rx   d 8 00 00 00 01 00 00 00 00
