date Mon Dec 18 05:33:50.748 PM 2023
base hex  timestamps absolute
internal events logged
Begin Triggerblock Mon Dec 18 05:33:50.745 PM 2023
 0.000000 Start of measurement
 0.000000 1  251             Rx   d 8 00 00 00 00 00 00 00 00
 0.000469 1  221             Rx   d 8 00 00 00 00 00 00 00 00
 0.000720 1  311             Rx   d 8 00 00 00 00 00 00 00 03
 0.001994 1  252             Rx   d 8 00 00 00 01 00 00 00 00
 0.004081 1  253             Rx   d 8 00 00 00 00 00 00 00 00
 0.006075 1  254             Rx   d 8 00 00 00 02 00 00 00 00
 0.008075 1  241             Rx   d 8 AA 00 00 00 00 00 00 7D
 0.018996 1  261             Rx   d 8 01 29 00 16 1E 00 00 00
 0.019991 1  251             Rx   d 8 00 00 00 00 00 00 00 00
 0.020496 1  221             Rx   d 8 00 00 00 00 00 00 00 00
 0.020753 1  311             Rx   d 8 00 00 00 00 00 00 00 03
 0.022045 1  252             Rx   d 8 00 00 00 01 00 00 00 00
 0.024103 1  253             Rx   d 8 00 00 00 00 00 00 00 00
 0.026157 1  254             Rx   d 8 00 00 00 02 00 00 00 00
 0.028166 1  241             Rx   d 8 AA 00 00 00 00 00 00 7E
 0.030045 1  262             Rx   d 8 01 28 00 16 1E 00 00 00
 0.038075 1  211             Rx   d 8 00 01 01 1F 00 00 00 00
 0.040051 1  251             Rx   d 8 00 00 00 00 00 00 00 00
 0.040493 1  221             Rx   d 8 00 00 00 00 00 00 00 00
 0.040751 1  311             Rx   d 8 00 00 00 00 00 00 00 03
 0.041050 1  263             Rx   d 8 01 28 00 16 1E 00 00 00
 0.042057 1  252             Rx   d 8 00 00 00 01 00 00 00 00
 0.044087 1  253             Rx   d 8 00 00 00 00 00 00 00 00
 0.046095 1  254             Rx   d 8 00 00 00 02 00 00 00 00
 0.048184 1  241             Rx   d 8 AA 00 00 00 00 00 00 7F
 0.052059 1  264             Rx   d 8 01 27 00 15 1E 00 00 00
 0.060136 1  251             Rx   d 8 00 00 00 00 00 00 00 00
 0.060470 1  221             Rx   d 8 00 00 00 00 00 00 00 00
 0.060730 1  311             Rx   d 8 00 00 00 00 00 00 00 03
 0.062047 1  252             Rx   d 8 00 00 00 01 00 00 00 00
 0.064046 1  253             Rx   d 8 00 00 00 00 00 00 00 00
 0.066044 1  254             Rx   d 8 00 00 00 02 00 00 00 00
 0.068094 1  241             Rx   d 8 AA 00 00 00 00 00 00 80
 0.080081 1  251             Rx   d 8 00 00 00 00 00 00 00 00
 0.080470 1  221             Rx   d 8 00 00 00 00 00 00 00 00
 0.080718 1  311             Rx   d 8 00 00 00 00 00 00 00 03
 0.082100 1  252             Rx   d 8 00 00 00 02 00 00 00 00
 0.084102 1  253             Rx   d 8 00 00 00 00 00 00 00 00
 0.086102 1  254             Rx   d 8 00 00 00 02 00 00 00 00
 0.088232 1  241             Rx   d 8 AA 00 00 00 00 00 00 81
 0.100103 1  251             Rx   d 8 00 00 00 00 00 00 00 00
 0.100468 1  221             Rx   d 8 00 00 00 00 00 00 00 00
 0.100720 1  311             Rx   d 8 00 00 00 00 00 00 00 03
 0.102095 1  252             Rx   d 8 00 00 00 02 00 00 00 00
 0.104095 1  253             Rx   d 8 00 00 00 00 00 00 00 00
 0.106095 1  254             Rx   d 8 00 00 00 02 00 00 00 00
 0.108170 1  241             Rx   d 8 AA 00 00 00 00 00 00 82
 0.119137 1  261             Rx   d 8 01 29 00 16 1E 00 00 00
 0.120133 1  251             Rx   d 8 00 00 00 00 00 00 00 00
 0.120512 1  221             Rx   d 8 00 00 00 00 00 00 00 00
 0.120766 1  311             Rx   d 8 00 00 00 00 00 00 00 03
 0.122154 1  252             Rx   d 8 00 00 00 01 00 00 00 00
 0.124141 1  253             Rx   d 8 00 00 00 00 00 00 00 00
 0.126156 1  254             Rx   d 8 00 00 00 02 00 00 00 00
 0.128206 1  241             Rx   d 8 AA 00 00 00 00 00 00 83
 0.130185 1  262             Rx   d 8 01 28 00 16 1E 00 00 00
 0.140173 1  251             Rx   d 8 00 00 00 00 00 00 00 00
 0.140586 1  221             Rx   d 8 00 00 00 00 00 00 00 00
 0.140756 1  311             Rx   d 8 00 00 00 00 00 00 00 03
 0.141153 1  263             Rx   d 8 01 29 00 16 1E 00 00 00
 0.142156 1  252             Rx   d 8 00 00 00 01 00 00 00 00
 0.144160 1  253             Rx   d 8 00 00 00 00 00 00 00 00
 0.146180 1  254             Rx   d 8 00 00 00 02 00 00 00 00
 0.148182 1  241             Rx   d 8 AA 00 00 00 00 00 00 84
 0.152209 1  264             Rx   d 8 01 27 00 16 1E 00 00 00
 0.160189 1  251             Rx   d 8 00 00 00 00 00 00 00 00
 0.160503 1  221             Rx   d 8 00 00 00 00 00 00 00 00
 0.160762 1  311             Rx   d 8 00 00 00 00 00 00 00 03
 0.162181 1  252             Rx   d 8 00 00 00 01 00 00 00 00
 0.164191 1  253             Rx   d 8 00 00 00 00 00 00 00 00
 0.166234 1  254             Rx   d 8 00 00 00 02 00 00 00 00
 0.168230 1  241             Rx   d 8 AA 00 00 00 00 00 00 85
 0.180247 1  251             Rx   d 8 00 00 00 00 00 00 00 00
 0.180585 1  221             Rx   d 8 00 00 00 00 00 00 00 00
 0.180779 1  311             Rx   d 8 00 00 00 00 00 00 00 03
 0.182209 1  252             Rx   d 8 00 00 00 01 00 00 00 00
 0.184207 1  253             Rx   d 8 00 00 00 00 00 00 00 00
 0.186217 1  254             Rx   d 8 00 00 00 02 00 00 00 00
 0.188256 1  241             Rx   d 8 AA 00 00 00 00 00 00 86
 0.200277 1  251             Rx   d 8 00 00 00 00 00 00 00 00
 0.200630 1  221             Rx   d 8 00 00 00 00 00 00 00 00
 0.200745 1  311             Rx   d 8 00 00 00 00 00 00 00 03
 0.202249 1  252             Rx   d 8 00 00 00 01 00 00 00 00
 0.204240 1  253             Rx   d 8 00 00 00 00 00 00 00 00
 0.206232 1  254             Rx   d 8 00 00 00 02 00 00 00 00
 0.208284 1  241             Rx   d 8 AA 00 00 00 00 00 00 87
 0.219242 1  261             Rx   d 8 01 29 00 16 1E 00 00 00
 0.220374 1  251             Rx   d 8 00 00 00 00 00 00 00 00
 0.220536 1  221             Rx   d 8 00 00 00 00 00 00 00 00
 0.220759 1  311             Rx   d 8 00 00 00 00 00 00 00 03
 0.222238 1  252             Rx   d 8 00 00 00 01 00 00 00 00
 0.224231 1  253             Rx   d 8 00 00 00 00 00 00 00 00
 0.226254 1  254             Rx   d 8 00 00 00 02 00 00 00 00
 0.228282 1  241             Rx   d 8 AA 00 00 00 00 00 00 88
 0.230229 1  262             Rx   d 8 01 27 00 16 1E 00 00 00
 0.238365 1  211             Rx   d 8 00 01 01 1E 00 00 00 00
 0.240254 1  251             Rx   d 8 00 00 00 00 00 00 00 00
 0.240528 1  221             Rx   d 8 00 00 00 00 00 00 00 00
 0.240779 1  311             Rx   d 8 00 00 00 00 00 00 00 03
 0.241252 1  263             Rx   d 8 01 28 00 16 1E 00 00 00
 0.242262 1  252             Rx   d 8 00 00 00 01 00 00 00 00
 0.244265 1  253             Rx   d 8 00 00 00 00 00 00 00 00
 0.246284 1  254             Rx   d 8 00 00 00 02 00 00 00 00
 0.248280 1  241             Rx   d 8 AA 00 00 00 00 00 00 89
 0.252255 1  264             Rx   d 8 01 27 00 15 1E 00 00 00
 0.258338 1  231             Rx   d 8 00 00 00 02 5B 00 00 00
 0.260345 1  251             Rx   d 8 00 00 00 00 00 00 00 00
 0.260527 1  221             Rx   d 8 00 00 00 00 00 00 00 00
 0.260776 1  311             Rx   d 8 00 00 00 00 00 00 00 03
 0.262365 1  252             Rx   d 8 00 00 00 01 00 00 00 00
 0.264282 1  253             Rx   d 8 00 00 00 00 00 00 00 00
 0.266282 1  254             Rx   d 8 00 00 00 02 00 00 00 00
 0.268280 1  241             Rx   d 8 AA 00 00 00 00 00 00 8A
 0.280310 1  251             Rx   d 8 00 00 00 00 00 00 00 00
 0.280577 1  221             Rx   d 8 00 00 00 00 00 00 00 00
 0.280803 1  311             Rx   d 8 00 00 00 00 00 00 00 03
 0.282385 1  252             Rx   d 8 00 00 00 01 00 00 00 00
 0.284315 1  253             Rx   d 8 00 00 00 00 00 00 00 00
 0.286300 1  254             Rx   d 8 00 00 00 02 00 00 00 00
 0.288352 1  241             Rx   d 8 AA 00 00 00 00 00 00 8B
 0.300403 1  251             Rx   d 8 00 00 00 00 00 00 00 00
 0.300580 1  221             Rx   d 8 00 00 00 00 00 00 00 00
 0.300838 1  311             Rx   d 8 00 00 00 00 00 00 00 03
 0.302320 1  252             Rx   d 8 00 00 00 01 00 00 00 00
 0.304301 1  253             Rx   d 8 00 00 00 00 00 00 00 00
 0.306304 1  254             Rx   d 8 00 00 00 02 00 00 00 00
 0.308349 1  241             Rx   d 8 AA 00 00 00 00 00 00 8C
 0.319306 1  261             Rx   d 8 01 29 00 16 1E 00 00 00
 0.320300 1  251             Rx   d 8 00 00 00 00 00 00 00 00
 0.320549 1  221             Rx   d 8 00 00 00 00 00 00 00 00
 0.320797 1  311             Rx   d 8 00 00 00 00 00 00 00 03
 0.322325 1  252             Rx   d 8 00 00 00 01 00 00 00 00
 0.324300 1  253             Rx   d 8 00 00 00 00 00 00 00 00
 0.326346 1  254             Rx   d 8 00 00 00 02 00 00 00 00
 0.328382 1  241             Rx   d 8 AA 00 00 00 00 00 00 8D
 0.330330 1  262             Rx   d 8 01 28 00 16 1E 00 00 00
 0.340330 1  251             Rx   d 8 00 00 00 00 00 00 00 00
 0.340576 1  221             Rx   d 8 00 00 00 00 00 00 00 00
 0.340823 1  311             Rx   d 8 00 00 00 00 00 00 00 03
 0.341322 1  263             Rx   d 8 01 27 00 16 1E 00 00 00
 0.342329 1  252             Rx   d 8 00 00 00 01 00 00 00 00
 0.344352 1  253             Rx   d 8 00 00 00 00 00 00 00 00
 0.346370 1  254             Rx   d 8 00 00 00 02 00 00 00 00
 0.348383 1  241             Rx   d 8 AA 00 00 00 00 00 00 8E
 0.352329 1  264             Rx   d 8 01 27 00 16 1E 00 00 00
 0.360368 1  251             Rx   d 8 00 00 00 00 00 00 00 00
 0.360627 1  221             Rx   d 8 00 00 00 00 00 00 00 00
 0.360878 1  311             Rx   d 8 00 00 00 00 00 00 00 03
 0.362377 1  252             Rx   d 8 00 00 00 01 00 00 00 00
 0.364377 1  253             Rx   d 8 00 00 00 00 00 00 00 00
 0.366378 1  254             Rx   d 8 00 00 00 02 00 00 00 00
 0.368410 1  241             Rx   d 8 AA 00 00 00 00 00 00 8F
 0.380383 1  251             Rx   d 8 00 00 00 00 00 00 00 00
 0.380603 1  221             Rx   d 8 00 00 00 00 00 00 00 00
 0.380877 1  311             Rx   d 8 00 00 00 00 00 00 00 03
 0.382381 1  252             Rx   d 8 00 00 00 01 00 00 00 00
 0.384379 1  253             Rx   d 8 00 00 00 00 00 00 00 00
 0.386417 1  254             Rx   d 8 00 00 00 02 00 00 00 00
 0.388443 1  241             Rx   d 8 AA 00 00 00 00 00 00 90
 0.400432 1  251             Rx   d 8 00 00 00 00 00 00 00 00
 0.400669 1  221             Rx   d 8 00 00 00 00 00 00 00 00
 0.400930 1  311             Rx   d 8 00 00 00 00 00 00 00 03
 0.402403 1  252             Rx   d 8 00 00 00 01 00 00 00 00
 0.404403 1  253             Rx   d 8 00 00 00 00 00 00 00 00
 0.406432 1  254             Rx   d 8 00 00 00 02 00 00 00 00
 0.408430 1  241             Rx   d 8 AA 00 00 00 00 00 00 91
 0.419437 1  261             Rx   d 8 01 29 00 16 1E 00 00 00
 0.420432 1  251             Rx   d 8 00 00 00 00 00 00 00 00
 0.420683 1  221             Rx   d 8 00 00 00 00 00 00 00 00
 0.420933 1  311             Rx   d 8 00 00 00 00 00 00 00 03
 0.422432 1  252             Rx   d 8 00 00 00 01 00 00 00 00
 0.424510 1  253             Rx   d 8 00 00 00 00 00 00 00 00
 0.426502 1  254             Rx   d 8 00 00 00 02 00 00 00 00
 0.428568 1  241             Rx   d 8 AA 00 00 00 00 00 00 92
 0.430436 1  262             Rx   d 8 01 27 00 16 1E 00 00 00
 0.438510 1  211             Rx   d 8 00 01 01 1E 00 00 00 00
 0.440434 1  251             Rx   d 8 00 00 00 00 00 00 00 00
 0.440679 1  221             Rx   d 8 00 00 00 00 00 00 00 00
 0.440951 1  311             Rx   d 8 00 00 00 00 00 00 00 03
 0.441423 1  263             Rx   d 8 01 28 00 16 1E 00 00 00
 0.442476 1  252             Rx   d 8 00 00 00 01 00 00 00 00
 0.444435 1  253             Rx   d 8 00 00 00 00 00 00 00 00
 0.446457 1  254             Rx   d 8 00 00 00 02 00 00 00 00
 0.448454 1  241             Rx   d 8 AA 00 00 00 00 00 00 93
 0.452433 1  264             Rx   d 8 01 27 00 15 1E 00 00 00
 0.460500 1  251             Rx   d 8 00 00 00 00 00 00 00 00
 0.460736 1  221             Rx   d 8 00 00 00 00 00 00 00 00
 0.460983 1  311             Rx   d 8 00 00 00 00 00 00 00 03
 0.462481 1  252             Rx   d 8 00 00 00 01 00 00 00 00
 0.464482 1  253             Rx   d 8 00 00 00 00 00 00 00 00
 0.466541 1  254             Rx   d 8 00 00 00 02 00 00 00 00
 0.468605 1  241             Rx   d 8 AA 00 00 00 00 00 00 94
 0.480495 1  251             Rx   d 8 00 00 00 00 00 00 00 00
 0.480711 1  221             Rx   d 8 00 00 00 00 00 00 00 00
 0.480958 1  311             Rx   d 8 00 00 00 00 00 00 00 03
 0.482481 1  252             Rx   d 8 00 00 00 01 00 00 00 00
 0.484507 1  253             Rx   d 8 00 00 00 00 00 00 00 00
 0.486511 1  254             Rx   d 8 00 00 00 02 00 00 00 00
 0.488508 1  241             Rx   d 8 AA 00 00 00 00 00 00 95
 0.500486 1  251             Rx   d 8 00 00 00 00 00 00 00 00
 0.500732 1  221             Rx   d 8 00 00 00 00 00 00 00 00
 0.500977 1  311             Rx   d 8 00 00 00 00 00 00 00 03
 0.502509 1  252             Rx   d 8 00 00 00 01 00 00 00 00
 0.504486 1  253             Rx   d 8 00 00 00 00 00 00 00 00
 0.506507 1  254             Rx   d 8 00 00 00 02 00 00 00 00
 0.508641 1  241             Rx   d 8 AA 00 00 00 00 00 00 96
 0.519535 1  261             Rx   d 8 01 29 00 16 1E 00 00 00
 0.520556 1  221             Rx   d 8 00 00 00 00 00 00 00 00
 0.520777 1  311             Rx   d 8 00 00 00 00 00 00 00 03
 0.521026 1  251             Rx   d 8 00 00 00 00 00 00 00 00
 0.522505 1  252             Rx   d 8 00 00 00 01 00 00 00 00
 0.524516 1  253             Rx   d 8 00 00 00 00 00 00 00 00
 0.526634 1  254             Rx   d 8 00 00 00 02 00 00 00 00
 0.528563 1  241             Rx   d 8 AA 00 00 00 00 00 00 97
 0.530666 1  262             Rx   d 8 01 27 00 16 1E 00 00 00
 0.540584 1  221             Rx   d 8 00 00 00 00 00 00 00 00
 0.540778 1  311             Rx   d 8 00 00 00 00 00 00 00 03
 0.541052 1  251             Rx   d 8 00 00 00 00 00 00 00 00
 0.541580 1  263             Rx   d 8 01 28 00 16 1E 00 00 00
 0.542592 1  252             Rx   d 8 00 00 00 01 00 00 00 00
 0.544610 1  253             Rx   d 8 00 00 00 00 00 00 00 00
 0.546589 1  254             Rx   d 8 00 00 00 02 00 00 00 00
 0.548560 1  241             Rx   d 8 AA 00 00 00 00 00 00 98
 0.552585 1  264             Rx   d 8 01 27 00 15 1E 00 00 00
 0.560589 1  221             Rx   d 8 00 00 00 00 00 00 00 00
 0.560779 1  311             Rx   d 8 00 00 00 00 00 00 00 03
 0.561055 1  251             Rx   d 8 00 00 00 00 00 00 00 00
 0.562644 1  252             Rx   d 8 00 00 00 01 00 00 00 00
 0.564585 1  253             Rx   d 8 00 00 00 00 00 00 00 00
 0.566583 1  254             Rx   d 8 00 00 00 02 00 00 00 00
 0.568646 1  241             Rx   d 8 AA 00 00 00 00 00 00 99
 0.580576 1  221             Rx   d 8 00 00 00 00 00 00 00 00
 0.580780 1  311             Rx   d 8 00 00 00 00 00 00 00 03
 0.581027 1  251             Rx   d 8 00 00 00 00 00 00 00 00
 0.582591 1  252             Rx   d 8 00 00 00 01 00 00 00 00
 0.584589 1  253             Rx   d 8 00 00 00 00 00 00 00 00
 0.586587 1  254             Rx   d 8 00 00 00 02 00 00 00 00
 0.588586 1  241             Rx   d 8 AA 00 00 00 00 00 00 9A
 0.592375 1  421             Tx   d 1 01
 0.600562 1  221             Rx   d 8 00 00 00 00 00 00 00 00
 0.600778 1  311             Rx   d 8 00 00 00 00 00 00 00 03
 0.601025 1  251             Rx   d 8 00 00 00 00 00 00 00 00
 0.602585 1  252             Rx   d 8 00 00 00 01 00 00 00 00
 0.604584 1  253             Rx   d 8 00 00 00 00 00 00 00 00
 0.606611 1  254             Rx   d 8 00 00 00 02 00 00 00 00
 0.608677 1  241             Rx   d 8 AA 00 00 00 00 00 00 9B
 0.619614 1  261             Rx   d 8 01 29 00 16 1E 00 00 00
 0.620559 1  221             Rx   d 8 00 00 00 00 00 00 00 00
 0.620779 1  311             Rx   d 8 00 00 00 00 00 00 00 03
 0.621059 1  251             Rx   d 8 00 00 00 00 00 00 00 00
 0.622634 1  252             Rx   d 8 00 00 00 01 00 00 00 00
 0.624633 1  253             Rx   d 8 00 00 00 00 00 00 00 00
 0.626667 1  254             Rx   d 8 00 00 00 02 00 00 00 00
 0.628697 1  241             Rx   d 8 AA 00 00 00 00 00 00 9C
 0.630611 1  262             Rx   d 8 01 27 00 16 1E 00 00 00
 0.638699 1  211             Rx   d 8 00 01 01 1E 00 00 00 00
 0.640564 1  221             Rx   d 8 00 00 00 00 00 00 00 00
 0.640780 1  311             Rx   d 8 00 00 00 00 00 00 00 03
 0.641029 1  251             Rx   d 8 00 00 00 00 00 00 00 00
 0.641636 1  263             Rx   d 8 01 28 00 16 1E 00 00 00
 0.642633 1  252             Rx   d 8 00 00 00 01 00 00 00 00
 0.644649 1  253             Rx   d 8 00 00 00 00 00 00 00 00
 0.646648 1  254             Rx   d 8 00 00 00 02 00 00 00 00
 0.648685 1  241             Rx   d 8 AA 00 00 00 00 00 00 9D
 0.652643 1  264             Rx   d 8 01 26 00 15 1E 00 00 00
 0.660571 1  221             Rx   d 8 00 00 00 00 00 00 00 00
 0.660779 1  311             Rx   d 8 00 00 00 00 00 00 00 03
 0.661080 1  251             Rx   d 8 00 00 00 00 00 00 00 00
 0.662661 1  252             Rx   d 8 00 00 00 01 00 00 00 00
 0.664691 1  253             Rx   d 8 00 00 00 00 00 00 00 00
 0.666688 1  254             Rx   d 8 00 00 00 02 00 00 00 00
 0.668723 1  241             Rx   d 8 AA 00 00 00 00 00 00 9E
 0.680565 1  221             Rx   d 8 00 00 00 00 00 00 00 00
 0.680808 1  311             Rx   d 8 00 00 00 00 00 00 00 03
 0.681054 1  251             Rx   d 8 00 00 00 00 00 00 00 00
 0.682714 1  252             Rx   d 8 00 00 00 01 00 00 00 00
 0.684712 1  253             Rx   d 8 00 00 00 00 00 00 00 00
 0.686712 1  254             Rx   d 8 00 00 00 02 00 00 00 00
 0.688709 1  241             Rx   d 8 AA 00 00 00 00 00 00 9F
 0.700572 1  221             Rx   d 8 00 00 00 00 00 00 00 00
 0.700811 1  311             Rx   d 8 00 00 00 00 00 00 00 03
 0.701056 1  251             Rx   d 8 00 00 00 00 00 00 00 00
 0.702693 1  252             Rx   d 8 00 00 00 01 00 00 00 00
 0.704711 1  253             Rx   d 8 00 00 00 00 00 00 00 00
 0.706746 1  254             Rx   d 8 00 00 00 02 00 00 00 00
 0.708743 1  241             Rx   d 8 AA 00 00 00 00 00 00 A0
 0.719715 1  261             Rx   d 8 01 29 00 16 1E 00 00 00
 0.720560 1  221             Rx   d 8 00 00 00 00 00 00 00 00
 0.720806 1  311             Rx   d 8 00 00 00 00 00 00 00 03
 0.721029 1  251             Rx   d 8 00 00 00 00 00 00 00 00
 0.722712 1  252             Rx   d 8 00 00 00 01 00 00 00 00
 0.724715 1  253             Rx   d 8 00 00 00 00 00 00 00 00
 0.726783 1  254             Rx   d 8 00 00 00 02 00 00 00 00
 0.728774 1  241             Rx   d 8 AA 00 00 00 00 00 00 A1
 0.730727 1  262             Rx   d 8 01 27 00 16 1E 00 00 00
 0.740564 1  221             Rx   d 8 00 00 00 00 00 00 00 00
 0.740805 1  311             Rx   d 8 00 00 00 00 00 00 00 03
 0.741054 1  251             Rx   d 8 00 00 00 00 00 00 00 00
 0.741732 1  263             Rx   d 8 01 28 00 16 1E 00 00 00
 0.742746 1  252             Rx   d 8 00 00 00 01 00 00 00 00
 0.744744 1  253             Rx   d 8 00 00 00 00 00 00 00 00
 0.746735 1  254             Rx   d 8 00 00 00 02 00 00 00 00
 0.748741 1  241             Rx   d 8 AA 00 00 00 00 00 00 A2
 0.752736 1  264             Rx   d 8 01 27 00 16 1E 00 00 00
 0.758836 1  231             Rx   d 8 00 00 00 02 47 00 00 00
 0.760597 1  221             Rx   d 8 00 00 00 00 00 00 00 00
 0.760850 1  311             Rx   d 8 00 00 00 00 00 00 00 03
 0.761057 1  251             Rx   d 8 00 00 00 00 00 00 00 00
 0.762766 1  252             Rx   d 8 00 00 00 01 00 00 00 00
 0.764760 1  253             Rx   d 8 00 00 00 00 00 00 00 00
 0.766760 1  254             Rx   d 8 00 00 00 02 00 00 00 00
 0.768814 1  241             Rx   d 8 AA 00 00 00 00 00 00 A3
 0.780601 1  221             Rx   d 8 00 00 00 00 00 00 00 00
 0.780822 1  311             Rx   d 8 00 00 00 00 00 00 00 03
 0.781045 1  251             Rx   d 8 00 00 00 00 00 00 00 00
 0.782766 1  252             Rx   d 8 00 00 00 01 00 00 00 00
 0.784765 1  253             Rx   d 8 00 00 00 00 00 00 00 00
 0.786785 1  254             Rx   d 8 00 00 00 02 00 00 00 00
 0.788989 1  241             Rx   d 8 AA 00 00 00 00 00 00 A4
 0.800562 1  221             Rx   d 8 00 00 00 00 00 00 00 00
 0.800808 1  311             Rx   d 8 00 00 00 00 00 00 00 03
 0.801054 1  251             Rx   d 8 00 00 00 00 00 00 00 00
 0.802816 1  252             Rx   d 8 00 00 00 01 00 00 00 00
 0.804816 1  253             Rx   d 8 00 00 00 00 00 00 00 00
 0.806801 1  254             Rx   d 8 00 00 00 02 00 00 00 00
 0.808898 1  241             Rx   d 8 AA 00 00 00 00 00 00 A5
 0.819815 1  261             Rx   d 8 01 29 00 16 1E 00 00 00
 0.820559 1  221             Rx   d 8 00 00 00 00 00 00 00 00
 0.820808 1  311             Rx   d 8 00 00 00 00 00 00 00 03
 0.821056 1  251             Rx   d 8 00 00 00 00 00 00 00 00
 0.822812 1  252             Rx   d 8 00 00 00 01 00 00 00 00
 0.824811 1  253             Rx   d 8 00 00 00 00 00 00 00 00
 0.826837 1  254             Rx   d 8 00 00 00 02 00 00 00 00
 0.828894 1  241             Rx   d 8 AA 00 00 00 00 00 00 A6
 0.830842 1  262             Rx   d 8 01 27 00 16 1E 00 00 00
 0.838915 1  211             Rx   d 8 00 01 01 1E 00 00 00 00
 0.840592 1  221             Rx   d 8 00 00 00 00 00 00 00 00
 0.840840 1  311             Rx   d 8 00 00 00 00 00 00 00 03
 0.841063 1  251             Rx   d 8 00 00 00 00 00 00 00 00
 0.841844 1  263             Rx   d 8 01 28 00 16 1E 00 00 00
 0.842877 1  252             Rx   d 8 00 00 00 01 00 00 00 00
 0.844841 1  253             Rx   d 8 00 00 00 00 00 00 00 00
 0.846887 1  254             Rx   d 8 00 00 00 02 00 00 00 00
 0.848897 1  241             Rx   d 8 AA 00 00 00 00 00 00 A7
 0.852841 1  264             Rx   d 8 01 27 00 16 1E 00 00 00
 0.860581 1  221             Rx   d 8 00 00 00 00 00 00 00 00
 0.860813 1  311             Rx   d 8 00 00 00 00 00 00 00 03
 0.861057 1  251             Rx   d 8 00 00 00 00 00 00 00 00
 0.862861 1  252             Rx   d 8 00 00 00 01 00 00 00 00
 0.864865 1  253             Rx   d 8 00 00 00 00 00 00 00 00
 0.866862 1  254             Rx   d 8 00 00 00 02 00 00 00 00
 0.868912 1  241             Rx   d 8 AA 00 00 00 00 00 00 A8
 0.880602 1  221             Rx   d 8 00 00 00 00 00 00 00 00
 0.880809 1  311             Rx   d 8 00 00 00 00 00 00 00 03
 0.881058 1  251             Rx   d 8 00 00 00 00 00 00 00 00
 0.882895 1  252             Rx   d 8 00 00 00 01 00 00 00 00
 0.884892 1  253             Rx   d 8 00 00 00 00 00 00 00 00
 0.886910 1  254             Rx   d 8 00 00 00 02 00 00 00 00
 0.888950 1  241             Rx   d 8 AA 00 00 00 00 00 00 A9
 0.900567 1  221             Rx   d 8 00 00 00 00 00 00 00 00
 0.900809 1  311             Rx   d 8 00 00 00 00 00 00 00 03
 0.901056 1  251             Rx   d 8 00 00 00 00 00 00 00 00
 0.902889 1  252             Rx   d 8 00 00 00 01 00 00 00 00
 0.904888 1  253             Rx   d 8 00 00 00 00 00 00 00 00
 0.906891 1  254             Rx   d 8 00 00 00 02 00 00 00 00
 0.908914 1  241             Rx   d 8 AA 00 00 00 00 00 00 AA
 0.919943 1  261             Rx   d 8 01 29 00 16 1E 00 00 00
 0.920589 1  221             Rx   d 8 00 00 00 00 00 00 00 00
 0.920840 1  311             Rx   d 8 00 00 00 00 00 00 00 03
 0.921117 1  251             Rx   d 8 00 00 00 00 00 00 00 00
 0.922950 1  252             Rx   d 8 00 00 00 01 00 00 00 00
 0.924963 1  253             Rx   d 8 00 00 00 00 00 00 00 00
 0.926946 1  254             Rx   d 8 00 00 00 02 00 00 00 00
 0.928974 1  241             Rx   d 8 AA 00 00 00 00 00 00 AB
 0.930921 1  262             Rx   d 8 01 28 00 16 1E 00 00 00
 0.940631 1  221             Rx   d 8 00 00 00 00 00 00 00 00
 0.940834 1  311             Rx   d 8 00 00 00 00 00 00 00 03
 0.941090 1  251             Rx   d 8 00 00 00 00 00 00 00 00
 0.941941 1  263             Rx   d 8 01 28 00 16 1E 00 00 00
 0.942960 1  252             Rx   d 8 00 00 00 01 00 00 00 00
 0.944942 1  253             Rx   d 8 00 00 00 00 00 00 00 00
 0.946945 1  254             Rx   d 8 00 00 00 02 00 00 00 00
 0.948992 1  241             Rx   d 8 AA 00 00 00 00 00 00 AC
 0.952943 1  264             Rx   d 8 01 26 00 15 1E 00 00 00
 0.960575 1  221             Rx   d 8 00 00 00 00 00 00 00 00
 0.960846 1  311             Rx   d 8 00 00 00 00 00 00 00 03
 0.961131 1  251             Rx   d 8 00 00 00 00 00 00 00 00
 0.962975 1  252             Rx   d 8 00 00 00 01 00 00 00 00
 0.964998 1  253             Rx   d 8 00 00 00 00 00 00 00 00
 0.966969 1  254             Rx   d 8 00 00 00 02 00 00 00 00
 0.969018 1  241             Rx   d 8 AA 00 00 00 00 00 00 AD
 0.980648 1  221             Rx   d 8 00 00 00 00 00 00 00 00
 0.980837 1  311             Rx   d 8 00 00 00 00 00 00 00 03
 0.981117 1  251             Rx   d 8 00 00 00 00 00 00 00 00
 0.983034 1  252             Rx   d 8 00 00 00 01 00 00 00 00
 0.985015 1  253             Rx   d 8 00 00 00 00 00 00 00 00
 0.987022 1  254             Rx   d 8 00 00 00 02 00 00 00 00
 0.989056 1  241             Rx   d 8 AA 00 00 00 00 00 00 AE
 1.000636 1  221             Rx   d 8 00 00 00 00 00 00 00 00
 1.000875 1  311             Rx   d 8 00 00 00 00 00 00 00 03
 1.001116 1  251             Rx   d 8 00 00 00 00 00 00 00 00
 1.003004 1  252             Rx   d 8 00 00 00 01 00 00 00 00
 1.005036 1  253             Rx   d 8 00 00 00 00 00 00 00 00
 1.007021 1  254             Rx   d 8 00 00 00 02 00 00 00 00
 1.009091 1  241             Rx   d 8 AA 00 00 00 00 00 00 AF
 1.020024 1  261             Rx   d 8 01 29 00 16 1E 00 00 00
 1.020593 1  221             Rx   d 8 00 00 00 00 00 00 00 00
 1.020838 1  311             Rx   d 8 00 00 00 00 00 00 00 03
 1.021090 1  251             Rx   d 8 00 00 00 00 00 00 00 00
 1.023030 1  252             Rx   d 8 00 00 00 01 00 00 00 00
 1.025034 1  253             Rx   d 8 00 00 00 00 00 00 00 00
 1.027062 1  254             Rx   d 8 00 00 00 02 00 00 00 00
 1.029071 1  241             Rx   d 8 AA 00 00 00 00 00 00 B0
 1.031019 1  262             Rx   d 8 01 27 00 16 1E 00 00 00
 1.039135 1  211             Rx   d 8 00 01 01 1E 00 00 00 00
 1.040595 1  221             Rx   d 8 00 00 00 00 00 00 00 00
 1.040846 1  311             Rx   d 8 00 00 00 00 00 00 00 03
 1.041088 1  251             Rx   d 8 00 00 00 00 00 00 00 00
 1.042047 1  263             Rx   d 8 01 28 00 16 1E 00 00 00
 1.043098 1  252             Rx   d 8 00 00 00 01 00 00 00 00
 1.045050 1  253             Rx   d 8 00 00 00 00 00 00 00 00
 1.047075 1  254             Rx   d 8 00 00 00 02 00 00 00 00
 1.049082 1  241             Rx   d 8 AA 00 00 00 00 00 00 B1
 1.053046 1  264             Rx   d 8 01 26 00 15 1E 00 00 00
 1.060662 1  221             Rx   d 8 00 00 00 00 00 00 00 00
 1.060888 1  311             Rx   d 8 00 00 00 00 00 00 00 03
 1.061102 1  251             Rx   d 8 00 00 00 00 00 00 00 00
 1.063109 1  252             Rx   d 8 00 00 00 01 00 00 00 00
 1.065073 1  253             Rx   d 8 00 00 00 00 00 00 00 00
 1.067074 1  254             Rx   d 8 00 00 00 02 00 00 00 00
 1.069093 1  241             Rx   d 8 AA 00 00 00 00 00 00 B2
 1.080642 1  221             Rx   d 8 00 00 00 00 00 00 00 00
 1.080843 1  311             Rx   d 8 00 00 00 00 00 00 00 03
 1.081087 1  251             Rx   d 8 00 00 00 00 00 00 00 00
 1.083117 1  252             Rx   d 8 00 00 00 01 00 00 00 00
 1.085126 1  253             Rx   d 8 00 00 00 00 00 00 00 00
 1.087137 1  254             Rx   d 8 00 00 00 02 00 00 00 00
 1.089153 1  241             Rx   d 8 AA 00 00 00 00 00 00 B3
 1.100599 1  221             Rx   d 8 00 00 00 00 00 00 00 00
 1.100867 1  311             Rx   d 8 00 00 00 00 00 00 00 03
 1.101097 1  251             Rx   d 8 00 00 00 00 00 00 00 00
 1.103096 1  252             Rx   d 8 00 00 00 01 00 00 00 00
 1.105119 1  253             Rx   d 8 00 00 00 00 00 00 00 00
 1.107119 1  254             Rx   d 8 00 00 00 02 00 00 00 00
 1.109225 1  241             Rx   d 8 AA 00 00 00 00 00 00 B4
 1.120125 1  261             Rx   d 8 01 29 00 16 1E 00 00 00
 1.120593 1  221             Rx   d 8 00 00 00 00 00 00 00 00
 1.120842 1  311             Rx   d 8 00 00 00 00 00 00 00 03
 1.121116 1  251             Rx   d 8 00 00 00 00 00 00 00 00
 1.123120 1  252             Rx   d 8 00 00 00 01 00 00 00 00
 1.125131 1  253             Rx   d 8 00 00 00 00 00 00 00 00
 1.127173 1  254             Rx   d 8 00 00 00 02 00 00 00 00
 1.129203 1  241             Rx   d 8 AA 00 00 00 00 00 00 B5
 1.131150 1  262             Rx   d 8 01 28 00 16 1E 00 00 00
 1.140633 1  221             Rx   d 8 00 00 00 00 00 00 00 00
 1.140872 1  311             Rx   d 8 00 00 00 00 00 00 00 03
 1.141153 1  251             Rx   d 8 00 00 00 00 00 00 00 00
 1.142151 1  263             Rx   d 8 01 28 00 16 1E 00 00 00
 1.143175 1  252             Rx   d 8 00 00 00 01 00 00 00 00
 1.145185 1  253             Rx   d 8 00 00 00 00 00 00 00 00
 1.147183 1  254             Rx   d 8 00 00 00 02 00 00 00 00
 1.149221 1  241             Rx   d 8 AA 00 00 00 00 00 00 B6
 1.153169 1  264             Rx   d 8 01 27 00 15 1E 00 00 00
 1.160621 1  221             Rx   d 8 00 00 00 00 00 00 00 00
 1.160849 1  311             Rx   d 8 00 00 00 00 00 00 00 03
 1.161198 1  251             Rx   d 8 00 00 00 00 00 00 00 00
 1.163197 1  252             Rx   d 8 00 00 00 01 00 00 00 00
 1.165196 1  253             Rx   d 8 00 00 00 00 00 00 00 00
 1.167202 1  254             Rx   d 8 00 00 00 02 00 00 00 00
 1.169230 1  241             Rx   d 8 AA 00 00 00 00 00 00 B7
 1.180593 1  221             Rx   d 8 00 00 00 00 00 00 00 00
 1.180842 1  311             Rx   d 8 00 00 00 00 00 00 00 03
 1.181190 1  251             Rx   d 8 00 00 00 00 00 00 00 00
 1.183172 1  252             Rx   d 8 00 00 00 01 00 00 00 00
 1.185194 1  253             Rx   d 8 00 00 00 00 00 00 00 00
 1.187192 1  254             Rx   d 8 00 00 00 02 00 00 00 00
 1.189243 1  241             Rx   d 8 AA 00 00 00 00 00 00 B8
 1.200622 1  221             Rx   d 8 00 00 00 00 00 00 00 00
 1.200893 1  311             Rx   d 8 00 00 00 00 00 00 00 03
 1.201216 1  251             Rx   d 8 00 00 00 00 00 00 00 00
 1.203222 1  252             Rx   d 8 00 00 00 01 00 00 00 00
 1.205247 1  253             Rx   d 8 00 00 00 00 00 00 00 00
 1.207248 1  254             Rx   d 8 00 00 00 02 00 00 00 00
 1.209305 1  241             Rx   d 8 AA 00 00 00 00 00 00 B9
 1.220249 1  261             Rx   d 8 01 29 00 16 1E 00 00 00
 1.220620 1  221             Rx   d 8 00 00 00 00 00 00 00 00
 1.220867 1  311             Rx   d 8 00 00 00 00 00 00 00 03
 1.221213 1  251             Rx   d 8 00 00 00 00 00 00 00 00
 1.223226 1  252             Rx   d 8 00 00 00 01 00 00 00 00
 1.225254 1  253             Rx   d 8 00 00 00 00 00 00 00 00
 1.227246 1  254             Rx   d 8 00 00 00 02 00 00 00 00
 1.229270 1  241             Rx   d 8 AA 00 00 00 00 00 00 BA
 1.231224 1  262             Rx   d 8 01 27 00 16 1E 00 00 00
 1.239330 1  211             Rx   d 8 00 01 01 1E 00 00 00 00
 1.240650 1  221             Rx   d 8 00 00 00 00 00 00 00 00
 1.240898 1  311             Rx   d 8 00 00 00 00 00 00 00 03
 1.241241 1  251             Rx   d 8 00 00 00 00 00 00 00 00
 1.242276 1  263             Rx   d 8 01 28 00 16 1E 00 00 00
 1.243275 1  252             Rx   d 8 00 00 00 01 00 00 00 00
 1.245277 1  253             Rx   d 8 00 00 00 00 00 00 00 00
 1.247301 1  254             Rx   d 8 00 00 00 02 00 00 00 00
 1.249332 1  241             Rx   d 8 AA 00 00 00 00 00 00 BB
 1.253276 1  264             Rx   d 8 01 27 00 16 1E 00 00 00
 1.259297 1  231             Rx   d 8 00 00 00 02 33 00 00 00
 1.260621 1  221             Rx   d 8 00 00 00 00 00 00 00 00
 1.260869 1  311             Rx   d 8 00 00 00 00 00 00 00 03
 1.261267 1  251             Rx   d 8 00 00 00 00 00 00 00 00
 1.263268 1  252             Rx   d 8 00 00 00 01 00 00 00 00
 1.265273 1  253             Rx   d 8 00 00 00 00 00 00 00 00
 1.267269 1  254             Rx   d 8 00 00 00 02 00 00 00 00
 1.269318 1  241             Rx   d 8 AA 00 00 00 00 00 00 BC
 1.280651 1  221             Rx   d 8 00 00 00 00 00 00 00 00
 1.280900 1  311             Rx   d 8 00 00 00 00 00 00 00 03
 1.281295 1  251             Rx   d 8 00 00 00 00 00 00 00 00
 1.283272 1  252             Rx   d 8 00 00 00 01 00 00 00 00
 1.285326 1  253             Rx   d 8 00 00 00 00 00 00 00 00
 1.287331 1  254             Rx   d 8 00 00 00 02 00 00 00 00
 1.289354 1  241             Rx   d 8 AA 00 00 00 00 00 00 BD
 1.300656 1  221             Rx   d 8 00 00 00 00 00 00 00 00
 1.300898 1  311             Rx   d 8 00 00 00 00 00 00 00 03
 1.301323 1  251             Rx   d 8 00 00 00 00 00 00 00 00
 1.303353 1  252             Rx   d 8 00 00 00 01 00 00 00 00
 1.305296 1  253             Rx   d 8 00 00 00 00 00 00 00 00
 1.307322 1  254             Rx   d 8 00 00 00 02 00 00 00 00
 1.309371 1  241             Rx   d 8 AA 00 00 00 00 00 00 BE
 1.320324 1  261             Rx   d 8 01 29 00 16 1E 00 00 00
 1.320654 1  221             Rx   d 8 00 00 00 00 00 00 00 00
 1.320869 1  311             Rx   d 8 00 00 00 00 00 00 00 03
 1.321350 1  251             Rx   d 8 00 00 00 00 00 00 00 00
 1.323352 1  252             Rx   d 8 00 00 00 01 00 00 00 00
 1.325348 1  253             Rx   d 8 00 00 00 00 00 00 00 00
 1.327347 1  254             Rx   d 8 00 00 00 02 00 00 00 00
 1.329375 1  241             Rx   d 8 AA 00 00 00 00 00 00 BF
 1.331351 1  262             Rx   d 8 01 27 00 16 1E 00 00 00
 1.340653 1  221             Rx   d 8 00 00 00 00 00 00 00 00
 1.340899 1  311             Rx   d 8 00 00 00 00 00 00 00 03
 1.341369 1  251             Rx   d 8 00 00 00 00 00 00 00 00
 1.342352 1  263             Rx   d 8 01 28 00 16 1E 00 00 00
 1.343378 1  252             Rx   d 8 00 00 00 01 00 00 00 00
 1.345378 1  253             Rx   d 8 00 00 00 00 00 00 00 00
 1.347380 1  254             Rx   d 8 00 00 00 02 00 00 00 00
 1.349430 1  241             Rx   d 8 AA 00 00 00 00 00 00 C0
 1.353378 1  264             Rx   d 8 01 27 00 15 1E 00 00 00
 1.360656 1  221             Rx   d 8 00 00 00 00 00 00 00 00
 1.360869 1  311             Rx   d 8 00 00 00 00 00 00 00 03
 1.361398 1  251             Rx   d 8 00 00 00 00 00 00 00 00
 1.363402 1  252             Rx   d 8 00 00 00 01 00 00 00 00
 1.365405 1  253             Rx   d 8 00 00 00 00 00 00 00 00
 1.367403 1  254             Rx   d 8 00 00 00 02 00 00 00 00
 1.369452 1  241             Rx   d 8 AA 00 00 00 00 00 00 C1
 1.380657 1  221             Rx   d 8 00 00 00 00 00 00 00 00
 1.380901 1  311             Rx   d 8 00 00 00 00 00 00 00 03
 1.381374 1  251             Rx   d 8 00 00 00 00 00 00 00 00
 1.383399 1  252             Rx   d 8 00 00 00 01 00 00 00 00
 1.385429 1  253             Rx   d 8 00 00 00 00 00 00 00 00
 1.387440 1  254             Rx   d 8 00 00 00 02 00 00 00 00
 1.389430 1  241             Rx   d 8 AA 00 00 00 00 00 00 C2
 1.400652 1  221             Rx   d 8 00 00 00 00 00 00 00 00
 1.400937 1  311             Rx   d 8 00 00 00 00 00 00 00 03
 1.401425 1  251             Rx   d 8 00 00 00 00 00 00 00 00
 1.403427 1  252             Rx   d 8 00 00 00 01 00 00 00 00
 1.405427 1  253             Rx   d 8 00 00 00 00 00 00 00 00
 1.407455 1  254             Rx   d 8 00 00 00 02 00 00 00 00
 1.409539 1  241             Rx   d 8 AA 00 00 00 00 00 00 C3
 1.420453 1  261             Rx   d 8 01 29 00 16 1E 00 00 00
 1.420700 1  221             Rx   d 8 00 00 00 00 00 00 00 00
 1.420947 1  311             Rx   d 8 00 00 00 00 00 00 00 03
 1.421451 1  251             Rx   d 8 00 00 00 00 00 00 00 00
 1.423451 1  252             Rx   d 8 00 00 00 01 00 00 00 00
 1.425442 1  253             Rx   d 8 00 00 00 00 00 00 00 00
 1.427427 1  254             Rx   d 8 00 00 00 02 00 00 00 00
 1.429478 1  241             Rx   d 8 AA 00 00 00 00 00 00 C4
 1.431432 1  262             Rx   d 8 01 27 00 16 1E 00 00 00
 1.439503 1  211             Rx   d 8 00 01 01 1E 00 00 00 00
 1.440626 1  221             Rx   d 8 00 00 00 00 00 00 00 00
 1.440873 1  311             Rx   d 8 00 00 00 00 00 00 00 03
 1.441447 1  251             Rx   d 8 00 00 00 00 00 00 00 00
 1.442457 1  263             Rx   d 8 01 28 00 16 1E 00 00 00
 1.443459 1  252             Rx   d 8 00 00 00 01 00 00 00 00
 1.445498 1  253             Rx   d 8 00 00 00 00 00 00 00 00
 1.447462 1  254             Rx   d 8 00 00 00 02 00 00 00 00
 1.449497 1  241             Rx   d 8 AA 00 00 00 00 00 00 C5
 1.453478 1  264             Rx   d 8 01 26 00 15 1E 00 00 00
 1.460638 1  221             Rx   d 8 00 00 00 00 00 00 00 00
 1.460875 1  311             Rx   d 8 00 00 00 00 00 00 00 03
 1.461509 1  251             Rx   d 8 00 00 00 00 00 00 00 00
 1.463516 1  252             Rx   d 8 00 00 00 01 00 00 00 00
 1.465486 1  253             Rx   d 8 00 00 00 00 00 00 00 00
 1.467478 1  254             Rx   d 8 00 00 00 02 00 00 00 00
 1.469532 1  241             Rx   d 8 AA 00 00 00 00 00 00 C6
 1.480653 1  221             Rx   d 8 00 00 00 00 00 00 00 00
 1.480929 1  311             Rx   d 8 00 00 00 00 00 00 00 03
 1.481527 1  251             Rx   d 8 00 00 00 00 00 00 00 00
 1.483475 1  252             Rx   d 8 00 00 00 01 00 00 00 00
 1.485504 1  253             Rx   d 8 00 00 00 00 00 00 00 00
 1.487510 1  254             Rx   d 8 00 00 00 02 00 00 00 00
 1.489576 1  241             Rx   d 8 AA 00 00 00 00 00 00 C7
 1.500682 1  221             Rx   d 8 00 00 00 00 00 00 00 00
 1.500943 1  311             Rx   d 8 00 00 00 00 00 00 00 03
 1.501503 1  251             Rx   d 8 00 00 00 00 00 00 00 00
 1.503528 1  252             Rx   d 8 00 00 00 01 00 00 00 00
 1.505503 1  253             Rx   d 8 00 00 00 00 00 00 00 00
 1.507539 1  254             Rx   d 8 00 00 00 02 00 00 00 00
 1.509614 1  241             Rx   d 8 AA 00 00 00 00 00 00 C8
 1.520606 1  261             Rx   d 8 01 29 00 16 1E 00 00 00
 1.520771 1  221             Rx   d 8 00 00 00 00 00 00 00 00
 1.521049 1  311             Rx   d 8 00 00 00 00 00 00 00 03
 1.521549 1  251             Rx   d 8 00 00 00 00 00 00 00 00
 1.523602 1  252             Rx   d 8 00 00 00 01 00 00 00 00
 1.525609 1  253             Rx   d 8 00 00 00 00 00 00 00 00
 1.527663 1  254             Rx   d 8 00 00 00 02 00 00 00 00
 1.529604 1  241             Rx   d 8 AA 00 00 00 00 00 00 C9
 1.531605 1  262             Rx   d 8 01 27 00 16 1E 00 00 00
 1.540680 1  221             Rx   d 8 00 00 00 00 00 00 00 00
 1.540927 1  311             Rx   d 8 00 00 00 00 00 00 00 03
 1.541603 1  251             Rx   d 8 00 00 00 00 00 00 00 00
 1.542638 1  263             Rx   d 8 01 28 00 16 1E 00 00 00
 1.543606 1  252             Rx   d 8 00 00 00 01 00 00 00 00
 1.545611 1  253             Rx   d 8 00 00 00 00 00 00 00 00
 1.547603 1  254             Rx   d 8 00 00 00 02 00 00 00 00
 1.549633 1  241             Rx   d 8 AA 00 00 00 00 00 00 CA
 1.553580 1  264             Rx   d 8 01 26 00 15 1E 00 00 00
 1.560712 1  221             Rx   d 8 00 00 00 00 00 00 00 00
 1.560946 1  311             Rx   d 8 00 00 00 00 00 00 00 03
 1.561584 1  251             Rx   d 8 00 00 00 00 00 00 00 00
 1.563641 1  252             Rx   d 8 00 00 00 01 00 00 00 00
 1.565607 1  253             Rx   d 8 00 00 00 00 00 00 00 00
 1.567604 1  254             Rx   d 8 00 00 00 02 00 00 00 00
 1.569602 1  241             Rx   d 8 AA 00 00 00 00 00 00 CB
 1.580673 1  221             Rx   d 8 00 00 00 00 00 00 00 00
 1.580940 1  311             Rx   d 8 00 00 00 00 00 00 00 03
 1.581686 1  251             Rx   d 8 00 00 00 00 00 00 00 00
 1.583607 1  252             Rx   d 8 00 00 00 01 00 00 00 00
 1.585605 1  253             Rx   d 8 00 00 00 00 00 00 00 00
 1.587629 1  254             Rx   d 8 00 00 00 02 00 00 00 00
 1.589682 1  241             Rx   d 8 AA 00 00 00 00 00 00 CC
 1.600684 1  221             Rx   d 8 00 00 00 00 00 00 00 00
 1.600930 1  311             Rx   d 8 00 00 00 00 00 00 00 03
 1.601634 1  251             Rx   d 8 00 00 00 00 00 00 00 00
 1.603630 1  252             Rx   d 8 00 00 00 01 00 00 00 00
 1.605630 1  253             Rx   d 8 00 00 00 00 00 00 00 00
 1.607630 1  254             Rx   d 8 00 00 00 02 00 00 00 00
 1.609710 1  241             Rx   d 8 AA 00 00 00 00 00 00 CD
 1.620662 1  221             Rx   d 8 00 00 00 00 00 00 00 00
 1.620944 1  311             Rx   d 8 00 00 00 00 00 00 00 03
 1.621179 1  261             Rx   d 8 01 29 00 16 1E 00 00 00
 1.621655 1  251             Rx   d 8 00 00 00 00 00 00 00 00
 1.623654 1  252             Rx   d 8 00 00 00 01 00 00 00 00
 1.625643 1  253             Rx   d 8 00 00 00 00 00 00 00 00
 1.627674 1  254             Rx   d 8 00 00 00 02 00 00 00 00
 1.629678 1  241             Rx   d 8 AA 00 00 00 00 00 00 CE
 1.631655 1  262             Rx   d 8 01 27 00 16 1E 00 00 00
 1.639745 1  211             Rx   d 8 00 01 01 1E 00 00 00 00
 1.640711 1  221             Rx   d 8 00 00 00 00 00 00 00 00
 1.640958 1  311             Rx   d 8 00 00 00 00 00 00 00 03
 1.641687 1  251             Rx   d 8 00 00 00 00 00 00 00 00
 1.642704 1  263             Rx   d 8 01 28 00 16 1E 00 00 00
 1.643688 1  252             Rx   d 8 00 00 00 01 00 00 00 00
 1.645663 1  253             Rx   d 8 00 00 00 00 00 00 00 00
 1.647711 1  254             Rx   d 8 00 00 00 02 00 00 00 00
 1.649737 1  241             Rx   d 8 AA 00 00 00 00 00 00 CF
 1.653686 1  264             Rx   d 8 01 27 00 16 1E 00 00 00
 1.660722 1  221             Rx   d 8 00 00 00 00 00 00 00 00
 1.660937 1  311             Rx   d 8 00 00 00 00 00 00 00 03
 1.661756 1  251             Rx   d 8 00 00 00 00 00 00 00 00
 1.663706 1  252             Rx   d 8 00 00 00 01 00 00 00 00
 1.665705 1  253             Rx   d 8 00 00 00 00 00 00 00 00
 1.667681 1  254             Rx   d 8 00 00 00 02 00 00 00 00
 1.669698 1  241             Rx   d 8 AA 00 00 00 00 00 00 D0
 1.680695 1  221             Rx   d 8 00 00 00 00 00 00 00 00
 1.680935 1  311             Rx   d 8 00 00 00 00 00 00 00 03
 1.681706 1  251             Rx   d 8 00 00 00 00 00 00 00 00
 1.683705 1  252             Rx   d 8 00 00 00 01 00 00 00 00
 1.685735 1  253             Rx   d 8 00 00 00 00 00 00 00 00
 1.687744 1  254             Rx   d 8 00 00 00 02 00 00 00 00
 1.689761 1  241             Rx   d 8 AA 00 00 00 00 00 00 D1
 1.700683 1  221             Rx   d 8 00 00 00 00 00 00 00 00
 1.700940 1  311             Rx   d 8 00 00 00 00 00 00 00 03
 1.701734 1  251             Rx   d 8 00 00 00 00 00 00 00 00
 1.703734 1  252             Rx   d 8 00 00 00 01 00 00 00 00
 1.705731 1  253             Rx   d 8 00 00 00 00 00 00 00 00
 1.707758 1  254             Rx   d 8 00 00 00 02 00 00 00 00
 1.709853 1  241             Rx   d 8 AA 00 00 00 00 00 00 D2
 1.720683 1  221             Rx   d 8 00 00 00 00 00 00 00 00
 1.720953 1  311             Rx   d 8 00 00 00 00 00 00 00 03
 1.721176 1  261             Rx   d 8 01 29 00 16 1E 00 00 00
 1.721762 1  251             Rx   d 8 00 00 00 00 00 00 00 00
 1.723760 1  252             Rx   d 8 00 00 00 01 00 00 00 00
 1.725777 1  253             Rx   d 8 00 00 00 00 00 00 00 00
 1.727789 1  254             Rx   d 8 00 00 00 02 00 00 00 00
 1.729815 1  241             Rx   d 8 AA 00 00 00 00 00 00 D3
 1.731740 1  262             Rx   d 8 01 27 00 16 1E 00 00 00
 1.740707 1  221             Rx   d 8 00 00 00 00 00 00 00 00
 1.740955 1  311             Rx   d 8 00 00 00 00 00 00 00 03
 1.741789 1  251             Rx   d 8 00 00 00 00 00 00 00 00
 1.742787 1  263             Rx   d 8 01 28 00 16 1E 00 00 00
 1.743781 1  252             Rx   d 8 00 00 00 01 00 00 00 00
 1.745782 1  253             Rx   d 8 00 00 00 00 00 00 00 00
 1.747781 1  254             Rx   d 8 00 00 00 02 00 00 00 00
 1.749832 1  241             Rx   d 8 AA 00 00 00 00 00 00 D4
 1.753757 1  264             Rx   d 8 01 26 00 16 1E 00 00 00
 1.759820 1  231             Rx   d 8 00 00 00 02 1F 00 00 00
 1.760685 1  221             Rx   d 8 00 00 00 00 00 00 00 00
 1.760956 1  311             Rx   d 8 00 00 00 00 00 00 00 03
 1.761810 1  251             Rx   d 8 00 00 00 00 00 00 00 00
 1.763810 1  252             Rx   d 8 00 00 00 01 00 00 00 00
 1.765806 1  253             Rx   d 8 00 00 00 00 00 00 00 00
 1.767809 1  254             Rx   d 8 00 00 00 02 00 00 00 00
 1.769858 1  241             Rx   d 8 AA 00 00 00 00 00 00 D5
 1.780740 1  221             Rx   d 8 00 00 00 00 00 00 00 00
 1.780975 1  311             Rx   d 8 00 00 00 00 00 00 00 03
 1.781809 1  251             Rx   d 8 00 00 00 00 00 00 00 00
 1.783809 1  252             Rx   d 8 00 00 00 01 00 00 00 00
 1.785832 1  253             Rx   d 8 00 00 00 00 00 00 00 00
 1.787832 1  254             Rx   d 8 00 00 00 02 00 00 00 00
 1.789865 1  241             Rx   d 8 AA 00 00 00 00 00 00 D6
 1.800709 1  221             Rx   d 8 00 00 00 00 00 00 00 00
 1.800989 1  311             Rx   d 8 00 00 00 00 00 00 00 03
 1.801834 1  251             Rx   d 8 00 00 00 00 00 00 00 00
 1.803836 1  252             Rx   d 8 00 00 00 01 00 00 00 00
 1.805843 1  253             Rx   d 8 00 00 00 00 00 00 00 00
 1.807848 1  254             Rx   d 8 00 00 00 02 00 00 00 00
 1.809929 1  241             Rx   d 8 AA 00 00 00 00 00 00 D7
 1.820715 1  221             Rx   d 8 00 00 00 00 00 00 00 00
 1.820966 1  311             Rx   d 8 00 00 00 00 00 00 00 03
 1.821205 1  261             Rx   d 8 01 29 00 16 1E 00 00 00
 1.821860 1  251             Rx   d 8 00 00 00 00 00 00 00 00
 1.823874 1  252             Rx   d 8 00 00 00 01 00 00 00 00
 1.825859 1  253             Rx   d 8 00 00 00 00 00 00 00 00
 1.827922 1  254             Rx   d 8 00 00 00 02 00 00 00 00
 1.829924 1  241             Rx   d 8 AA 00 00 00 00 00 00 D8
 1.831865 1  262             Rx   d 8 01 27 00 16 1E 00 00 00
 1.839915 1  211             Rx   d 8 00 01 01 1E 00 00 00 00
 1.840711 1  221             Rx   d 8 00 00 00 00 00 00 00 00
 1.840958 1  311             Rx   d 8 00 00 00 00 00 00 00 03
 1.841892 1  251             Rx   d 8 00 00 00 00 00 00 00 00
 1.842931 1  263             Rx   d 8 01 28 00 16 1E 00 00 00
 1.843941 1  252             Rx   d 8 00 00 00 01 00 00 00 00
 1.845930 1  253             Rx   d 8 00 00 00 00 00 00 00 00
 1.847925 1  254             Rx   d 8 00 00 00 02 00 00 00 00
 1.849917 1  241             Rx   d 8 AA 00 00 00 00 00 00 D9
 1.853887 1  264             Rx   d 8 01 27 00 15 1E 00 00 00
 1.860754 1  221             Rx   d 8 00 00 00 00 00 00 00 00
 1.860962 1  311             Rx   d 8 00 00 00 00 00 00 00 03
 1.861900 1  251             Rx   d 8 00 00 00 00 00 00 00 00
 1.863923 1  252             Rx   d 8 00 00 00 01 00 00 00 00
 1.865930 1  253             Rx   d 8 00 00 00 00 00 00 00 00
 1.867889 1  254             Rx   d 8 00 00 00 02 00 00 00 00
 1.869947 1  241             Rx   d 8 AA 00 00 00 00 00 00 DA
 1.880712 1  221             Rx   d 8 00 00 00 00 00 00 00 00
 1.880958 1  311             Rx   d 8 00 00 00 00 00 00 00 03
 1.881902 1  251             Rx   d 8 00 00 00 00 00 00 00 00
 1.883919 1  252             Rx   d 8 00 00 00 01 00 00 00 00
 1.885939 1  253             Rx   d 8 00 00 00 00 00 00 00 00
 1.887964 1  254             Rx   d 8 00 00 00 02 00 00 00 00
 1.889990 1  241             Rx   d 8 AA 00 00 00 00 00 00 DB
 1.900712 1  221             Rx   d 8 00 00 00 00 00 00 00 00
 1.900958 1  311             Rx   d 8 00 00 00 00 00 00 00 03
 1.901935 1  251             Rx   d 8 00 00 00 00 00 00 00 00
 1.903912 1  252             Rx   d 8 00 00 00 01 00 00 00 00
 1.905915 1  253             Rx   d 8 00 00 00 00 00 00 00 00
 1.907930 1  254             Rx   d 8 00 00 00 02 00 00 00 00
 1.910056 1  241             Rx   d 8 AA 00 00 00 00 00 00 DC
 1.920712 1  221             Rx   d 8 00 00 00 00 00 00 00 00
 1.920960 1  311             Rx   d 8 00 00 00 00 00 00 00 03
 1.921209 1  261             Rx   d 8 01 29 00 16 1E 00 00 00
 1.921960 1  251             Rx   d 8 00 00 00 00 00 00 00 00
 1.923979 1  252             Rx   d 8 00 00 00 01 00 00 00 00
 1.926014 1  253             Rx   d 8 00 00 00 00 00 00 00 00
 1.927993 1  254             Rx   d 8 00 00 00 02 00 00 00 00
 1.930016 1  241             Rx   d 8 AA 00 00 00 00 00 00 DD
 1.931965 1  262             Rx   d 8 01 27 00 16 1E 00 00 00
 1.940711 1  221             Rx   d 8 00 00 00 00 00 00 00 00
 1.940960 1  311             Rx   d 8 00 00 00 00 00 00 00 03
 1.941983 1  251             Rx   d 8 00 00 00 00 00 00 00 00
 1.943086 1  263             Rx   d 8 01 28 00 16 1E 00 00 00
 1.943992 1  252             Rx   d 8 00 00 00 01 00 00 00 00
 1.945970 1  253             Rx   d 8 00 00 00 00 00 00 00 00
 1.947984 1  254             Rx   d 8 00 00 00 02 00 00 00 00
 1.950046 1  241             Rx   d 8 AA 00 00 00 00 00 00 DE
 1.953990 1  264             Rx   d 8 01 27 00 15 1E 00 00 00
 1.960725 1  221             Rx   d 8 00 00 00 00 00 00 00 00
 1.960955 1  311             Rx   d 8 00 00 00 00 00 00 00 03
 1.962001 1  251             Rx   d 8 00 00 00 00 00 00 00 00
 1.963993 1  252             Rx   d 8 00 00 00 01 00 00 00 00
 1.966021 1  253             Rx   d 8 00 00 00 00 00 00 00 00
 1.968012 1  254             Rx   d 8 00 00 00 02 00 00 00 00
 1.970042 1  241             Rx   d 8 AA 00 00 00 00 00 00 DF
 1.980739 1  221             Rx   d 8 00 00 00 00 00 00 00 00
 1.980986 1  311             Rx   d 8 00 00 00 00 00 00 00 03
 1.981988 1  251             Rx   d 8 00 00 00 00 00 00 00 00
 1.983990 1  252             Rx   d 8 00 00 00 01 00 00 00 00
 1.986012 1  253             Rx   d 8 00 00 00 00 00 00 00 00
 1.988043 1  254             Rx   d 8 00 00 00 02 00 00 00 00
 1.990093 1  241             Rx   d 8 AA 00 00 00 00 00 00 E0
 2.000717 1  221             Rx   d 8 00 00 00 00 00 00 00 00
 2.000991 1  311             Rx   d 8 00 00 00 00 00 00 00 03
 2.002037 1  251             Rx   d 8 00 00 00 00 00 00 00 00
 2.004076 1  252             Rx   d 8 00 00 00 01 00 00 00 00
 2.006042 1  253             Rx   d 8 00 00 00 00 00 00 00 00
 2.008039 1  254             Rx   d 8 00 00 00 02 00 00 00 00
 2.010195 1  241             Rx   d 8 AA 00 00 00 00 00 00 E1
 2.020727 1  221             Rx   d 8 00 00 00 00 00 00 00 00
 2.020973 1  311             Rx   d 8 00 00 00 00 00 00 00 03
 2.021181 1  261             Rx   d 8 01 29 00 16 1E 00 00 00
 2.022040 1  251             Rx   d 8 00 00 00 00 00 00 00 00
 2.024036 1  252             Rx   d 8 00 00 00 01 00 00 00 00
 2.026053 1  253             Rx   d 8 00 00 00 00 00 00 00 00
 2.028074 1  254             Rx   d 8 00 00 00 02 00 00 00 00
 2.030067 1  241             Rx   d 8 AA 00 00 00 00 00 00 E2
 2.032075 1  262             Rx   d 8 01 27 00 16 1E 00 00 00
 2.040098 1  211             Rx   d 8 00 01 01 1E 00 00 00 00
 2.040686 1  221             Rx   d 8 00 00 00 00 00 00 00 00
 2.040960 1  311             Rx   d 8 00 00 00 00 00 00 00 03
 2.042064 1  251             Rx   d 8 00 00 00 00 00 00 00 00
 2.043056 1  263             Rx   d 8 01 28 00 16 1E 00 00 00
 2.044123 1  252             Rx   d 8 00 00 00 01 00 00 00 00
 2.046087 1  253             Rx   d 8 00 00 00 00 00 00 00 00
 2.048089 1  254             Rx   d 8 00 00 00 03 00 00 00 00
 2.050148 1  241             Rx   d 8 AA 00 00 00 00 00 00 E3
 2.054091 1  264             Rx   d 8 01 27 00 15 1E 00 00 00
 2.060751 1  221             Rx   d 8 00 00 00 00 00 00 00 00
 2.060998 1  311             Rx   d 8 00 00 00 00 00 00 00 03
 2.062119 1  251             Rx   d 8 00 00 00 00 00 00 00 00
 2.064145 1  252             Rx   d 8 00 00 00 01 00 00 00 00
 2.066096 1  253             Rx   d 8 00 00 00 00 00 00 00 00
 2.068116 1  254             Rx   d 8 00 00 00 03 00 00 00 00
 2.070140 1  241             Rx   d 8 AA 00 00 00 00 00 00 E4
 2.080751 1  221             Rx   d 8 00 00 00 00 00 00 00 00
 2.080972 1  311             Rx   d 8 00 00 00 00 00 00 00 03
 2.082124 1  251             Rx   d 8 00 00 00 00 00 00 00 00
 2.084117 1  252             Rx   d 8 00 00 00 01 00 00 00 00
 2.086145 1  253             Rx   d 8 00 00 00 00 00 00 00 00
 2.088142 1  254             Rx   d 8 00 00 00 03 00 00 00 00
 2.090141 1  241             Rx   d 8 AA 00 00 00 00 00 00 E5
 2.100743 1  221             Rx   d 8 00 00 00 00 00 00 00 00
 2.100990 1  311             Rx   d 8 00 00 00 00 00 00 00 03
 2.102140 1  251             Rx   d 8 00 00 00 00 00 00 00 00
 2.104115 1  252             Rx   d 8 00 00 00 01 00 00 00 00
 2.106181 1  253             Rx   d 8 00 00 00 00 00 00 00 00
 2.108150 1  254             Rx   d 8 00 00 00 02 00 00 00 00
 2.110219 1  241             Rx   d 8 AA 00 00 00 00 00 00 E6
 2.120723 1  221             Rx   d 8 00 00 00 00 00 00 00 00
 2.120997 1  311             Rx   d 8 00 00 00 00 00 00 00 03
 2.121237 1  261             Rx   d 8 01 29 00 16 1E 00 00 00
 2.122165 1  251             Rx   d 8 00 00 00 00 00 00 00 00
 2.124166 1  252             Rx   d 8 00 00 00 01 00 00 00 00
 2.126173 1  253             Rx   d 8 00 00 00 00 00 00 00 00
 2.128172 1  254             Rx   d 8 00 00 00 02 00 00 00 00
 2.130225 1  241             Rx   d 8 AA 00 00 00 00 00 00 E7
 2.132169 1  262             Rx   d 8 01 27 00 16 1E 00 00 00
 2.140755 1  221             Rx   d 8 00 00 00 00 00 00 00 00
 2.140997 1  311             Rx   d 8 00 00 00 00 00 00 00 03
 2.142199 1  251             Rx   d 8 00 00 00 00 00 00 00 00
 2.143176 1  263             Rx   d 8 01 28 00 16 1E 00 00 00
 2.144228 1  252             Rx   d 8 00 00 00 01 00 00 00 00
 2.146192 1  253             Rx   d 8 00 00 00 00 00 00 00 00
 2.148192 1  254             Rx   d 8 00 00 00 02 00 00 00 00
 2.150218 1  241             Rx   d 8 AA 00 00 00 00 00 00 E8
 2.154194 1  264             Rx   d 8 01 26 00 15 1E 00 00 00
 2.160727 1  221             Rx   d 8 00 00 00 00 00 00 00 00
 2.160962 1  311             Rx   d 8 00 00 00 00 00 00 00 03
 2.162231 1  251             Rx   d 8 00 00 00 00 00 00 00 00
 2.164211 1  252             Rx   d 8 00 00 00 01 00 00 00 00
 2.166222 1  253             Rx   d 8 00 00 00 00 00 00 00 00
 2.168220 1  254             Rx   d 8 00 00 00 02 00 00 00 00
 2.170244 1  241             Rx   d 8 AA 00 00 00 00 00 00 E9
 2.180745 1  221             Rx   d 8 00 00 00 00 00 00 00 00
 2.181002 1  311             Rx   d 8 00 00 00 00 00 00 00 03
 2.182194 1  251             Rx   d 8 00 00 00 00 00 00 00 00
 2.184256 1  252             Rx   d 8 00 00 00 01 00 00 00 00
 2.186244 1  253             Rx   d 8 00 00 00 00 00 00 00 00
 2.188245 1  254             Rx   d 8 00 00 00 02 00 00 00 00
 2.190287 1  241             Rx   d 8 AA 00 00 00 00 00 00 EA
 2.200744 1  221             Rx   d 8 00 00 00 00 00 00 00 00
 2.200991 1  311             Rx   d 8 00 00 00 00 00 00 00 03
 2.202249 1  251             Rx   d 8 00 00 00 00 00 00 00 00
 2.204242 1  252             Rx   d 8 00 00 00 01 00 00 00 00
 2.206244 1  253             Rx   d 8 00 00 00 00 00 00 00 00
 2.208246 1  254             Rx   d 8 00 00 00 02 00 00 00 00
 2.210310 1  241             Rx   d 8 AA 00 00 00 00 00 00 EB
 2.220716 1  221             Rx   d 8 00 00 00 00 00 00 00 00
 2.220994 1  311             Rx   d 8 00 00 00 00 00 00 00 03
 2.221265 1  261             Rx   d 8 01 29 00 16 1E 00 00 00
 2.222268 1  251             Rx   d 8 00 00 00 00 00 00 00 00
 2.224269 1  252             Rx   d 8 00 00 00 01 00 00 00 00
 2.226269 1  253             Rx   d 8 00 00 00 00 00 00 00 00
 2.228243 1  254             Rx   d 8 00 00 00 02 00 00 00 00
 2.230296 1  241             Rx   d 8 AA 00 00 00 00 00 00 EC
 2.232240 1  262             Rx   d 8 01 27 00 16 1E 00 00 00
 2.240294 1  211             Rx   d 8 00 01 01 1E 00 00 00 00
 2.240736 1  221             Rx   d 8 00 00 00 00 00 00 00 00
 2.240991 1  311             Rx   d 8 00 00 00 00 00 00 00 03
 2.242270 1  251             Rx   d 8 00 00 00 00 00 00 00 00
 2.243272 1  263             Rx   d 8 01 28 00 16 1E 00 00 00
 2.244284 1  252             Rx   d 8 00 00 00 01 00 00 00 00
 2.246298 1  253             Rx   d 8 00 00 00 00 00 00 00 00
 2.248288 1  254             Rx   d 8 00 00 00 02 00 00 00 00
 2.250347 1  241             Rx   d 8 AA 00 00 00 00 00 00 ED
 2.254300 1  264             Rx   d 8 01 26 00 16 1E 00 00 00
 2.260370 1  231             Rx   d 8 00 00 00 02 0B 00 00 00
 2.260743 1  221             Rx   d 8 00 00 00 00 00 00 00 00
 2.261016 1  311             Rx   d 8 00 00 00 00 00 00 00 03
 2.262316 1  251             Rx   d 8 00 00 00 00 00 00 00 00
 2.264294 1  252             Rx   d 8 00 00 00 01 00 00 00 00
 2.266319 1  253             Rx   d 8 00 00 00 00 00 00 00 00
 2.268319 1  254             Rx   d 8 00 00 00 02 00 00 00 00
 2.270295 1  241             Rx   d 8 AA 00 00 00 00 00 00 EE
 2.280737 1  221             Rx   d 8 00 00 00 00 00 00 00 00
 2.281017 1  311             Rx   d 8 00 00 00 00 00 00 00 03
 2.282295 1  251             Rx   d 8 00 00 00 00 00 00 00 00
 2.284321 1  252             Rx   d 8 00 00 00 01 00 00 00 00
 2.286324 1  253             Rx   d 8 00 00 00 00 00 00 00 00
 2.288322 1  254             Rx   d 8 00 00 00 02 00 00 00 00
 2.290322 1  241             Rx   d 8 AA 00 00 00 00 00 00 EF
 2.300771 1  221             Rx   d 8 00 00 00 00 00 00 00 00
 2.301019 1  311             Rx   d 8 00 00 00 00 00 00 00 03
 2.302345 1  251             Rx   d 8 00 00 00 00 00 00 00 00
 2.304343 1  252             Rx   d 8 00 00 00 01 00 00 00 00
 2.306345 1  253             Rx   d 8 00 00 00 00 00 00 00 00
 2.308345 1  254             Rx   d 8 00 00 00 02 00 00 00 00
 2.310425 1  241             Rx   d 8 AA 00 00 00 00 00 00 F0
 2.320765 1  221             Rx   d 8 00 00 00 00 00 00 00 00
 2.321018 1  311             Rx   d 8 00 00 00 00 00 00 00 03
 2.321365 1  261             Rx   d 8 01 29 00 16 1E 00 00 00
 2.322372 1  251             Rx   d 8 00 00 00 00 00 00 00 00
 2.324371 1  252             Rx   d 8 00 00 00 01 00 00 00 00
 2.326370 1  253             Rx   d 8 00 00 00 00 00 00 00 00
 2.328374 1  254             Rx   d 8 00 00 00 02 00 00 00 00
 2.330425 1  241             Rx   d 8 AA 00 00 00 00 00 00 F1
 2.332373 1  262             Rx   d 8 01 28 00 16 1E 00 00 00
 2.340770 1  221             Rx   d 8 00 00 00 00 00 00 00 00
 2.341017 1  311             Rx   d 8 00 00 00 00 00 00 00 03
 2.342395 1  251             Rx   d 8 00 00 00 00 00 00 00 00
 2.343371 1  263             Rx   d 8 01 28 00 16 1E 00 00 00
 2.344395 1  252             Rx   d 8 00 00 00 01 00 00 00 00
 2.346399 1  253             Rx   d 8 00 00 00 00 00 00 00 00
 2.348404 1  254             Rx   d 8 00 00 00 02 00 00 00 00
 2.350453 1  241             Rx   d 8 AA 00 00 00 00 00 00 F2
 2.354405 1  264             Rx   d 8 01 27 00 16 1E 00 00 00
 2.360775 1  221             Rx   d 8 00 00 00 00 00 00 00 00
 2.361019 1  311             Rx   d 8 00 00 00 00 00 00 00 03
 2.362393 1  251             Rx   d 8 00 00 00 00 00 00 00 00
 2.364398 1  252             Rx   d 8 00 00 00 01 00 00 00 00
 2.366422 1  253             Rx   d 8 00 00 00 00 00 00 00 00
 2.368421 1  254             Rx   d 8 00 00 00 02 00 00 00 00
 2.370452 1  241             Rx   d 8 AA 00 00 00 00 00 00 F3
 2.380772 1  221             Rx   d 8 00 00 00 00 00 00 00 00
 2.381021 1  311             Rx   d 8 00 00 00 00 00 00 00 03
 2.382421 1  251             Rx   d 8 00 00 00 00 00 00 00 00
 2.384422 1  252             Rx   d 8 00 00 00 01 00 00 00 00
 2.386423 1  253             Rx   d 8 00 00 00 00 00 00 00 00
 2.388427 1  254             Rx   d 8 00 00 00 02 00 00 00 00
 2.390505 1  241             Rx   d 8 AA 00 00 00 00 00 00 F4
 2.400773 1  221             Rx   d 8 00 00 00 00 00 00 00 00
 2.401020 1  311             Rx   d 8 00 00 00 00 00 00 00 03
 2.402447 1  251             Rx   d 8 00 00 00 00 00 00 00 00
 2.404447 1  252             Rx   d 8 00 00 00 01 00 00 00 00
 2.406449 1  253             Rx   d 8 00 00 00 00 00 00 00 00
 2.408453 1  254             Rx   d 8 00 00 00 02 00 00 00 00
 2.410527 1  241             Rx   d 8 AA 00 00 00 00 00 00 F5
 2.420772 1  221             Rx   d 8 00 00 00 00 00 00 00 00
 2.421024 1  311             Rx   d 8 00 00 00 00 00 00 00 03
 2.421472 1  261             Rx   d 8 01 29 00 16 1E 00 00 00
 2.422473 1  251             Rx   d 8 00 00 00 00 00 00 00 00
 2.424474 1  252             Rx   d 8 00 00 00 01 00 00 00 00
 2.426472 1  253             Rx   d 8 00 00 00 00 00 00 00 00
 2.428474 1  254             Rx   d 8 00 00 00 02 00 00 00 00
 2.430524 1  241             Rx   d 8 AA 00 00 00 00 00 00 F6
 2.432473 1  262             Rx   d 8 01 27 00 16 1E 00 00 00
 2.440550 1  211             Rx   d 8 00 01 01 1F 00 00 00 00
 2.440812 1  221             Rx   d 8 00 00 00 00 00 00 00 00
 2.441051 1  311             Rx   d 8 00 00 00 00 00 00 00 03
 2.442497 1  251             Rx   d 8 00 00 00 00 00 00 00 00
 2.443497 1  263             Rx   d 8 01 28 00 16 1E 00 00 00
 2.444499 1  252             Rx   d 8 00 00 00 01 00 00 00 00
 2.446498 1  253             Rx   d 8 00 00 00 00 00 00 00 00
 2.448502 1  254             Rx   d 8 00 00 00 02 00 00 00 00
 2.450501 1  241             Rx   d 8 AA 00 00 00 00 00 00 F7
 2.454498 1  264             Rx   d 8 01 27 00 16 1E 00 00 00
 2.460776 1  221             Rx   d 8 00 00 00 00 00 00 00 00
 2.461022 1  311             Rx   d 8 00 00 00 00 00 00 00 03
 2.462498 1  251             Rx   d 8 00 00 00 00 00 00 00 00
 2.464525 1  252             Rx   d 8 00 00 00 01 00 00 00 00
 2.466505 1  253             Rx   d 8 00 00 00 00 00 00 00 00
 2.468505 1  254             Rx   d 8 00 00 00 02 00 00 00 00
 2.470623 1  241             Rx   d 8 AA 00 00 00 00 00 00 F8
 2.480767 1  221             Rx   d 8 00 00 00 00 00 00 00 00
 2.481021 1  311             Rx   d 8 00 00 00 00 00 00 00 03
 2.482524 1  251             Rx   d 8 00 00 00 00 00 00 00 00
 2.484526 1  252             Rx   d 8 00 00 00 01 00 00 00 00
 2.486548 1  253             Rx   d 8 00 00 00 00 00 00 00 00
 2.488524 1  254             Rx   d 8 00 00 00 02 00 00 00 00
 2.490623 1  241             Rx   d 8 AA 00 00 00 00 00 00 F9
 2.500806 1  221             Rx   d 8 00 00 00 00 00 00 00 00
 2.501048 1  311             Rx   d 8 00 00 00 00 00 00 00 03
 2.502549 1  251             Rx   d 8 00 00 00 00 00 00 00 00
 2.504551 1  252             Rx   d 8 00 00 00 01 00 00 00 00
 2.506552 1  253             Rx   d 8 00 00 00 00 00 00 00 00
 2.508553 1  254             Rx   d 8 00 00 00 02 00 00 00 00
 2.510628 1  241             Rx   d 8 AA 00 00 00 00 00 00 FA
 2.520779 1  221             Rx   d 8 00 00 00 00 00 00 00 00
 2.521053 1  311             Rx   d 8 00 00 00 00 00 00 00 03
 2.521574 1  261             Rx   d 8 01 29 00 16 1E 00 00 00
 2.522598 1  251             Rx   d 8 00 00 00 00 00 00 00 00
 2.524628 1  252             Rx   d 8 00 00 00 01 00 00 00 00
 2.526580 1  253             Rx   d 8 00 00 00 00 00 00 00 00
 2.528636 1  254             Rx   d 8 00 00 00 02 00 00 00 00
 2.530627 1  241             Rx   d 8 AA 00 00 00 00 00 00 FB
 2.532628 1  262             Rx   d 8 01 27 00 16 1E 00 00 00
 2.540810 1  221             Rx   d 8 00 00 00 00 00 00 00 00
 2.541051 1  311             Rx   d 8 00 00 00 00 00 00 00 03
 2.542629 1  251             Rx   d 8 00 00 00 00 00 00 00 00
 2.543629 1  263             Rx   d 8 01 28 00 16 1E 00 00 00
 2.544629 1  252             Rx   d 8 00 00 00 01 00 00 00 00
 2.546630 1  253             Rx   d 8 00 00 00 00 00 00 00 00
 2.548629 1  254             Rx   d 8 00 00 00 02 00 00 00 00
 2.550627 1  241             Rx   d 8 AA 00 00 00 00 00 00 FC
 2.554629 1  264             Rx   d 8 01 27 00 15 1E 00 00 00
 2.560812 1  221             Rx   d 8 00 00 00 00 00 00 00 00
 2.561054 1  311             Rx   d 8 00 00 00 00 00 00 00 03
 2.562631 1  251             Rx   d 8 00 00 00 00 00 00 00 00
 2.564628 1  252             Rx   d 8 00 00 00 01 00 00 00 00
 2.566630 1  253             Rx   d 8 00 00 00 00 00 00 00 00
 2.568641 1  254             Rx   d 8 00 00 00 02 00 00 00 00
 2.570674 1  241             Rx   d 8 AA 00 00 00 00 00 00 FD
 2.580774 1  221             Rx   d 8 00 00 00 00 00 00 00 00
 2.581048 1  311             Rx   d 8 00 00 00 00 00 00 00 03
 2.582623 1  251             Rx   d 8 00 00 00 00 00 00 00 00
 2.584627 1  252             Rx   d 8 00 00 00 01 00 00 00 00
 2.586625 1  253             Rx   d 8 00 00 00 00 00 00 00 00
 2.588650 1  254             Rx   d 8 00 00 00 02 00 00 00 00
 2.590675 1  241             Rx   d 8 AA 00 00 00 00 00 00 FE
 2.600808 1  221             Rx   d 8 00 00 00 00 00 00 00 00
 2.601046 1  311             Rx   d 8 00 00 00 00 00 00 00 03
 2.602653 1  251             Rx   d 8 00 00 00 00 00 00 00 00
 2.604650 1  252             Rx   d 8 00 00 00 01 00 00 00 00
 2.606651 1  253             Rx   d 8 00 00 00 00 00 00 00 00
 2.608627 1  254             Rx   d 8 00 00 00 02 00 00 00 00
 2.610706 1  241             Rx   d 8 AA 00 00 00 00 00 00 FF
 2.620808 1  221             Rx   d 8 00 00 00 00 00 00 00 00
 2.621049 1  311             Rx   d 8 00 00 00 00 00 00 00 03
 2.621655 1  261             Rx   d 8 01 29 00 16 1E 00 00 00
 2.622668 1  251             Rx   d 8 00 00 00 00 00 00 00 00
 2.624675 1  252             Rx   d 8 00 00 00 01 00 00 00 00
 2.626677 1  253             Rx   d 8 00 00 00 00 00 00 00 00
 2.628676 1  254             Rx   d 8 00 00 00 02 00 00 00 00
 2.630732 1  241             Rx   d 8 AA 00 00 00 00 00 00 00
 2.632676 1  262             Rx   d 8 01 27 00 16 1E 00 00 00
 2.640752 1  211             Rx   d 8 00 01 01 1E 00 00 00 00
 2.640999 1  221             Rx   d 8 00 00 00 00 00 00 00 00
 2.641247 1  311             Rx   d 8 00 00 00 00 00 00 00 03
 2.642701 1  251             Rx   d 8 00 00 00 00 00 00 00 00
 2.643676 1  263             Rx   d 8 01 29 00 16 1E 00 00 00
 2.644675 1  252             Rx   d 8 00 00 00 01 00 00 00 00
 2.646704 1  253             Rx   d 8 00 00 00 00 00 00 00 00
 2.648676 1  254             Rx   d 8 00 00 00 02 00 00 00 00
 2.650729 1  241             Rx   d 8 AA 00 00 00 00 00 00 01
 2.654701 1  264             Rx   d 8 01 27 00 16 1E 00 00 00
 2.660810 1  221             Rx   d 8 00 00 00 00 00 00 00 00
 2.661051 1  311             Rx   d 8 00 00 00 00 00 00 00 03
 2.662704 1  251             Rx   d 8 00 00 00 00 00 00 00 00
 2.664727 1  252             Rx   d 8 00 00 00 01 00 00 00 00
 2.666726 1  253             Rx   d 8 00 00 00 00 00 00 00 00
 2.668701 1  254             Rx   d 8 00 00 00 02 00 00 00 00
 2.670777 1  241             Rx   d 8 AA 00 00 00 00 00 00 02
 2.680779 1  221             Rx   d 8 00 00 00 00 00 00 00 00
 2.681051 1  311             Rx   d 8 00 00 00 00 00 00 00 03
 2.682727 1  251             Rx   d 8 00 00 00 00 00 00 00 00
 2.684727 1  252             Rx   d 8 00 00 00 01 00 00 00 00
 2.686727 1  253             Rx   d 8 00 00 00 00 00 00 00 00
 2.688732 1  254             Rx   d 8 00 00 00 02 00 00 00 00
 2.690806 1  241             Rx   d 8 AA 00 00 00 00 00 00 03
 2.700811 1  221             Rx   d 8 00 00 00 00 00 00 00 00
 2.701051 1  311             Rx   d 8 00 00 00 00 00 00 00 03
 2.702753 1  251             Rx   d 8 00 00 00 00 00 00 00 00
 2.704758 1  252             Rx   d 8 00 00 00 01 00 00 00 00
 2.706753 1  253             Rx   d 8 00 00 00 00 00 00 00 00
 2.708753 1  254             Rx   d 8 00 00 00 02 00 00 00 00
 2.710827 1  241             Rx   d 8 AA 00 00 00 00 00 00 04
 2.720810 1  221             Rx   d 8 00 00 00 00 00 00 00 00
 2.721051 1  311             Rx   d 8 00 00 00 00 00 00 00 03
 2.721753 1  261             Rx   d 8 01 29 00 16 1E 00 00 00
 2.722798 1  251             Rx   d 8 00 00 00 00 00 00 00 00
 2.724752 1  252             Rx   d 8 00 00 00 01 00 00 00 00
 2.726793 1  253             Rx   d 8 00 00 00 00 00 00 00 00
 2.728780 1  254             Rx   d 8 00 00 00 02 00 00 00 00
 2.730854 1  241             Rx   d 8 AA 00 00 00 00 00 00 05
 2.732778 1  262             Rx   d 8 01 27 00 16 1E 00 00 00
 2.740810 1  221             Rx   d 8 00 00 00 00 00 00 00 00
 2.741075 1  311             Rx   d 8 00 00 00 00 00 00 00 03
 2.742803 1  251             Rx   d 8 00 00 00 00 00 00 00 00
 2.743778 1  263             Rx   d 8 01 29 00 16 1E 00 00 00
 2.744809 1  252             Rx   d 8 00 00 00 01 00 00 00 00
 2.746804 1  253             Rx   d 8 00 00 00 00 00 00 00 00
 2.748810 1  254             Rx   d 8 00 00 00 02 00 00 00 00
 2.750856 1  241             Rx   d 8 AA 00 00 00 00 00 00 06
 2.754809 1  264             Rx   d 8 01 26 00 16 1E 00 00 00
 2.760862 1  221             Rx   d 8 00 00 00 00 00 00 00 00
 2.761085 1  311             Rx   d 8 00 00 00 00 00 00 00 03
 2.761325 1  231             Rx   d 8 00 00 00 02 09 00 00 00
 2.762804 1  251             Rx   d 8 00 00 00 00 00 00 00 00
 2.764810 1  252             Rx   d 8 00 00 00 01 00 00 00 00
 2.766832 1  253             Rx   d 8 00 00 00 00 00 00 00 00
 2.768778 1  254             Rx   d 8 00 00 00 02 00 00 00 00
 2.770830 1  241             Rx   d 8 AA 00 00 00 00 00 00 07
 2.780823 1  221             Rx   d 8 00 00 00 00 00 00 00 00
 2.781082 1  311             Rx   d 8 00 00 00 00 00 00 00 03
 2.782829 1  251             Rx   d 8 00 00 00 00 00 00 00 00
 2.784826 1  252             Rx   d 8 00 00 00 01 00 00 00 00
 2.786829 1  253             Rx   d 8 00 00 00 00 00 00 00 00
 2.788829 1  254             Rx   d 8 00 00 00 02 00 00 00 00
 2.790880 1  241             Rx   d 8 AA 00 00 00 00 00 00 08
 2.800811 1  221             Rx   d 8 00 00 00 00 00 00 00 00
 2.801077 1  311             Rx   d 8 00 00 00 00 00 00 00 03
 2.802857 1  251             Rx   d 8 00 00 00 00 00 00 00 00
 2.804831 1  252             Rx   d 8 00 00 00 01 00 00 00 00
 2.806856 1  253             Rx   d 8 00 00 00 00 00 00 00 00
 2.808866 1  254             Rx   d 8 00 00 00 02 00 00 00 00
 2.810931 1  241             Rx   d 8 AA 00 00 00 00 00 00 09
 2.820830 1  221             Rx   d 8 00 00 00 00 00 00 00 00
 2.821076 1  311             Rx   d 8 00 00 00 00 00 00 00 03
 2.821881 1  261             Rx   d 8 01 29 00 16 1E 00 00 00
 2.822870 1  251             Rx   d 8 00 00 00 00 00 00 00 00
 2.824881 1  252             Rx   d 8 00 00 00 01 00 00 00 00
 2.826880 1  253             Rx   d 8 00 00 00 00 00 00 00 00
 2.828881 1  254             Rx   d 8 00 00 00 02 00 00 00 00
 2.830906 1  241             Rx   d 8 AA 00 00 00 00 00 00 0A
 2.832881 1  262             Rx   d 8 01 28 00 16 1E 00 00 00
 2.840809 1  221             Rx   d 8 00 00 00 00 00 00 00 00
 2.841082 1  311             Rx   d 8 00 00 00 00 00 00 00 03
 2.841326 1  211             Rx   d 8 00 01 01 1E 00 00 00 00
 2.842906 1  251             Rx   d 8 00 00 00 00 00 00 00 00
 2.843886 1  263             Rx   d 8 01 28 00 16 1E 00 00 00
 2.844908 1  252             Rx   d 8 00 00 00 01 00 00 00 00
 2.846916 1  253             Rx   d 8 00 00 00 00 00 00 00 00
 2.848909 1  254             Rx   d 8 00 00 00 02 00 00 00 00
 2.850960 1  241             Rx   d 8 AA 00 00 00 00 00 00 0B
 2.854913 1  264             Rx   d 8 01 27 00 15 1E 00 00 00
 2.860839 1  221             Rx   d 8 00 00 00 00 00 00 00 00
 2.861084 1  311             Rx   d 8 00 00 00 00 00 00 00 03
 2.862886 1  251             Rx   d 8 00 00 00 00 00 00 00 00
 2.864907 1  252             Rx   d 8 00 00 00 01 00 00 00 00
 2.866931 1  253             Rx   d 8 00 00 00 00 00 00 00 00
 2.868932 1  254             Rx   d 8 00 00 00 02 00 00 00 00
 2.870933 1  241             Rx   d 8 AA 00 00 00 00 00 00 0C
 2.880828 1  221             Rx   d 8 00 00 00 00 00 00 00 00
 2.881076 1  311             Rx   d 8 00 00 00 00 00 00 00 03
 2.882931 1  251             Rx   d 8 00 00 00 00 00 00 00 00
 2.884930 1  252             Rx   d 8 00 00 00 02 00 00 00 00
 2.886931 1  253             Rx   d 8 00 00 00 00 00 00 00 00
 2.888958 1  254             Rx   d 8 00 00 00 02 00 00 00 00
 2.891008 1  241             Rx   d 8 AA 00 00 00 00 00 00 0D
 2.900824 1  221             Rx   d 8 00 00 00 00 00 00 00 00
 2.901079 1  311             Rx   d 8 00 00 00 00 00 00 00 03
 2.902956 1  251             Rx   d 8 00 00 00 00 00 00 00 00
 2.904960 1  252             Rx   d 8 00 00 00 02 00 00 00 00
 2.906959 1  253             Rx   d 8 00 00 00 00 00 00 00 00
 2.908964 1  254             Rx   d 8 00 00 00 02 00 00 00 00
 2.911032 1  241             Rx   d 8 AA 00 00 00 00 00 00 0E
 2.920830 1  221             Rx   d 8 00 00 00 00 00 00 00 00
 2.921084 1  311             Rx   d 8 00 00 00 00 00 00 00 03
 2.921985 1  261             Rx   d 8 01 29 00 16 1E 00 00 00
 2.922965 1  251             Rx   d 8 00 00 00 00 00 00 00 00
 2.924987 1  252             Rx   d 8 00 00 00 01 00 00 00 00
 2.926987 1  253             Rx   d 8 00 00 00 00 00 00 00 00
 2.928993 1  254             Rx   d 8 00 00 00 02 00 00 00 00
 2.931039 1  241             Rx   d 8 AA 00 00 00 00 00 00 0F
 2.932988 1  262             Rx   d 8 01 28 00 16 1E 00 00 00
 2.940811 1  221             Rx   d 8 00 00 00 00 00 00 00 00
 2.941085 1  311             Rx   d 8 00 00 00 00 00 00 00 03
 2.943013 1  251             Rx   d 8 00 00 00 00 00 00 00 00
 2.944002 1  263             Rx   d 8 01 29 00 16 1E 00 00 00
 2.945018 1  252             Rx   d 8 00 00 00 01 00 00 00 00
 2.946988 1  253             Rx   d 8 00 00 00 00 00 00 00 00
 2.949012 1  254             Rx   d 8 00 00 00 02 00 00 00 00
 2.951059 1  241             Rx   d 8 AA 00 00 00 00 00 00 10
 2.955012 1  264             Rx   d 8 01 27 00 15 1E 00 00 00
 2.960866 1  221             Rx   d 8 00 00 00 00 00 00 00 00
 2.961086 1  311             Rx   d 8 00 00 00 00 00 00 00 03
 2.963011 1  251             Rx   d 8 00 00 00 00 00 00 00 00
 2.965008 1  252             Rx   d 8 00 00 00 01 00 00 00 00
 2.967009 1  253             Rx   d 8 00 00 00 00 00 00 00 00
 2.969034 1  254             Rx   d 8 00 00 00 02 00 00 00 00
 2.971082 1  241             Rx   d 8 AA 00 00 00 00 00 00 11
 2.980825 1  221             Rx   d 8 00 00 00 00 00 00 00 00
 2.981083 1  311             Rx   d 8 00 00 00 00 00 00 00 03
 2.983035 1  251             Rx   d 8 00 00 00 00 00 00 00 00
 2.985033 1  252             Rx   d 8 00 00 00 01 00 00 00 00
 2.987036 1  253             Rx   d 8 00 00 00 00 00 00 00 00
 2.989034 1  254             Rx   d 8 00 00 00 02 00 00 00 00
 2.991034 1  241             Rx   d 8 AA 00 00 00 00 00 00 12
 3.000838 1  221             Rx   d 8 00 00 00 00 00 00 00 00
 3.001085 1  311             Rx   d 8 00 00 00 00 00 00 00 03
 3.003062 1  251             Rx   d 8 00 00 00 00 00 00 00 00
 3.005063 1  252             Rx   d 8 00 00 00 01 00 00 00 00
 3.007064 1  253             Rx   d 8 00 00 00 00 00 00 00 00
 3.009065 1  254             Rx   d 8 00 00 00 02 00 00 00 00
 3.011140 1  241             Rx   d 8 AA 00 00 00 00 00 00 13
 3.020836 1  221             Rx   d 8 00 00 00 00 00 00 00 00
 3.021086 1  311             Rx   d 8 00 00 00 00 00 00 00 03
 3.022063 1  261             Rx   d 8 01 29 00 16 1E 00 00 00
 3.023070 1  251             Rx   d 8 00 00 00 00 00 00 00 00
 3.025090 1  252             Rx   d 8 00 00 00 01 00 00 00 00
 3.027091 1  253             Rx   d 8 00 00 00 00 00 00 00 00
 3.029091 1  254             Rx   d 8 00 00 00 02 00 00 00 00
 3.031090 1  241             Rx   d 8 AA 00 00 00 00 00 00 14
 3.033062 1  262             Rx   d 8 01 27 00 16 1E 00 00 00
 3.040817 1  221             Rx   d 8 00 00 00 00 00 00 00 00
 3.041090 1  311             Rx   d 8 00 00 00 00 00 00 00 03
 3.041335 1  211             Rx   d 8 00 01 01 1E 00 00 00 00
 3.043088 1  251             Rx   d 8 00 00 00 00 00 00 00 00
 3.044091 1  263             Rx   d 8 01 29 00 16 1E 00 00 00
 3.045088 1  252             Rx   d 8 00 00 00 01 00 00 00 00
 3.047116 1  253             Rx   d 8 00 00 00 00 00 00 00 00
 3.049113 1  254             Rx   d 8 00 00 00 02 00 00 00 00
 3.051169 1  241             Rx   d 8 AA 00 00 00 00 00 00 15
 3.055115 1  264             Rx   d 8 01 27 00 15 1E 00 00 00
 3.060829 1  221             Rx   d 8 00 00 00 00 00 00 00 00
 3.061108 1  311             Rx   d 8 00 00 00 00 00 00 00 03
 3.063110 1  251             Rx   d 8 00 00 00 00 00 00 00 00
 3.065111 1  252             Rx   d 8 00 00 00 01 00 00 00 00
 3.067139 1  253             Rx   d 8 00 00 00 00 00 00 00 00
 3.069110 1  254             Rx   d 8 00 00 00 02 00 00 00 00
 3.071188 1  241             Rx   d 8 AA 00 00 00 00 00 00 16
 3.080870 1  221             Rx   d 8 00 00 00 00 00 00 00 00
 3.081109 1  311             Rx   d 8 00 00 00 00 00 00 00 03
 3.083140 1  251             Rx   d 8 00 00 00 00 00 00 00 00
 3.085140 1  252             Rx   d 8 00 00 00 01 00 00 00 00
 3.087136 1  253             Rx   d 8 00 00 00 00 00 00 00 00
 3.089137 1  254             Rx   d 8 00 00 00 02 00 00 00 00
 3.091169 1  241             Rx   d 8 AA 00 00 00 00 00 00 17
 3.100865 1  221             Rx   d 8 00 00 00 00 00 00 00 00
 3.101090 1  311             Rx   d 8 00 00 00 00 00 00 00 03
 3.103163 1  251             Rx   d 8 00 00 00 00 00 00 00 00
 3.200845 1  221             Rx   d 8 00 00 00 00 00 00 00 00
 3.243290 1  251             Rx   d 8 00 00 00 00 00 00 00 00
 3.291417 1  241             Rx   d 8 AA 00 00 00 00 00 00 21
 3.340898 1  221             Rx   d 8 00 00 00 00 00 00 00 00
 3.347389 1  253             Rx   d 8 00 00 00 00 00 00 00 00
 3.385442 1  252             Rx   d 8 00 00 00 01 00 00 00 00
 3.487550 1  253             Rx   d 8 00 00 00 00 00 00 00 00
 3.500883 1  221             Rx   d 8 00 00 00 00 00 00 00 00
 3.501149 1  311             Rx   d 8 00 00 00 00 00 00 00 03
 3.503576 1  251             Rx   d 8 00 00 00 00 00 00 00 00
 3.505547 1  252             Rx   d 8 00 00 00 01 00 00 00 00
 3.507595 1  253             Rx   d 8 00 00 00 00 00 00 00 00
 3.509574 1  254             Rx   d 8 00 00 00 02 00 00 00 00
 3.511651 1  241             Rx   d 8 AA 00 00 00 00 00 00 2C
 3.520911 1  221             Rx   d 8 00 00 00 00 00 00 00 00
 3.521150 1  311             Rx   d 8 00 00 00 00 00 00 00 03
 3.522576 1  261             Rx   d 8 01 29 00 16 1E 00 00 00
 3.523592 1  251             Rx   d 8 00 00 00 00 00 00 00 00
 3.525602 1  252             Rx   d 8 00 00 00 01 00 00 00 00
 3.527651 1  253             Rx   d 8 00 00 00 00 00 00 00 00
 3.529618 1  254             Rx   d 8 00 00 00 02 00 00 00 00
 3.531662 1  241             Rx   d 8 AA 00 00 00 00 00 00 2D
 3.533553 1  262             Rx   d 8 01 27 00 16 1E 00 00 00
 3.540878 1  221             Rx   d 8 00 00 00 00 00 00 00 00
 3.541118 1  311             Rx   d 8 00 00 00 00 00 00 00 03
 3.543619 1  251             Rx   d 8 00 00 00 00 00 00 00 00
 3.544565 1  263             Rx   d 8 01 28 00 16 1E 00 00 00
 3.545617 1  252             Rx   d 8 00 00 00 01 00 00 00 00
 3.547623 1  253             Rx   d 8 00 00 00 00 00 00 00 00
 3.549623 1  254             Rx   d 8 00 00 00 02 00 00 00 00
 3.551646 1  241             Rx   d 8 AA 00 00 00 00 00 00 2E
 3.555669 1  264             Rx   d 8 01 27 00 15 1E 00 00 00
 3.560883 1  221             Rx   d 8 00 00 00 00 00 00 00 00
 3.561169 1  311             Rx   d 8 00 00 00 00 00 00 00 03
 3.563619 1  251             Rx   d 8 00 00 00 00 00 00 00 00
 3.565646 1  252             Rx   d 8 00 00 00 01 00 00 00 00
 3.567650 1  253             Rx   d 8 00 00 00 00 00 00 00 00
 3.569646 1  254             Rx   d 8 00 00 00 02 00 00 00 00
 3.571686 1  241             Rx   d 8 AA 00 00 00 00 00 00 2F
 3.580900 1  221             Rx   d 8 00 00 00 00 00 00 00 00
 3.581150 1  311             Rx   d 8 00 00 00 00 00 00 00 03
 3.583646 1  251             Rx   d 8 00 00 00 00 00 00 00 00
 3.585648 1  252             Rx   d 8 00 00 00 01 00 00 00 00
 3.587624 1  253             Rx   d 8 00 00 00 00 00 00 00 00
 3.589652 1  254             Rx   d 8 00 00 00 02 00 00 00 00
 3.591716 1  241             Rx   d 8 AA 00 00 00 00 00 00 30
 3.600901 1  221             Rx   d 8 00 00 00 00 00 00 00 00
 3.601173 1  311             Rx   d 8 00 00 00 00 00 00 00 03
 3.603673 1  251             Rx   d 8 00 00 00 00 00 00 00 00
 3.605672 1  252             Rx   d 8 00 00 00 01 00 00 00 00
 3.607674 1  253             Rx   d 8 00 00 00 00 00 00 00 00
 3.609683 1  254             Rx   d 8 00 00 00 02 00 00 00 00
 3.611727 1  241             Rx   d 8 AA 00 00 00 00 00 00 31
 3.620936 1  221             Rx   d 8 00 00 00 00 00 00 00 00
 3.621174 1  311             Rx   d 8 00 00 00 00 00 00 00 03
 3.622672 1  261             Rx   d 8 01 29 00 16 1E 00 00 00
 3.623697 1  251             Rx   d 8 00 00 00 00 00 00 00 00
 3.625674 1  252             Rx   d 8 00 00 00 01 00 00 00 00
 3.627700 1  253             Rx   d 8 00 00 00 00 00 00 00 00
 3.629698 1  254             Rx   d 8 00 00 00 02 00 00 00 00
 3.631723 1  241             Rx   d 8 AA 00 00 00 00 00 00 32
 3.633698 1  262             Rx   d 8 01 28 00 16 1E 00 00 00
 3.640924 1  221             Rx   d 8 00 00 00 00 00 00 00 00
 3.641169 1  311             Rx   d 8 00 00 00 00 00 00 00 03
 3.641746 1  211             Rx   d 8 00 01 01 1E 00 00 00 00
 3.643722 1  251             Rx   d 8 00 00 00 00 00 00 00 00
 3.644697 1  263             Rx   d 8 01 28 00 16 1E 00 00 00
 3.645697 1  252             Rx   d 8 00 00 00 01 00 00 00 00
 3.647722 1  253             Rx   d 8 00 00 00 00 00 00 00 00
 3.649724 1  254             Rx   d 8 00 00 00 02 00 00 00 00
 3.651779 1  241             Rx   d 8 AA 00 00 00 00 00 00 33
 3.655724 1  264             Rx   d 8 01 27 00 16 1E 00 00 00
 3.660923 1  221             Rx   d 8 00 00 00 00 00 00 00 00
 3.661172 1  311             Rx   d 8 00 00 00 00 00 00 00 03
 3.663700 1  251             Rx   d 8 00 00 00 00 00 00 00 00
 3.665725 1  252             Rx   d 8 00 00 00 01 00 00 00 00
 3.667723 1  253             Rx   d 8 00 00 00 00 00 00 00 00
 3.669748 1  254             Rx   d 8 00 00 00 02 00 00 00 00
 3.671775 1  241             Rx   d 8 AA 00 00 00 00 00 00 34
 3.680902 1  221             Rx   d 8 00 00 00 00 00 00 00 00
 3.681174 1  311             Rx   d 8 00 00 00 00 00 00 00 03
 3.683749 1  251             Rx   d 8 00 00 00 00 00 00 00 00
 3.685747 1  252             Rx   d 8 00 00 00 01 00 00 00 00
 3.687752 1  253             Rx   d 8 00 00 00 00 00 00 00 00
 3.689749 1  254             Rx   d 8 00 00 00 02 00 00 00 00
 3.691830 1  241             Rx   d 8 AA 00 00 00 00 00 00 35
 3.700926 1  221             Rx   d 8 00 00 00 00 00 00 00 00
 3.701174 1  311             Rx   d 8 00 00 00 00 00 00 00 03
 3.703777 1  251             Rx   d 8 00 00 00 00 00 00 00 00
 3.705775 1  252             Rx   d 8 00 00 00 01 00 00 00 00
 3.707774 1  253             Rx   d 8 00 00 00 00 00 00 00 00
 3.709773 1  254             Rx   d 8 00 00 00 02 00 00 00 00
 3.711798 1  241             Rx   d 8 AA 00 00 00 00 00 00 36
 3.720924 1  221             Rx   d 8 00 00 00 00 00 00 00 00
 3.721171 1  311             Rx   d 8 00 00 00 00 00 00 00 03
 3.722774 1  261             Rx   d 8 01 29 00 16 1E 00 00 00
 3.723799 1  251             Rx   d 8 00 00 00 00 00 00 00 00
 3.725800 1  252             Rx   d 8 00 00 00 01 00 00 00 00
 3.727799 1  253             Rx   d 8 00 00 00 00 00 00 00 00
 3.729798 1  254             Rx   d 8 00 00 00 02 00 00 00 00
 3.731834 1  241             Rx   d 8 AA 00 00 00 00 00 00 37
 3.733799 1  262             Rx   d 8 01 27 00 16 1E 00 00 00
 3.740930 1  221             Rx   d 8 00 00 00 00 00 00 00 00
 3.741149 1  311             Rx   d 8 00 00 00 00 00 00 00 03
 3.743804 1  251             Rx   d 8 00 00 00 00 00 00 00 00
 3.744804 1  263             Rx   d 8 01 28 00 16 1E 00 00 00
 3.745805 1  252             Rx   d 8 00 00 00 01 00 00 00 00
 3.747823 1  253             Rx   d 8 00 00 00 00 00 00 00 00
 3.749774 1  254             Rx   d 8 00 00 00 02 00 00 00 00
 3.751853 1  241             Rx   d 8 AA 00 00 00 00 00 00 38
 3.755830 1  264             Rx   d 8 01 27 00 15 1E 00 00 00
 3.760930 1  221             Rx   d 8 00 00 00 00 00 00 00 00
 3.761183 1  311             Rx   d 8 00 00 00 00 00 00 00 03
 3.761875 1  231             Rx   d 8 00 00 00 02 31 00 00 00
 3.763829 1  251             Rx   d 8 00 00 00 00 00 00 00 00
 3.765828 1  252             Rx   d 8 00 00 00 01 00 00 00 00
 3.767829 1  253             Rx   d 8 00 00 00 00 00 00 00 00
 3.769838 1  254             Rx   d 8 00 00 00 02 00 00 00 00
 3.771831 1  241             Rx   d 8 AA 00 00 00 00 00 00 39
 3.780933 1  221             Rx   d 8 00 00 00 00 00 00 00 00
 3.781181 1  311             Rx   d 8 00 00 00 00 00 00 00 03
 3.783855 1  251             Rx   d 8 00 00 00 00 00 00 00 00
 3.785858 1  252             Rx   d 8 00 00 00 01 00 00 00 00
 3.787869 1  253             Rx   d 8 00 00 00 00 00 00 00 00
 3.789854 1  254             Rx   d 8 00 00 00 02 00 00 00 00
 3.791879 1  241             Rx   d 8 AA 00 00 00 00 00 00 3A
 3.800932 1  221             Rx   d 8 00 00 00 00 00 00 00 00
 3.801173 1  311             Rx   d 8 00 00 00 00 00 00 00 03
 3.803880 1  251             Rx   d 8 00 00 00 00 00 00 00 00
 3.805879 1  252             Rx   d 8 00 00 00 01 00 00 00 00
 3.807877 1  253             Rx   d 8 00 00 00 00 00 00 00 00
 3.809876 1  254             Rx   d 8 00 00 00 02 00 00 00 00
 3.811953 1  241             Rx   d 8 AA 00 00 00 00 00 00 3B
 3.820927 1  221             Rx   d 8 00 00 00 00 00 00 00 00
 3.821174 1  311             Rx   d 8 00 00 00 00 00 00 00 03
 3.822876 1  261             Rx   d 8 01 29 00 16 1E 00 00 00
 3.823901 1  251             Rx   d 8 00 00 00 00 00 00 00 00
 3.825902 1  252             Rx   d 8 00 00 00 01 00 00 00 00
 3.827907 1  253             Rx   d 8 00 00 00 00 00 00 00 00
 3.829903 1  254             Rx   d 8 00 00 00 02 00 00 00 00
 3.831928 1  241             Rx   d 8 AA 00 00 00 00 00 00 3C
 3.833908 1  262             Rx   d 8 01 27 00 16 1E 00 00 00
 3.840927 1  221             Rx   d 8 00 00 00 00 00 00 00 00
 3.841200 1  311             Rx   d 8 00 00 00 00 00 00 00 03
 3.841904 1  211             Rx   d 8 00 01 01 1E 00 00 00 00
 3.843902 1  251             Rx   d 8 00 00 00 00 00 00 00 00
 3.844927 1  263             Rx   d 8 01 28 00 16 1E 00 00 00
 3.845902 1  252             Rx   d 8 00 00 00 01 00 00 00 00
 3.847901 1  253             Rx   d 8 00 00 00 00 00 00 00 00
 3.849931 1  254             Rx   d 8 00 00 00 02 00 00 00 00
 3.851952 1  241             Rx   d 8 AA 00 00 00 00 00 00 3D
 3.855930 1  264             Rx   d 8 01 27 00 16 1E 00 00 00
 3.860958 1  221             Rx   d 8 00 00 00 00 00 00 00 00
 3.861200 1  311             Rx   d 8 00 00 00 00 00 00 00 03
 3.863927 1  251             Rx   d 8 00 00 00 00 00 00 00 00
 3.865902 1  252             Rx   d 8 00 00 00 01 00 00 00 00
 3.867929 1  253             Rx   d 8 00 00 00 00 00 00 00 00
 3.869929 1  254             Rx   d 8 00 00 00 02 00 00 00 00
 3.871953 1  241             Rx   d 8 AA 00 00 00 00 00 00 3E
 3.880955 1  221             Rx   d 8 00 00 00 00 00 00 00 00
 3.881204 1  311             Rx   d 8 00 00 00 00 00 00 00 03
 3.883952 1  251             Rx   d 8 00 00 00 00 00 00 00 00
 3.885930 1  252             Rx   d 8 00 00 00 01 00 00 00 00
 3.887953 1  253             Rx   d 8 00 00 00 00 00 00 00 00
 3.889952 1  254             Rx   d 8 00 00 00 02 00 00 00 00
 3.891956 1  241             Rx   d 8 AA 00 00 00 00 00 00 3F
 3.900959 1  221             Rx   d 8 00 00 00 00 00 00 00 00
 3.901205 1  311             Rx   d 8 00 00 00 00 00 00 00 03
 3.903983 1  251             Rx   d 8 00 00 00 00 00 00 00 00
 3.905983 1  252             Rx   d 8 00 00 00 01 00 00 00 00
 3.907978 1  253             Rx   d 8 00 00 00 00 00 00 00 00
 3.909977 1  254             Rx   d 8 00 00 00 02 00 00 00 00
 3.912054 1  241             Rx   d 8 AA 00 00 00 00 00 00 40
 3.920956 1  221             Rx   d 8 00 00 00 00 00 00 00 00
 3.921203 1  311             Rx   d 8 00 00 00 00 00 00 00 03
 3.922952 1  261             Rx   d 8 01 29 00 16 1E 00 00 00
 3.923983 1  251             Rx   d 8 00 00 00 00 00 00 00 00
 3.926005 1  252             Rx   d 8 00 00 00 01 00 00 00 00
 3.928003 1  253             Rx   d 8 00 00 00 00 00 00 00 00
 3.929979 1  254             Rx   d 8 00 00 00 02 00 00 00 00
 3.932055 1  241             Rx   d 8 AA 00 00 00 00 00 00 41
 3.933978 1  262             Rx   d 8 01 27 00 16 1E 00 00 00
 3.940954 1  221             Rx   d 8 00 00 00 00 00 00 00 00
 3.941202 1  311             Rx   d 8 00 00 00 00 00 00 00 03
 3.944029 1  251             Rx   d 8 00 00 00 00 00 00 00 00
 3.945004 1  263             Rx   d 8 01 28 00 16 1E 00 00 00
 3.946006 1  252             Rx   d 8 00 00 00 01 00 00 00 00
 3.948006 1  253             Rx   d 8 00 00 00 00 00 00 00 00
 3.950031 1  254             Rx   d 8 00 00 00 02 00 00 00 00
 3.952081 1  241             Rx   d 8 AA 00 00 00 00 00 00 42
 3.956010 1  264             Rx   d 8 01 27 00 15 1E 00 00 00
 3.960970 1  221             Rx   d 8 00 00 00 00 00 00 00 00
 3.961206 1  311             Rx   d 8 00 00 00 00 00 00 00 03
 3.964035 1  251             Rx   d 8 00 00 00 00 00 00 00 00
 3.966034 1  252             Rx   d 8 00 00 00 01 00 00 00 00
 3.968031 1  253             Rx   d 8 00 00 00 00 00 00 00 00
 3.970032 1  254             Rx   d 8 00 00 00 02 00 00 00 00
 3.972106 1  241             Rx   d 8 AA 00 00 00 00 00 00 43
 3.980955 1  221             Rx   d 8 00 00 00 00 00 00 00 00
 3.981201 1  311             Rx   d 8 00 00 00 00 00 00 00 03
 3.984059 1  251             Rx   d 8 00 00 00 00 00 00 00 00
 3.986071 1  252             Rx   d 8 00 00 00 01 00 00 00 00
 3.988059 1  253             Rx   d 8 00 00 00 00 00 00 00 00
 3.990058 1  254             Rx   d 8 00 00 00 02 00 00 00 00
 3.992135 1  241             Rx   d 8 AA 00 00 00 00 00 00 44
 4.000965 1  221             Rx   d 8 00 00 00 00 00 00 00 00
 4.001205 1  311             Rx   d 8 00 00 00 00 00 00 00 03
 4.004090 1  251             Rx   d 8 00 00 00 00 00 00 00 00
 4.006087 1  252             Rx   d 8 00 00 00 01 00 00 00 00
 4.008088 1  253             Rx   d 8 00 00 00 00 00 00 00 00
 4.010088 1  254             Rx   d 8 00 00 00 02 00 00 00 00
 4.012141 1  241             Rx   d 8 AA 00 00 00 00 00 00 45
 4.020961 1  221             Rx   d 8 00 00 00 00 00 00 00 00
 4.021207 1  311             Rx   d 8 00 00 00 00 00 00 00 03
 4.023087 1  261             Rx   d 8 01 29 00 16 1E 00 00 00
 4.024109 1  251             Rx   d 8 00 00 00 00 00 00 00 00
 4.026109 1  252             Rx   d 8 00 00 00 01 00 00 00 00
 4.028112 1  253             Rx   d 8 00 00 00 00 00 00 00 00
 4.030112 1  254             Rx   d 8 00 00 00 02 00 00 00 00
 4.032134 1  241             Rx   d 8 AA 00 00 00 00 00 00 46
 4.034056 1  262             Rx   d 8 01 27 00 16 1E 00 00 00
 4.040965 1  221             Rx   d 8 00 00 00 00 00 00 00 00
 4.041207 1  311             Rx   d 8 00 00 00 00 00 00 00 03
 4.042185 1  211             Rx   d 8 00 01 01 1F 00 00 00 00
 4.044108 1  251             Rx   d 8 00 00 00 00 00 00 00 00
 4.045110 1  263             Rx   d 8 01 28 00 16 1E 00 00 00
 4.046108 1  252             Rx   d 8 00 00 00 01 00 00 00 00
 4.048110 1  253             Rx   d 8 00 00 00 00 00 00 00 00
 4.050110 1  254             Rx   d 8 00 00 00 02 00 00 00 00
 4.052147 1  241             Rx   d 8 AA 00 00 00 00 00 00 47
 4.056136 1  264             Rx   d 8 01 27 00 16 1E 00 00 00
 4.060966 1  221             Rx   d 8 00 00 00 00 00 00 00 00
 4.061208 1  311             Rx   d 8 00 00 00 00 00 00 00 03
 4.064138 1  251             Rx   d 8 00 00 00 00 00 00 00 00
 4.066137 1  252             Rx   d 8 00 00 00 01 00 00 00 00
 4.068135 1  253             Rx   d 8 00 00 00 00 00 00 00 00
 4.070110 1  254             Rx   d 8 00 00 00 02 00 00 00 00
 4.072190 1  241             Rx   d 8 AA 00 00 00 00 00 00 48
 4.080971 1  221             Rx   d 8 00 00 00 00 00 00 00 00
 4.081212 1  311             Rx   d 8 00 00 00 00 00 00 00 03
 4.084164 1  251             Rx   d 8 00 00 00 00 00 00 00 00
 4.086163 1  252             Rx   d 8 00 00 00 01 00 00 00 00
 4.088161 1  253             Rx   d 8 00 00 00 00 00 00 00 00
 4.090162 1  254             Rx   d 8 00 00 00 02 00 00 00 00
 4.092212 1  241             Rx   d 8 AA 00 00 00 00 00 00 49
 4.100938 1  221             Rx   d 8 00 00 00 00 00 00 00 00
 4.101179 1  311             Rx   d 8 00 00 00 00 00 00 00 03
 4.104183 1  251             Rx   d 8 00 00 00 00 00 00 00 00
 4.106181 1  252             Rx   d 8 00 00 00 01 00 00 00 00
 4.108187 1  253             Rx   d 8 00 00 00 00 00 00 00 00
 4.110186 1  254             Rx   d 8 00 00 00 02 00 00 00 00
 4.112166 1  241             Rx   d 8 AA 00 00 00 00 00 00 4A
 4.120988 1  221             Rx   d 8 00 00 00 00 00 00 00 00
 4.121239 1  311             Rx   d 8 00 00 00 00 00 00 00 03
 4.123183 1  261             Rx   d 8 01 29 00 16 1E 00 00 00
 4.124159 1  251             Rx   d 8 00 00 00 00 00 00 00 00
 4.126208 1  252             Rx   d 8 00 00 00 01 00 00 00 00
 4.128184 1  253             Rx   d 8 00 00 00 00 00 00 00 00
 4.130208 1  254             Rx   d 8 00 00 00 02 00 00 00 00
 4.132234 1  241             Rx   d 8 AA 00 00 00 00 00 00 4B
 4.134213 1  262             Rx   d 8 01 27 00 16 1E 00 00 00
 4.140960 1  221             Rx   d 8 00 00 00 00 00 00 00 00
 4.141232 1  311             Rx   d 8 00 00 00 00 00 00 00 03
 4.144215 1  251             Rx   d 8 00 00 00 00 00 00 00 00
 4.145208 1  263             Rx   d 8 01 29 00 16 1E 00 00 00
 4.146234 1  252             Rx   d 8 00 00 00 01 00 00 00 00
 4.148211 1  253             Rx   d 8 00 00 00 00 00 00 00 00
 4.150208 1  254             Rx   d 8 00 00 00 02 00 00 00 00
 4.152261 1  241             Rx   d 8 AA 00 00 00 00 00 00 4C
 4.156237 1  264             Rx   d 8 01 27 00 16 1E 00 00 00
 4.160989 1  221             Rx   d 8 00 00 00 00 00 00 00 00
 4.161236 1  311             Rx   d 8 00 00 00 00 00 00 00 03
 4.164237 1  251             Rx   d 8 00 00 00 00 00 00 00 00
 4.166241 1  252             Rx   d 8 00 00 00 01 00 00 00 00
 4.168215 1  253             Rx   d 8 00 00 00 00 00 00 00 00
 4.170241 1  254             Rx   d 8 00 00 00 02 00 00 00 00
 4.172288 1  241             Rx   d 8 AA 00 00 00 00 00 00 4D
 4.180989 1  221             Rx   d 8 00 00 00 00 00 00 00 00
 4.181236 1  311             Rx   d 8 00 00 00 00 00 00 00 03
 4.184263 1  251             Rx   d 8 00 00 00 00 00 00 00 00
 4.186264 1  252             Rx   d 8 00 00 00 01 00 00 00 00
 4.188266 1  253             Rx   d 8 00 00 00 00 00 00 00 00
 4.190273 1  254             Rx   d 8 00 00 00 02 00 00 00 00
 4.192314 1  241             Rx   d 8 AA 00 00 00 00 00 00 4E
 4.200990 1  221             Rx   d 8 00 00 00 00 00 00 00 00
 4.201240 1  311             Rx   d 8 00 00 00 00 00 00 00 03
 4.204269 1  251             Rx   d 8 00 00 00 00 00 00 00 00
 4.206288 1  252             Rx   d 8 00 00 00 01 00 00 00 00
 4.208289 1  253             Rx   d 8 00 00 00 00 00 00 00 00
 4.210292 1  254             Rx   d 8 00 00 00 02 00 00 00 00
 4.212362 1  241             Rx   d 8 AA 00 00 00 00 00 00 4F
 4.220990 1  221             Rx   d 8 00 00 00 00 00 00 00 00
 4.221207 1  311             Rx   d 8 00 00 00 00 00 00 00 03
 4.223290 1  261             Rx   d 8 01 29 00 16 1E 00 00 00
 4.224313 1  251             Rx   d 8 00 00 00 00 00 00 00 00
 4.226290 1  252             Rx   d 8 00 00 00 01 00 00 00 00
 4.228289 1  253             Rx   d 8 00 00 00 00 00 00 00 00
 4.230326 1  254             Rx   d 8 00 00 00 02 00 00 00 00
 4.232342 1  241             Rx   d 8 AA 00 00 00 00 00 00 50
 4.234312 1  262             Rx   d 8 01 28 00 16 1E 00 00 00
 4.240993 1  221             Rx   d 8 00 00 00 00 00 00 00 00
 4.241239 1  311             Rx   d 8 00 00 00 00 00 00 00 03
 4.242322 1  211             Rx   d 8 00 01 01 1E 00 00 00 00
 4.244351 1  251             Rx   d 8 00 00 00 00 00 00 00 00
 4.245319 1  263             Rx   d 8 01 28 00 16 1E 00 00 00
 4.246315 1  252             Rx   d 8 00 00 00 01 00 00 00 00
 4.248315 1  253             Rx   d 8 00 00 00 00 00 00 00 00
 4.250339 1  254             Rx   d 8 00 00 00 02 00 00 00 00
 4.252365 1  241             Rx   d 8 AA 00 00 00 00 00 00 51
 4.256352 1  264             Rx   d 8 01 27 00 16 1E 00 00 00
 4.260991 1  221             Rx   d 8 00 00 00 00 00 00 00 00
 4.261237 1  311             Rx   d 8 00 00 00 00 00 00 00 03
 4.262367 1  231             Rx   d 8 00 00 00 02 45 00 00 00
 4.264343 1  251             Rx   d 8 00 00 00 00 00 00 00 00
 4.266342 1  252             Rx   d 8 00 00 00 01 00 00 00 00
 4.268349 1  253             Rx   d 8 00 00 00 00 00 00 00 00
 4.270340 1  254             Rx   d 8 00 00 00 02 00 00 00 00
 4.272417 1  241             Rx   d 8 AA 00 00 00 00 00 00 52
 4.280992 1  221             Rx   d 8 00 00 00 00 00 00 00 00
 4.281240 1  311             Rx   d 8 00 00 00 00 00 00 00 03
 4.284366 1  251             Rx   d 8 00 00 00 00 00 00 00 00
 4.286366 1  252             Rx   d 8 00 00 00 01 00 00 00 00
 4.288338 1  253             Rx   d 8 00 00 00 00 00 00 00 00
 4.290369 1  254             Rx   d 8 00 00 00 02 00 00 00 00
 4.292419 1  241             Rx   d 8 AA 00 00 00 00 00 00 53
 4.301004 1  221             Rx   d 8 00 00 00 00 00 00 00 00
 4.301236 1  311             Rx   d 8 00 00 00 00 00 00 00 03
 4.304391 1  251             Rx   d 8 00 00 00 00 00 00 00 00
 4.306393 1  252             Rx   d 8 00 00 00 01 00 00 00 00
 4.308392 1  253             Rx   d 8 00 00 00 00 00 00 00 00
 4.310394 1  254             Rx   d 8 00 00 00 02 00 00 00 00
 4.312467 1  241             Rx   d 8 AA 00 00 00 00 00 00 54
 4.321002 1  221             Rx   d 8 00 00 00 00 00 00 00 00
 4.321239 1  311             Rx   d 8 00 00 00 00 00 00 00 03
 4.323394 1  261             Rx   d 8 01 29 00 16 1E 00 00 00
 4.324376 1  251             Rx   d 8 00 00 00 00 00 00 00 00
 4.326417 1  252             Rx   d 8 00 00 00 01 00 00 00 00
 4.328420 1  253             Rx   d 8 00 00 00 00 00 00 00 00
 4.330415 1  254             Rx   d 8 00 00 00 02 00 00 00 00
 4.332483 1  241             Rx   d 8 AA 00 00 00 00 00 00 55
 4.334393 1  262             Rx   d 8 01 27 00 16 1E 00 00 00
 4.341004 1  221             Rx   d 8 00 00 00 00 00 00 00 00
 4.341237 1  311             Rx   d 8 00 00 00 00 00 00 00 03
 4.344420 1  251             Rx   d 8 00 00 00 00 00 00 00 00
 4.345417 1  263             Rx   d 8 01 28 00 16 1E 00 00 00
 4.346413 1  252             Rx   d 8 00 00 00 01 00 00 00 00
 4.348413 1  253             Rx   d 8 00 00 00 00 00 00 00 00
 4.350414 1  254             Rx   d 8 00 00 00 02 00 00 00 00
 4.352494 1  241             Rx   d 8 AA 00 00 00 00 00 00 56
 4.356420 1  264             Rx   d 8 01 27 00 15 1E 00 00 00
 4.360991 1  221             Rx   d 8 00 00 00 00 00 00 00 00
 4.361241 1  311             Rx   d 8 00 00 00 00 00 00 00 03
 4.364442 1  251             Rx   d 8 00 00 00 00 00 00 00 00
 4.366445 1  252             Rx   d 8 00 00 00 01 00 00 00 00
 4.368452 1  253             Rx   d 8 00 00 00 00 00 00 00 00
 4.370442 1  254             Rx   d 8 00 00 00 02 00 00 00 00
 4.372493 1  241             Rx   d 8 AA 00 00 00 00 00 00 57
 4.381016 1  221             Rx   d 8 00 00 00 00 00 00 00 00
 4.381244 1  311             Rx   d 8 00 00 00 00 00 00 00 03
 4.384467 1  251             Rx   d 8 00 00 00 00 00 00 00 00
 4.386443 1  252             Rx   d 8 00 00 00 01 00 00 00 00
 4.388473 1  253             Rx   d 8 00 00 00 00 00 00 00 00
 4.390473 1  254             Rx   d 8 00 00 00 02 00 00 00 00
 4.392526 1  241             Rx   d 8 AA 00 00 00 00 00 00 58
 4.401018 1  221             Rx   d 8 00 00 00 00 00 00 00 00
 4.401271 1  311             Rx   d 8 00 00 00 00 00 00 00 03
 4.404494 1  251             Rx   d 8 00 00 00 00 00 00 00 00
 4.406494 1  252             Rx   d 8 00 00 00 01 00 00 00 00
 4.408493 1  253             Rx   d 8 00 00 00 00 00 00 00 00
 4.410490 1  254             Rx   d 8 00 00 00 02 00 00 00 00
 4.412571 1  241             Rx   d 8 AA 00 00 00 00 00 00 59
 4.421022 1  221             Rx   d 8 00 00 00 00 00 00 00 00
 4.421266 1  311             Rx   d 8 00 00 00 00 00 00 00 03
 4.423481 1  261             Rx   d 8 01 29 00 16 1E 00 00 00
 4.424494 1  251             Rx   d 8 00 00 00 00 00 00 00 00
