date Fri Nov 24 02:08:47.623 PM 2023
base hex  timestamps absolute
internal events logged
Begin Triggerblock Fri Nov 24 02:08:47.596 PM 2023
 0.000000 Start of measurement
 0.000000 1  251             Rx   d 8 00 00 00 00 00 00 00 00
 0.000968 1  263             Rx   d 8 01 1F 00 19 1E 00 00 00
 0.001945 1  252             Rx   d 8 00 00 00 01 00 00 00 00
 0.003944 1  253             Rx   d 8 00 00 00 00 00 00 00 00
 0.005878 1  221             Rx   d 8 00 00 00 00 00 00 00 00
 0.006120 1  311             Rx   d 8 00 00 14 53 00 00 0E F5
 0.006368 1  254             Rx   d 8 00 00 00 02 00 00 00 00
 0.007987 1  241             Rx   d 8 AA 00 00 00 00 00 00 50
 0.011948 1  264             Rx   d 8 01 1D 00 19 1E 00 00 00
 0.019949 1  251             Rx   d 8 00 00 00 00 00 00 00 00
 0.021944 1  252             Rx   d 8 00 00 00 01 00 00 00 00
 0.023967 1  253             Rx   d 8 00 00 00 00 00 00 00 00
 0.025843 1  221             Rx   d 8 00 00 00 00 00 00 00 00
 0.026093 1  311             Rx   d 8 00 00 14 53 00 00 0E F5
 0.026340 1  254             Rx   d 8 00 00 00 02 00 00 00 00
 0.027993 1  241             Rx   d 8 AA 00 00 00 00 00 00 51
 0.040004 1  251             Rx   d 8 00 00 00 00 00 00 00 00
 0.042000 1  252             Rx   d 8 00 00 00 01 00 00 00 00
 0.043999 1  253             Rx   d 8 00 00 00 00 00 00 00 00
 0.045901 1  221             Rx   d 8 00 00 00 00 00 00 00 00
 0.046140 1  311             Rx   d 8 00 00 14 53 00 00 0E F5
 0.046387 1  254             Rx   d 8 00 00 00 02 00 00 00 00
 0.048054 1  241             Rx   d 8 AA 00 00 00 00 00 00 52
 0.060002 1  251             Rx   d 8 00 00 00 00 00 00 00 00
 0.061996 1  252             Rx   d 8 00 00 00 01 00 00 00 00
 0.063996 1  253             Rx   d 8 00 00 00 00 00 00 00 00
 0.065844 1  221             Rx   d 8 00 00 00 00 00 00 00 00
 0.066094 1  311             Rx   d 8 00 00 14 53 00 00 0E F5
 0.066342 1  254             Rx   d 8 00 00 00 02 00 00 00 00
 0.068094 1  241             Rx   d 8 AA 00 00 00 00 00 00 53
 0.079071 1  261             Rx   d 8 01 1F 00 19 1E 00 00 00
 0.080058 1  251             Rx   d 8 00 00 00 00 00 00 00 00
 0.082056 1  252             Rx   d 8 00 00 00 01 00 00 00 00
 0.084052 1  253             Rx   d 8 00 00 00 00 00 00 00 00
 0.085938 1  221             Rx   d 8 00 00 00 00 00 00 00 00
 0.086140 1  311             Rx   d 8 00 00 14 53 00 00 0E F5
 0.086379 1  254             Rx   d 8 00 00 00 02 00 00 00 00
 0.088132 1  241             Rx   d 8 AA 00 00 00 00 00 00 54
 0.090029 1  262             Rx   d 8 01 1E 00 19 1E 00 00 00
 0.098129 1  211             Rx   d 8 00 01 01 15 00 00 00 00
 0.100082 1  251             Rx   d 8 00 00 00 00 00 00 00 00
 0.101073 1  263             Rx   d 8 01 1F 00 19 1E 00 00 00
 0.102075 1  252             Rx   d 8 00 00 00 01 00 00 00 00
 0.104079 1  253             Rx   d 8 00 00 00 00 00 00 00 00
 0.105877 1  221             Rx   d 8 00 00 00 00 00 00 00 00
 0.106127 1  311             Rx   d 8 00 00 14 53 00 00 0E F5
 0.106375 1  254             Rx   d 8 00 00 00 02 00 00 00 00
 0.108128 1  241             Rx   d 8 AA 00 00 00 00 00 00 55
 0.112129 1  264             Rx   d 8 01 1E 00 19 1E 00 00 00
 0.120082 1  251             Rx   d 8 00 00 00 00 00 00 00 00
 0.122084 1  252             Rx   d 8 00 00 00 01 00 00 00 00
 0.124078 1  253             Rx   d 8 00 00 00 00 00 00 00 00
 0.125908 1  221             Rx   d 8 00 00 00 00 00 00 00 00
 0.126132 1  311             Rx   d 8 00 00 14 53 00 00 0E F5
 0.126383 1  254             Rx   d 8 00 00 00 02 00 00 00 00
 0.128180 1  241             Rx   d 8 AA 00 00 00 00 00 00 56
 0.140191 1  251             Rx   d 8 00 00 00 00 00 00 00 00
 0.142145 1  252             Rx   d 8 00 00 00 01 00 00 00 00
 0.144133 1  253             Rx   d 8 00 00 00 00 00 00 00 00
 0.145908 1  221             Rx   d 8 00 00 00 00 00 00 00 00
 0.146145 1  311             Rx   d 8 00 00 14 53 00 00 0E F5
 0.146379 1  254             Rx   d 8 00 00 00 02 00 00 00 00
 0.148179 1  241             Rx   d 8 AA 00 00 00 00 00 00 57
 0.160149 1  251             Rx   d 8 00 00 00 00 00 00 00 00
 0.162180 1  252             Rx   d 8 00 00 00 01 00 00 00 00
 0.164129 1  253             Rx   d 8 00 00 00 00 00 00 00 00
 0.165956 1  221             Rx   d 8 00 00 00 00 00 00 00 00
 0.166128 1  311             Rx   d 8 00 00 14 53 00 00 0E F5
 0.166380 1  254             Rx   d 8 00 00 00 02 00 00 00 00
 0.168204 1  241             Rx   d 8 AA 00 00 00 00 00 00 58
 0.179209 1  261             Rx   d 8 01 20 00 19 1E 00 00 00
 0.180140 1  251             Rx   d 8 00 00 00 00 00 00 00 00
 0.182159 1  252             Rx   d 8 00 00 00 01 00 00 00 00
 0.184166 1  253             Rx   d 8 00 00 00 00 00 00 00 00
 0.185910 1  221             Rx   d 8 00 00 00 00 00 00 00 00
 0.186133 1  311             Rx   d 8 00 00 14 53 00 00 0E F5
 0.186387 1  254             Rx   d 8 00 00 00 02 00 00 00 00
 0.188215 1  241             Rx   d 8 AA 00 00 00 00 00 00 59
 0.190158 1  262             Rx   d 8 01 1F 00 19 1E 00 00 00
 0.200214 1  251             Rx   d 8 00 00 00 00 00 00 00 00
 0.201161 1  263             Rx   d 8 01 1F 00 19 1E 00 00 00
 0.202208 1  252             Rx   d 8 00 00 00 01 00 00 00 00
 0.204241 1  253             Rx   d 8 00 00 00 00 00 00 00 00
 0.205919 1  221             Rx   d 8 00 00 00 00 00 00 00 00
 0.206135 1  311             Rx   d 8 00 00 14 53 00 00 0E F5
 0.206380 1  254             Rx   d 8 00 00 00 02 00 00 00 00
 0.208280 1  241             Rx   d 8 AA 00 00 00 00 00 00 5A
 0.212154 1  264             Rx   d 8 01 1E 00 19 1E 00 00 00
 0.220239 1  251             Rx   d 8 00 00 00 00 00 00 00 00
 0.222220 1  252             Rx   d 8 00 00 00 01 00 00 00 00
 0.224182 1  253             Rx   d 8 00 00 00 00 00 00 00 00
 0.225909 1  221             Rx   d 8 00 00 00 00 00 00 00 00
 0.226159 1  311             Rx   d 8 00 00 14 53 00 00 0E F5
 0.226381 1  254             Rx   d 8 00 00 00 02 00 00 00 00
 0.228237 1  241             Rx   d 8 AA 00 00 00 00 00 00 5B
 0.240268 1  251             Rx   d 8 00 00 00 00 00 00 00 00
 0.242265 1  252             Rx   d 8 00 00 00 01 00 00 00 00
 0.244262 1  253             Rx   d 8 00 00 00 00 00 00 00 00
 0.245910 1  221             Rx   d 8 00 00 00 00 00 00 00 00
 0.246136 1  311             Rx   d 8 00 00 14 53 00 00 0E F5
 0.246409 1  254             Rx   d 8 00 00 00 02 00 00 00 00
 0.248260 1  241             Rx   d 8 AA 00 00 00 00 00 00 5C
 0.260203 1  251             Rx   d 8 00 00 00 00 00 00 00 00
 0.262239 1  252             Rx   d 8 00 00 00 01 00 00 00 00
 0.264292 1  253             Rx   d 8 00 00 00 00 00 00 00 00
 0.265964 1  221             Rx   d 8 00 00 00 00 00 00 00 00
 0.266159 1  311             Rx   d 8 00 00 14 53 00 00 0E F5
 0.266389 1  254             Rx   d 8 00 00 00 02 00 00 00 00
 0.268294 1  241             Rx   d 8 AA 00 00 00 00 00 00 5D
 0.279253 1  261             Rx   d 8 01 20 00 19 1E 00 00 00
 0.280325 1  251             Rx   d 8 00 00 00 00 00 00 00 00
 0.282316 1  252             Rx   d 8 00 00 00 01 00 00 00 00
 0.284316 1  253             Rx   d 8 00 00 00 00 00 00 00 00
 0.285969 1  221             Rx   d 8 00 00 00 00 00 00 00 00
 0.286162 1  311             Rx   d 8 00 00 14 53 00 00 0E F5
 0.286410 1  254             Rx   d 8 00 00 00 02 00 00 00 00
 0.288315 1  241             Rx   d 8 AA 00 00 00 00 00 00 5E
 0.290264 1  262             Rx   d 8 01 1E 00 19 1E 00 00 00
 0.298311 1  211             Rx   d 8 00 01 01 15 00 00 00 00
 0.300265 1  251             Rx   d 8 00 00 00 00 00 00 00 00
 0.301284 1  263             Rx   d 8 01 1F 00 19 1E 00 00 00
 0.302336 1  252             Rx   d 8 00 00 00 01 00 00 00 00
 0.304356 1  253             Rx   d 8 00 00 00 00 00 00 00 00
 0.305964 1  221             Rx   d 8 00 00 00 00 00 00 00 00
 0.306163 1  311             Rx   d 8 00 00 14 53 00 00 0E F5
 0.306403 1  254             Rx   d 8 00 00 00 02 00 00 00 00
 0.308393 1  241             Rx   d 8 AA 00 00 00 00 00 00 5F
 0.312287 1  264             Rx   d 8 01 1E 00 19 1E 00 00 00
 0.318341 1  231             Rx   d 8 00 00 00 02 35 00 00 00
 0.320288 1  251             Rx   d 8 00 00 00 00 00 00 00 00
 0.322288 1  252             Rx   d 8 00 00 00 01 00 00 00 00
 0.324342 1  253             Rx   d 8 00 00 00 00 00 00 00 00
 0.325916 1  221             Rx   d 8 00 00 00 00 00 00 00 00
 0.326163 1  311             Rx   d 8 00 00 14 53 00 00 0E F5
 0.326411 1  254             Rx   d 8 00 00 00 02 00 00 00 00
 0.328391 1  241             Rx   d 8 AA 00 00 00 00 00 00 60
 0.340322 1  251             Rx   d 8 00 00 00 00 00 00 00 00
 0.342313 1  252             Rx   d 8 00 00 00 01 00 00 00 00
 0.344386 1  253             Rx   d 8 00 00 00 00 00 00 00 00
 0.345967 1  221             Rx   d 8 00 00 00 00 00 00 00 00
 0.346162 1  311             Rx   d 8 00 00 14 53 00 00 0E F5
 0.346412 1  254             Rx   d 8 00 00 00 02 00 00 00 00
 0.348447 1  241             Rx   d 8 AA 00 00 00 00 00 00 61
 0.360350 1  251             Rx   d 8 00 00 00 00 00 00 00 00
 0.362344 1  252             Rx   d 8 00 00 00 01 00 00 00 00
 0.364338 1  253             Rx   d 8 00 00 00 00 00 00 00 00
 0.365972 1  221             Rx   d 8 00 00 00 00 00 00 00 00
 0.366166 1  311             Rx   d 8 00 00 14 53 00 00 0E F5
 0.366413 1  254             Rx   d 8 00 00 00 02 00 00 00 00
 0.368417 1  241             Rx   d 8 AA 00 00 00 00 00 00 62
 0.379348 1  261             Rx   d 8 01 20 00 19 1E 00 00 00
 0.380367 1  251             Rx   d 8 00 00 00 00 00 00 00 00
 0.382365 1  252             Rx   d 8 00 00 00 01 00 00 00 00
 0.384379 1  253             Rx   d 8 00 00 00 00 00 00 00 00
 0.385956 1  221             Rx   d 8 00 00 00 00 00 00 00 00
 0.386166 1  311             Rx   d 8 00 00 14 53 00 00 0E F5
 0.386414 1  254             Rx   d 8 00 00 00 02 00 00 00 00
 0.388467 1  241             Rx   d 8 AA 00 00 00 00 00 00 63
 0.390415 1  262             Rx   d 8 01 1F 00 19 1E 00 00 00
 0.400384 1  251             Rx   d 8 00 00 00 00 00 00 00 00
 0.401368 1  263             Rx   d 8 01 1F 00 19 1E 00 00 00
 0.402371 1  252             Rx   d 8 00 00 00 01 00 00 00 00
 0.404403 1  253             Rx   d 8 00 00 00 00 00 00 00 00
 0.405939 1  221             Rx   d 8 00 00 00 00 00 00 00 00
 0.406133 1  311             Rx   d 8 00 00 14 53 00 00 0E F5
 0.406415 1  254             Rx   d 8 00 00 00 02 00 00 00 00
 0.408480 1  241             Rx   d 8 AA 00 00 00 00 00 00 64
 0.412368 1  264             Rx   d 8 01 1E 00 19 1E 00 00 00
 0.420389 1  251             Rx   d 8 00 00 00 00 00 00 00 00
 0.422367 1  252             Rx   d 8 00 00 00 01 00 00 00 00
 0.424391 1  253             Rx   d 8 00 00 00 00 00 00 00 00
 0.425931 1  221             Rx   d 8 00 00 00 00 00 00 00 00
 0.426162 1  311             Rx   d 8 00 00 14 53 00 00 0E F5
 0.426405 1  254             Rx   d 8 00 00 00 02 00 00 00 00
 0.428442 1  241             Rx   d 8 AA 00 00 00 00 00 00 65
 0.440462 1  251             Rx   d 8 00 00 00 00 00 00 00 00
 0.442419 1  252             Rx   d 8 00 00 00 01 00 00 00 00
 0.444418 1  253             Rx   d 8 00 00 00 00 00 00 00 00
 0.445955 1  221             Rx   d 8 00 00 00 00 00 00 00 00
 0.446170 1  311             Rx   d 8 00 00 14 53 00 00 0E F5
 0.446409 1  254             Rx   d 8 00 00 00 02 00 00 00 00
 0.448477 1  241             Rx   d 8 AA 00 00 00 00 00 00 66
 0.460450 1  251             Rx   d 8 00 00 00 00 00 00 00 00
 0.462414 1  252             Rx   d 8 00 00 00 01 00 00 00 00
 0.464472 1  253             Rx   d 8 00 00 00 00 00 00 00 00
 0.465945 1  221             Rx   d 8 00 00 00 00 00 00 00 00
 0.466165 1  311             Rx   d 8 00 00 14 53 00 00 0E F5
 0.466437 1  254             Rx   d 8 00 00 00 02 00 00 00 00
 0.468493 1  241             Rx   d 8 AA 00 00 00 00 00 00 67
 0.479486 1  261             Rx   d 8 01 20 00 19 1E 00 00 00
 0.480446 1  251             Rx   d 8 00 00 00 00 00 00 00 00
 0.482466 1  252             Rx   d 8 00 00 00 01 00 00 00 00
 0.484465 1  253             Rx   d 8 00 00 00 00 00 00 00 00
 0.485941 1  221             Rx   d 8 00 00 00 00 00 00 00 00
 0.486165 1  311             Rx   d 8 00 00 14 53 00 00 0E F5
 0.486465 1  254             Rx   d 8 00 00 00 02 00 00 00 00
 0.488516 1  241             Rx   d 8 AA 00 00 00 00 00 00 68
 0.490471 1  262             Rx   d 8 01 1E 00 19 1E 00 00 00
 0.498597 1  211             Rx   d 8 00 01 01 15 00 00 00 00
 0.500469 1  251             Rx   d 8 00 00 00 00 00 00 00 00
 0.501471 1  263             Rx   d 8 01 1F 00 19 1E 00 00 00
 0.502469 1  252             Rx   d 8 00 00 00 01 00 00 00 00
 0.504493 1  253             Rx   d 8 00 00 00 00 00 00 00 00
 0.505945 1  221             Rx   d 8 00 00 00 00 00 00 00 00
 0.506167 1  311             Rx   d 8 00 00 14 53 00 00 0E F5
 0.506492 1  254             Rx   d 8 00 00 00 02 00 00 00 00
 0.508546 1  241             Rx   d 8 AA 00 00 00 00 00 00 69
 0.512472 1  264             Rx   d 8 01 1E 00 19 1E 00 00 00
 0.520548 1  251             Rx   d 8 00 00 00 00 00 00 00 00
 0.522495 1  252             Rx   d 8 00 00 00 01 00 00 00 00
 0.524494 1  253             Rx   d 8 00 00 00 00 00 00 00 00
 0.525948 1  221             Rx   d 8 00 00 00 00 00 00 00 00
 0.526195 1  311             Rx   d 8 00 00 14 53 00 00 0E F5
 0.526493 1  254             Rx   d 8 00 00 00 02 00 00 00 00
 0.528567 1  241             Rx   d 8 AA 00 00 00 00 00 00 6A
 0.540521 1  251             Rx   d 8 00 00 00 00 00 00 00 00
 0.542521 1  252             Rx   d 8 00 00 00 01 00 00 00 00
 0.544517 1  253             Rx   d 8 00 00 00 00 00 00 00 00
 0.545947 1  221             Rx   d 8 00 00 00 00 00 00 00 00
 0.546190 1  311             Rx   d 8 00 00 14 53 00 00 0E F5
 0.546513 1  254             Rx   d 8 00 00 00 02 00 00 00 00
 0.548518 1  241             Rx   d 8 AA 00 00 00 00 00 00 6B
 0.560600 1  251             Rx   d 8 00 00 00 00 00 00 00 00
 0.562549 1  252             Rx   d 8 00 00 00 01 00 00 00 00
 0.564564 1  253             Rx   d 8 00 00 00 00 00 00 00 00
 0.565944 1  221             Rx   d 8 00 00 00 00 00 00 00 00
 0.566198 1  311             Rx   d 8 00 00 14 53 00 00 0E F5
 0.566544 1  254             Rx   d 8 00 00 00 02 00 00 00 00
 0.568596 1  241             Rx   d 8 AA 00 00 00 00 00 00 6C
 0.579514 1  261             Rx   d 8 01 20 00 19 1E 00 00 00
 0.580513 1  251             Rx   d 8 00 00 00 00 00 00 00 00
 0.582537 1  252             Rx   d 8 00 00 00 01 00 00 00 00
 0.584537 1  253             Rx   d 8 00 00 00 00 00 00 00 00
 0.585913 1  221             Rx   d 8 00 00 00 00 00 00 00 00
 0.586163 1  311             Rx   d 8 00 00 14 53 00 00 0E F5
 0.586534 1  254             Rx   d 8 00 00 00 02 00 00 00 00
 0.588538 1  241             Rx   d 8 AA 00 00 00 00 00 00 6D
 0.590539 1  262             Rx   d 8 01 1E 00 19 1E 00 00 00
 0.592191 1  421             Tx   d 1 01
 0.600570 1  251             Rx   d 8 00 00 00 00 00 00 00 00
 0.601622 1  263             Rx   d 8 01 1F 00 19 1E 00 00 00
 0.602574 1  252             Rx   d 8 00 00 00 01 00 00 00 00
 0.604594 1  253             Rx   d 8 00 00 00 00 00 00 00 00
 0.605946 1  221             Rx   d 8 00 00 00 00 00 00 00 00
 0.606169 1  311             Rx   d 8 00 00 14 53 00 00 0E F5
 0.606560 1  254             Rx   d 8 00 00 00 02 00 00 00 00
 0.608654 1  241             Rx   d 8 AA 00 00 00 00 00 00 6E
 0.612567 1  264             Rx   d 8 01 1E 00 19 1E 00 00 00
 0.620666 1  251             Rx   d 8 00 00 00 00 00 00 00 00
 0.622584 1  252             Rx   d 8 00 00 00 01 00 00 00 00
 0.624665 1  253             Rx   d 8 00 00 00 00 00 00 00 00
 0.625915 1  221             Rx   d 8 00 00 00 00 00 00 00 00
 0.626164 1  311             Rx   d 8 00 00 14 53 00 00 0E F5
 0.626586 1  254             Rx   d 8 00 00 00 02 00 00 00 00
 0.628638 1  241             Rx   d 8 AA 00 00 00 00 00 00 6F
 0.640593 1  251             Rx   d 8 00 00 00 00 00 00 00 00
 0.642591 1  252             Rx   d 8 00 00 00 01 00 00 00 00
 0.644590 1  253             Rx   d 8 00 00 00 00 00 00 00 00
 0.645940 1  221             Rx   d 8 00 00 00 00 00 00 00 00
 0.646164 1  311             Rx   d 8 00 00 14 53 00 00 0E F5
 0.646588 1  254             Rx   d 8 00 00 00 02 00 00 00 00
 0.648657 1  241             Rx   d 8 AA 00 00 00 00 00 00 70
 0.660651 1  251             Rx   d 8 00 00 00 00 00 00 00 00
 0.662722 1  252             Rx   d 8 00 00 00 01 00 00 00 00
 0.664643 1  253             Rx   d 8 00 00 00 00 00 00 00 00
 0.665951 1  221             Rx   d 8 00 00 00 00 00 00 00 00
 0.666200 1  311             Rx   d 8 00 00 14 53 00 00 0E F5
 0.666642 1  254             Rx   d 8 00 00 00 02 00 00 00 00
 0.668721 1  241             Rx   d 8 AA 00 00 00 00 00 00 71
 0.679622 1  261             Rx   d 8 01 20 00 19 1E 00 00 00
 0.680649 1  251             Rx   d 8 00 00 00 00 00 00 00 00
 0.682642 1  252             Rx   d 8 00 00 00 01 00 00 00 00
 0.684641 1  253             Rx   d 8 00 00 00 00 00 00 00 00
 0.685916 1  221             Rx   d 8 00 00 00 00 00 00 00 00
 0.686166 1  311             Rx   d 8 00 00 14 53 00 00 0E F5
 0.686639 1  254             Rx   d 8 00 00 00 02 00 00 00 00
 0.688641 1  241             Rx   d 8 AA 00 00 00 00 00 00 72
 0.690641 1  262             Rx   d 8 01 1F 00 19 1E 00 00 00
 0.698659 1  211             Rx   d 8 00 01 01 15 00 00 00 00
 0.700670 1  251             Rx   d 8 00 00 00 00 00 00 00 00
 0.701643 1  263             Rx   d 8 01 1F 00 19 1E 00 00 00
 0.702666 1  252             Rx   d 8 00 00 00 01 00 00 00 00
 0.704642 1  253             Rx   d 8 00 00 00 00 00 00 00 00
 0.705942 1  221             Rx   d 8 00 00 00 00 00 00 00 00
 0.706167 1  311             Rx   d 8 00 00 14 53 00 00 0E F5
 0.706664 1  254             Rx   d 8 00 00 00 02 00 00 00 00
 0.708719 1  241             Rx   d 8 AA 00 00 00 00 00 00 73
 0.712644 1  264             Rx   d 8 01 1E 00 19 1E 00 00 00
 0.720671 1  251             Rx   d 8 00 00 00 00 00 00 00 00
 0.722670 1  252             Rx   d 8 00 00 00 01 00 00 00 00
 0.724672 1  253             Rx   d 8 00 00 00 00 00 00 00 00
 0.725926 1  221             Rx   d 8 00 00 00 00 00 00 00 00
 0.726170 1  311             Rx   d 8 00 00 14 53 00 00 0E F5
 0.726662 1  254             Rx   d 8 00 00 00 02 00 00 00 00
 0.728740 1  241             Rx   d 8 AA 00 00 00 00 00 00 74
 0.740726 1  251             Rx   d 8 00 00 00 00 00 00 00 00
 0.742703 1  252             Rx   d 8 00 00 00 01 00 00 00 00
 0.744704 1  253             Rx   d 8 00 00 00 00 00 00 00 00
 0.745971 1  221             Rx   d 8 00 00 00 00 00 00 00 00
 0.746172 1  311             Rx   d 8 00 00 14 53 00 00 0E F5
 0.746771 1  254             Rx   d 8 00 00 00 02 00 00 00 00
 0.748777 1  241             Rx   d 8 AA 00 00 00 00 00 00 75
 0.760722 1  251             Rx   d 8 00 00 00 00 00 00 00 00
 0.762721 1  252             Rx   d 8 00 00 00 01 00 00 00 00
 0.764771 1  253             Rx   d 8 00 00 00 00 00 00 00 00
 0.766012 1  221             Rx   d 8 00 00 00 00 00 00 00 00
 0.766216 1  311             Rx   d 8 00 00 14 53 00 00 0E F5
 0.766769 1  254             Rx   d 8 00 00 00 02 00 00 00 00
 0.768774 1  241             Rx   d 8 AA 00 00 00 00 00 00 76
 0.779726 1  261             Rx   d 8 01 1F 00 19 1E 00 00 00
 0.780740 1  251             Rx   d 8 00 00 00 00 00 00 00 00
 0.782783 1  252             Rx   d 8 00 00 00 01 00 00 00 00
 0.784750 1  253             Rx   d 8 00 00 00 00 00 00 00 00
 0.785946 1  221             Rx   d 8 00 00 00 00 00 00 00 00
 0.786195 1  311             Rx   d 8 00 00 14 53 00 00 0E F5
 0.786745 1  254             Rx   d 8 00 00 00 02 00 00 00 00
 0.788796 1  241             Rx   d 8 AA 00 00 00 00 00 00 77
 0.790745 1  262             Rx   d 8 01 1F 00 19 1E 00 00 00
 0.800752 1  251             Rx   d 8 00 00 00 00 00 00 00 00
 0.801747 1  263             Rx   d 8 01 1F 00 19 1E 00 00 00
 0.802772 1  252             Rx   d 8 00 00 00 01 00 00 00 00
 0.804747 1  253             Rx   d 8 00 00 00 00 00 00 00 00
 0.805946 1  221             Rx   d 8 00 00 00 00 00 00 00 00
 0.806212 1  311             Rx   d 8 00 00 14 53 00 00 0E F5
 0.806769 1  254             Rx   d 8 00 00 00 02 00 00 00 00
 0.808797 1  241             Rx   d 8 AA 00 00 00 00 00 00 78
 0.812773 1  264             Rx   d 8 01 1E 00 19 1E 00 00 00
 0.818824 1  231             Rx   d 8 00 00 00 02 21 00 00 00
 0.820773 1  251             Rx   d 8 00 00 00 00 00 00 00 00
 0.822773 1  252             Rx   d 8 00 00 00 01 00 00 00 00
 0.824773 1  253             Rx   d 8 00 00 00 00 00 00 00 00
 0.825946 1  221             Rx   d 8 00 00 00 00 00 00 00 00
 0.826195 1  311             Rx   d 8 00 00 14 53 00 00 0E F5
 0.826771 1  254             Rx   d 8 00 00 00 02 00 00 00 00
 0.828823 1  241             Rx   d 8 AA 00 00 00 00 00 00 79
 0.840806 1  251             Rx   d 8 00 00 00 00 00 00 00 00
 0.842800 1  252             Rx   d 8 00 00 00 01 00 00 00 00
 0.844798 1  253             Rx   d 8 00 00 00 00 00 00 00 00
 0.845947 1  221             Rx   d 8 00 00 00 00 00 00 00 00
 0.846197 1  311             Rx   d 8 00 00 14 53 00 00 0E F5
 0.846794 1  254             Rx   d 8 00 00 00 02 00 00 00 00
 0.848849 1  241             Rx   d 8 AA 00 00 00 00 00 00 7A
 0.860827 1  251             Rx   d 8 00 00 00 00 00 00 00 00
 0.862824 1  252             Rx   d 8 00 00 00 01 00 00 00 00
 0.864826 1  253             Rx   d 8 00 00 00 00 00 00 00 00
 0.865950 1  221             Rx   d 8 00 00 00 00 00 00 00 00
 0.866197 1  311             Rx   d 8 00 00 14 53 00 00 0E F5
 0.866821 1  254             Rx   d 8 00 00 00 02 00 00 00 00
 0.868900 1  241             Rx   d 8 AA 00 00 00 00 00 00 7B
 0.879828 1  261             Rx   d 8 01 20 00 19 1E 00 00 00
 0.880825 1  251             Rx   d 8 00 00 00 00 00 00 00 00
 0.882850 1  252             Rx   d 8 00 00 00 01 00 00 00 00
 0.884825 1  253             Rx   d 8 00 00 00 00 00 00 00 00
 0.885949 1  221             Rx   d 8 00 00 00 00 00 00 00 00
 0.886199 1  311             Rx   d 8 00 00 14 53 00 00 0E F5
 0.886847 1  254             Rx   d 8 00 00 00 02 00 00 00 00
 0.888900 1  241             Rx   d 8 AA 00 00 00 00 00 00 7C
 0.890824 1  262             Rx   d 8 01 1E 00 19 1E 00 00 00
 0.898927 1  211             Rx   d 8 00 01 01 15 00 00 00 00
 0.900850 1  251             Rx   d 8 00 00 00 00 00 00 00 00
 0.901852 1  263             Rx   d 8 01 1F 00 19 1E 00 00 00
 0.902931 1  252             Rx   d 8 00 00 00 01 00 00 00 00
 0.904863 1  253             Rx   d 8 00 00 00 00 00 00 00 00
 0.905987 1  221             Rx   d 8 00 00 00 00 00 00 00 00
 0.906218 1  311             Rx   d 8 00 00 14 53 00 00 0E F5
 0.906847 1  254             Rx   d 8 00 00 00 02 00 00 00 00
 0.908900 1  241             Rx   d 8 AA 00 00 00 00 00 00 7D
 0.912853 1  264             Rx   d 8 01 1E 00 19 1E 00 00 00
 0.920877 1  251             Rx   d 8 00 00 00 00 00 00 00 00
 0.922877 1  252             Rx   d 8 00 00 00 01 00 00 00 00
 0.924878 1  253             Rx   d 8 00 00 00 00 00 00 00 00
 0.925975 1  221             Rx   d 8 00 00 00 00 00 00 00 00
 0.926200 1  311             Rx   d 8 00 00 14 53 00 00 0E F5
 0.926872 1  254             Rx   d 8 00 00 00 02 00 00 00 00
 0.928899 1  241             Rx   d 8 AA 00 00 00 00 00 00 7E
 0.940933 1  251             Rx   d 8 00 00 00 00 00 00 00 00
 0.942927 1  252             Rx   d 8 00 00 00 01 00 00 00 00
 0.944932 1  253             Rx   d 8 00 00 00 00 00 00 00 00
 0.946007 1  221             Rx   d 8 00 00 00 00 00 00 00 00
 0.946207 1  311             Rx   d 8 00 00 14 53 00 00 0E F5
 0.946944 1  254             Rx   d 8 00 00 00 02 00 00 00 00
 0.949006 1  241             Rx   d 8 AA 00 00 00 00 00 00 7F
 0.960934 1  251             Rx   d 8 00 00 00 00 00 00 00 00
 0.962933 1  252             Rx   d 8 00 00 00 01 00 00 00 00
 0.964957 1  253             Rx   d 8 00 00 00 00 00 00 00 00
 0.965994 1  221             Rx   d 8 00 00 00 00 00 00 00 00
 0.966201 1  311             Rx   d 8 00 00 14 53 00 00 0E F5
 0.966924 1  254             Rx   d 8 00 00 00 02 00 00 00 00
 0.969021 1  241             Rx   d 8 AA 00 00 00 00 00 00 80
 0.979995 1  261             Rx   d 8 01 20 00 19 1E 00 00 00
 0.980963 1  251             Rx   d 8 00 00 00 00 00 00 00 00
 0.982984 1  252             Rx   d 8 00 00 00 01 00 00 00 00
 0.984982 1  253             Rx   d 8 00 00 00 00 00 00 00 00
 0.986008 1  221             Rx   d 8 00 00 00 00 00 00 00 00
 0.986236 1  311             Rx   d 8 00 00 14 53 00 00 0E F5
 0.986994 1  254             Rx   d 8 00 00 00 02 00 00 00 00
 0.989050 1  241             Rx   d 8 AA 00 00 00 00 00 00 81
 0.990964 1  262             Rx   d 8 01 1E 00 19 1E 00 00 00
 1.000980 1  251             Rx   d 8 00 00 00 00 00 00 00 00
 1.001983 1  263             Rx   d 8 01 1F 00 19 1E 00 00 00
 1.002983 1  252             Rx   d 8 00 00 00 01 00 00 00 00
 1.004982 1  253             Rx   d 8 00 00 00 00 00 00 00 00
 1.006009 1  221             Rx   d 8 00 00 00 00 00 00 00 00
 1.006257 1  311             Rx   d 8 00 00 14 53 00 00 0E F5
 1.007007 1  254             Rx   d 8 00 00 00 02 00 00 00 00
 1.009012 1  241             Rx   d 8 AA 00 00 00 00 00 00 82
 1.012985 1  264             Rx   d 8 01 1E 00 19 1E 00 00 00
 1.021011 1  251             Rx   d 8 00 00 00 00 00 00 00 00
 1.023012 1  252             Rx   d 8 00 00 00 01 00 00 00 00
 1.025018 1  253             Rx   d 8 00 00 00 00 00 00 00 00
 1.026008 1  221             Rx   d 8 00 00 00 00 00 00 00 00
 1.026260 1  311             Rx   d 8 00 00 14 53 00 00 0E F5
 1.027007 1  254             Rx   d 8 00 00 00 02 00 00 00 00
 1.029071 1  241             Rx   d 8 AA 00 00 00 00 00 00 83
 1.041039 1  251             Rx   d 8 00 00 00 00 00 00 00 00
 1.043036 1  252             Rx   d 8 00 00 00 01 00 00 00 00
 1.045034 1  253             Rx   d 8 00 00 00 00 00 00 00 00
 1.046010 1  221             Rx   d 8 00 00 00 00 00 00 00 00
 1.046261 1  311             Rx   d 8 00 00 14 53 00 00 0E F5
 1.047034 1  254             Rx   d 8 00 00 00 02 00 00 00 00
 1.049085 1  241             Rx   d 8 AA 00 00 00 00 00 00 84
 1.061061 1  251             Rx   d 8 00 00 00 00 00 00 00 00
 1.063062 1  252             Rx   d 8 00 00 00 01 00 00 00 00
 1.065061 1  253             Rx   d 8 00 00 00 00 00 00 00 00
 1.066014 1  221             Rx   d 8 00 00 00 00 00 00 00 00
 1.066270 1  311             Rx   d 8 00 00 14 53 00 00 0E F5
 1.067036 1  254             Rx   d 8 00 00 00 02 00 00 00 00
 1.069129 1  241             Rx   d 8 AA 00 00 00 00 00 00 85
 1.080112 1  261             Rx   d 8 01 1F 00 19 1E 00 00 00
 1.081030 1  251             Rx   d 8 00 00 00 00 00 00 00 00
 1.083089 1  252             Rx   d 8 00 00 00 01 00 00 00 00
 1.085089 1  253             Rx   d 8 00 00 00 00 00 00 00 00
 1.086028 1  221             Rx   d 8 00 00 00 00 00 00 00 00
 1.086261 1  311             Rx   d 8 00 00 14 53 00 00 0E F5
 1.087092 1  254             Rx   d 8 00 00 00 02 00 00 00 00
 1.090372 1  241             Rx   d 8 AA 00 00 00 00 00 00 86
 1.091065 1  262             Rx   d 8 01 1E 00 19 1E 00 00 00
 1.099162 1  211             Rx   d 8 00 01 01 15 00 00 00 00
 1.101089 1  251             Rx   d 8 00 00 00 00 00 00 00 00
 1.102078 1  263             Rx   d 8 01 1F 00 19 1E 00 00 00
 1.103104 1  252             Rx   d 8 00 00 00 01 00 00 00 00
 1.105088 1  253             Rx   d 8 00 00 00 00 00 00 00 00
 1.106031 1  221             Rx   d 8 00 00 00 00 00 00 00 00
 1.106263 1  311             Rx   d 8 00 00 14 53 00 00 0E F5
 1.107120 1  254             Rx   d 8 00 00 00 02 00 00 00 00
 1.109159 1  241             Rx   d 8 AA 00 00 00 00 00 00 87
 1.113086 1  264             Rx   d 8 01 1E 00 19 1E 00 00 00
 1.121132 1  251             Rx   d 8 00 00 00 00 00 00 00 00
 1.123133 1  252             Rx   d 8 00 00 00 01 00 00 00 00
 1.125165 1  253             Rx   d 8 00 00 00 00 00 00 00 00
 1.125978 1  221             Rx   d 8 00 00 00 00 00 00 00 00
 1.126260 1  311             Rx   d 8 00 00 14 53 00 00 0E F5
 1.127116 1  254             Rx   d 8 00 00 00 02 00 00 00 00
 1.129165 1  241             Rx   d 8 AA 00 00 00 00 00 00 88
 1.141168 1  251             Rx   d 8 00 00 00 00 00 00 00 00
 1.143166 1  252             Rx   d 8 00 00 00 01 00 00 00 00
 1.145167 1  253             Rx   d 8 00 00 00 00 00 00 00 00
 1.146027 1  221             Rx   d 8 00 00 00 00 00 00 00 00
 1.146265 1  311             Rx   d 8 00 00 14 53 00 00 0E F5
 1.147165 1  254             Rx   d 8 00 00 00 02 00 00 00 00
 1.149189 1  241             Rx   d 8 AA 00 00 00 00 00 00 89
 1.161169 1  251             Rx   d 8 00 00 00 00 00 00 00 00
 1.163168 1  252             Rx   d 8 00 00 00 01 00 00 00 00
 1.165167 1  253             Rx   d 8 00 00 00 00 00 00 00 00
 1.166042 1  221             Rx   d 8 00 00 00 00 00 00 00 00
 1.166266 1  311             Rx   d 8 00 00 14 53 00 00 0E F5
 1.167161 1  254             Rx   d 8 00 00 00 02 00 00 00 00
 1.169213 1  241             Rx   d 8 AA 00 00 00 00 00 00 8A
 1.180168 1  261             Rx   d 8 01 20 00 19 1E 00 00 00
 1.181183 1  251             Rx   d 8 00 00 00 00 00 00 00 00
 1.183169 1  252             Rx   d 8 00 00 00 01 00 00 00 00
 1.185203 1  253             Rx   d 8 00 00 00 00 00 00 00 00
 1.186018 1  221             Rx   d 8 00 00 00 00 00 00 00 00
 1.186236 1  311             Rx   d 8 00 00 14 53 00 00 0E F5
 1.187167 1  254             Rx   d 8 00 00 00 02 00 00 00 00
 1.189214 1  241             Rx   d 8 AA 00 00 00 00 00 00 8B
 1.191194 1  262             Rx   d 8 01 1E 00 19 1E 00 00 00
 1.201214 1  251             Rx   d 8 00 00 00 00 00 00 00 00
 1.202195 1  263             Rx   d 8 01 1F 00 19 1E 00 00 00
 1.203222 1  252             Rx   d 8 00 00 00 01 00 00 00 00
 1.205203 1  253             Rx   d 8 00 00 00 00 00 00 00 00
 1.206043 1  221             Rx   d 8 00 00 00 00 00 00 00 00
 1.206268 1  311             Rx   d 8 00 00 14 53 00 00 0E F5
 1.207196 1  254             Rx   d 8 00 00 00 02 00 00 00 00
 1.209247 1  241             Rx   d 8 AA 00 00 00 00 00 00 8C
 1.213214 1  264             Rx   d 8 01 1E 00 19 1E 00 00 00
 1.221226 1  251             Rx   d 8 00 00 00 00 00 00 00 00
 1.223187 1  252             Rx   d 8 00 00 00 01 00 00 00 00
 1.225221 1  253             Rx   d 8 00 00 00 00 00 00 00 00
 1.226010 1  221             Rx   d 8 00 00 00 00 00 00 00 00
 1.226270 1  311             Rx   d 8 00 00 14 53 00 00 0E F5
 1.227216 1  254             Rx   d 8 00 00 00 02 00 00 00 00
 1.229269 1  241             Rx   d 8 AA 00 00 00 00 00 00 8D
 1.241218 1  251             Rx   d 8 00 00 00 00 00 00 00 00
 1.243244 1  252             Rx   d 8 00 00 00 01 00 00 00 00
 1.245243 1  253             Rx   d 8 00 00 00 00 00 00 00 00
 1.246043 1  221             Rx   d 8 00 00 00 00 00 00 00 00
 1.246269 1  311             Rx   d 8 00 00 14 53 00 00 0E F5
 1.247243 1  254             Rx   d 8 00 00 00 02 00 00 00 00
 1.249293 1  241             Rx   d 8 AA 00 00 00 00 00 00 8E
 1.261273 1  251             Rx   d 8 00 00 00 00 00 00 00 00
 1.263276 1  252             Rx   d 8 00 00 00 01 00 00 00 00
 1.265272 1  253             Rx   d 8 00 00 00 00 00 00 00 00
 1.266047 1  221             Rx   d 8 00 00 00 00 00 00 00 00
 1.266271 1  311             Rx   d 8 00 00 14 53 00 00 0E F5
 1.267271 1  254             Rx   d 8 00 00 00 02 00 00 00 00
 1.269313 1  241             Rx   d 8 AA 00 00 00 00 00 00 8F
 1.280270 1  261             Rx   d 8 01 20 00 19 1E 00 00 00
 1.281267 1  251             Rx   d 8 00 00 00 00 00 00 00 00
 1.283293 1  252             Rx   d 8 00 00 00 01 00 00 00 00
 1.285294 1  253             Rx   d 8 00 00 00 00 00 00 00 00
 1.286042 1  221             Rx   d 8 00 00 00 00 00 00 00 00
 1.286269 1  311             Rx   d 8 00 00 14 53 00 00 0E F5
 1.287298 1  254             Rx   d 8 00 00 00 02 00 00 00 00
 1.289273 1  241             Rx   d 8 AA 00 00 00 00 00 00 90
 1.291268 1  262             Rx   d 8 01 1F 00 19 1E 00 00 00
 1.299344 1  211             Rx   d 8 00 01 01 15 00 00 00 00
 1.301283 1  251             Rx   d 8 00 00 00 00 00 00 00 00
 1.302294 1  263             Rx   d 8 01 1F 00 19 1E 00 00 00
 1.303293 1  252             Rx   d 8 00 00 00 01 00 00 00 00
 1.305318 1  253             Rx   d 8 00 00 00 00 00 00 00 00
 1.306043 1  221             Rx   d 8 00 00 00 00 00 00 00 00
 1.306293 1  311             Rx   d 8 00 00 14 53 00 00 0E F5
 1.307292 1  254             Rx   d 8 00 00 00 02 00 00 00 00
 1.309330 1  241             Rx   d 8 AA 00 00 00 00 00 00 91
 1.313293 1  264             Rx   d 8 01 1E 00 19 1E 00 00 00
 1.319364 1  231             Rx   d 8 00 00 00 02 0D 00 00 00
 1.321351 1  251             Rx   d 8 00 00 00 00 00 00 00 00
 1.323290 1  252             Rx   d 8 00 00 00 01 00 00 00 00
 1.325289 1  253             Rx   d 8 00 00 00 00 00 00 00 00
 1.326012 1  221             Rx   d 8 00 00 00 00 00 00 00 00
 1.326265 1  311             Rx   d 8 00 00 14 53 00 00 0E F5
 1.327316 1  254             Rx   d 8 00 00 00 02 00 00 00 00
 1.329367 1  241             Rx   d 8 AA 00 00 00 00 00 00 92
 1.341318 1  251             Rx   d 8 00 00 00 00 00 00 00 00
 1.343344 1  252             Rx   d 8 00 00 00 01 00 00 00 00
 1.345345 1  253             Rx   d 8 00 00 00 00 00 00 00 00
 1.346045 1  221             Rx   d 8 00 00 00 00 00 00 00 00
 1.346294 1  311             Rx   d 8 00 00 14 53 00 00 0E F5
 1.347344 1  254             Rx   d 8 00 00 00 02 00 00 00 00
 1.349350 1  241             Rx   d 8 AA 00 00 00 00 00 00 93
 1.361380 1  251             Rx   d 8 00 00 00 00 00 00 00 00
 1.363376 1  252             Rx   d 8 00 00 00 01 00 00 00 00
 1.365370 1  253             Rx   d 8 00 00 00 00 00 00 00 00
 1.366043 1  221             Rx   d 8 00 00 00 00 00 00 00 00
 1.366295 1  311             Rx   d 8 00 00 14 53 00 00 0E F5
 1.367370 1  254             Rx   d 8 00 00 00 02 00 00 00 00
 1.369392 1  241             Rx   d 8 AA 00 00 00 00 00 00 94
 1.380372 1  261             Rx   d 8 01 1F 00 19 1E 00 00 00
 1.381375 1  251             Rx   d 8 00 00 00 00 00 00 00 00
 1.383371 1  252             Rx   d 8 00 00 00 01 00 00 00 00
 1.385422 1  253             Rx   d 8 00 00 00 00 00 00 00 00
 1.386047 1  221             Rx   d 8 00 00 00 00 00 00 00 00
 1.386265 1  311             Rx   d 8 00 00 14 53 00 00 0E F5
 1.387397 1  254             Rx   d 8 00 00 00 02 00 00 00 00
 1.389393 1  241             Rx   d 8 AA 00 00 00 00 00 00 95
 1.391374 1  262             Rx   d 8 01 1F 00 19 1E 00 00 00
 1.401397 1  251             Rx   d 8 00 00 00 00 00 00 00 00
 1.402395 1  263             Rx   d 8 01 1F 00 19 1E 00 00 00
 1.403404 1  252             Rx   d 8 00 00 00 01 00 00 00 00
 1.405367 1  253             Rx   d 8 00 00 00 00 00 00 00 00
 1.406046 1  221             Rx   d 8 00 00 00 00 00 00 00 00
 1.406299 1  311             Rx   d 8 00 00 14 53 00 00 0E F5
 1.407397 1  254             Rx   d 8 00 00 00 02 00 00 00 00
 1.409457 1  241             Rx   d 8 AA 00 00 00 00 00 00 96
 1.413368 1  264             Rx   d 8 01 1E 00 19 1E 00 00 00
 1.421396 1  251             Rx   d 8 00 00 00 00 00 00 00 00
 1.423419 1  252             Rx   d 8 00 00 00 01 00 00 00 00
 1.425417 1  253             Rx   d 8 00 00 00 00 00 00 00 00
 1.426042 1  221             Rx   d 8 00 00 00 00 00 00 00 00
 1.426292 1  311             Rx   d 8 00 00 14 53 00 00 0E F5
 1.427420 1  254             Rx   d 8 00 00 00 02 00 00 00 00
 1.429440 1  241             Rx   d 8 AA 00 00 00 00 00 00 97
 1.441447 1  251             Rx   d 8 00 00 00 00 00 00 00 00
 1.443448 1  252             Rx   d 8 00 00 00 01 00 00 00 00
 1.445447 1  253             Rx   d 8 00 00 00 00 00 00 00 00
 1.446072 1  221             Rx   d 8 00 00 00 00 00 00 00 00
 1.446294 1  311             Rx   d 8 00 00 14 53 00 00 0E F5
 1.447459 1  254             Rx   d 8 00 00 00 02 00 00 00 00
 1.449495 1  241             Rx   d 8 AA 00 00 00 00 00 00 98
 1.461474 1  251             Rx   d 8 00 00 00 00 00 00 00 00
 1.463475 1  252             Rx   d 8 00 00 00 01 00 00 00 00
 1.465476 1  253             Rx   d 8 00 00 00 00 00 00 00 00
 1.466073 1  221             Rx   d 8 00 00 00 00 00 00 00 00
 1.466300 1  311             Rx   d 8 00 00 14 53 00 00 0E F5
 1.467474 1  254             Rx   d 8 00 00 00 02 00 00 00 00
 1.469526 1  241             Rx   d 8 AA 00 00 00 00 00 00 99
 1.480452 1  261             Rx   d 8 01 20 00 19 1E 00 00 00
 1.481447 1  251             Rx   d 8 00 00 00 00 00 00 00 00
 1.483472 1  252             Rx   d 8 00 00 00 01 00 00 00 00
 1.485472 1  253             Rx   d 8 00 00 00 00 00 00 00 00
 1.486070 1  221             Rx   d 8 00 00 00 00 00 00 00 00
 1.486297 1  311             Rx   d 8 00 00 14 53 00 00 0E F5
 1.487497 1  254             Rx   d 8 00 00 00 02 00 00 00 00
 1.489496 1  241             Rx   d 8 AA 00 00 00 00 00 00 9A
 1.491471 1  262             Rx   d 8 01 1E 00 19 1E 00 00 00
 1.499547 1  211             Rx   d 8 00 01 01 15 00 00 00 00
 1.501470 1  251             Rx   d 8 00 00 00 00 00 00 00 00
 1.502495 1  263             Rx   d 8 01 1F 00 19 1E 00 00 00
 1.503499 1  252             Rx   d 8 00 00 00 01 00 00 00 00
 1.505498 1  253             Rx   d 8 00 00 00 00 00 00 00 00
 1.506075 1  221             Rx   d 8 00 00 00 00 00 00 00 00
 1.506296 1  311             Rx   d 8 00 00 14 53 00 00 0E F5
 1.507526 1  254             Rx   d 8 00 00 00 02 00 00 00 00
 1.509557 1  241             Rx   d 8 AA 00 00 00 00 00 00 9B
 1.513528 1  264             Rx   d 8 01 1D 00 19 1E 00 00 00
 1.521541 1  251             Rx   d 8 00 00 00 00 00 00 00 00
 1.523505 1  252             Rx   d 8 00 00 00 01 00 00 00 00
 1.525500 1  253             Rx   d 8 00 00 00 00 00 00 00 00
 1.526072 1  221             Rx   d 8 00 00 00 00 00 00 00 00
 1.526325 1  311             Rx   d 8 00 00 14 53 00 00 0E F5
 1.527523 1  254             Rx   d 8 00 00 00 02 00 00 00 00
 1.529572 1  241             Rx   d 8 AA 00 00 00 00 00 00 9C
 1.541555 1  251             Rx   d 8 00 00 00 00 00 00 00 00
 1.543551 1  252             Rx   d 8 00 00 00 01 00 00 00 00
 1.545554 1  253             Rx   d 8 00 00 00 00 00 00 00 00
 1.546080 1  221             Rx   d 8 00 00 00 00 00 00 00 00
 1.546314 1  311             Rx   d 8 00 00 14 53 00 00 0E F5
 1.547554 1  254             Rx   d 8 00 00 00 02 00 00 00 00
 1.549602 1  241             Rx   d 8 AA 00 00 00 00 00 00 9D
 1.561584 1  251             Rx   d 8 00 00 00 00 00 00 00 00
 1.563579 1  252             Rx   d 8 00 00 00 01 00 00 00 00
 1.565580 1  253             Rx   d 8 00 00 00 00 00 00 00 00
 1.566076 1  221             Rx   d 8 00 00 00 00 00 00 00 00
 1.566328 1  311             Rx   d 8 00 00 14 53 00 00 0E F5
 1.567552 1  254             Rx   d 8 00 00 00 02 00 00 00 00
 1.569628 1  241             Rx   d 8 AA 00 00 00 00 00 00 9E
 1.580553 1  261             Rx   d 8 01 20 00 19 1E 00 00 00
 1.581579 1  251             Rx   d 8 00 00 00 00 00 00 00 00
 1.583609 1  252             Rx   d 8 00 00 00 01 00 00 00 00
 1.585577 1  253             Rx   d 8 00 00 00 00 00 00 00 00
 1.586075 1  221             Rx   d 8 00 00 00 00 00 00 00 00
 1.586302 1  311             Rx   d 8 00 00 14 53 00 00 0E F5
 1.587598 1  254             Rx   d 8 00 00 00 02 00 00 00 00
 1.589598 1  241             Rx   d 8 AA 00 00 00 00 00 00 9F
 1.591578 1  262             Rx   d 8 01 1E 00 19 1E 00 00 00
 1.601605 1  251             Rx   d 8 00 00 00 00 00 00 00 00
 1.602595 1  263             Rx   d 8 01 1F 00 19 1E 00 00 00
 1.603608 1  252             Rx   d 8 00 00 00 01 00 00 00 00
 1.605576 1  253             Rx   d 8 00 00 00 00 00 00 00 00
 1.606049 1  221             Rx   d 8 00 00 00 00 00 00 00 00
 1.606297 1  311             Rx   d 8 00 00 14 53 00 00 0E F5
 1.607609 1  254             Rx   d 8 00 00 00 02 00 00 00 00
 1.609630 1  241             Rx   d 8 AA 00 00 00 00 00 00 A0
 1.613605 1  264             Rx   d 8 01 1E 00 19 1E 00 00 00
 1.621611 1  251             Rx   d 8 00 00 00 00 00 00 00 00
 1.623605 1  252             Rx   d 8 00 00 00 01 00 00 00 00
 1.625632 1  253             Rx   d 8 00 00 00 00 00 00 00 00
 1.626078 1  221             Rx   d 8 00 00 00 00 00 00 00 00
 1.626333 1  311             Rx   d 8 00 00 14 53 00 00 0E F5
 1.627629 1  254             Rx   d 8 00 00 00 02 00 00 00 00
 1.629705 1  241             Rx   d 8 AA 00 00 00 00 00 00 A1
 1.641657 1  251             Rx   d 8 00 00 00 00 00 00 00 00
 1.643651 1  252             Rx   d 8 00 00 00 01 00 00 00 00
 1.645653 1  253             Rx   d 8 00 00 00 00 00 00 00 00
 1.646077 1  221             Rx   d 8 00 00 00 00 00 00 00 00
 1.646324 1  311             Rx   d 8 00 00 14 53 00 00 0E F5
 1.647651 1  254             Rx   d 8 00 00 00 02 00 00 00 00
 1.649704 1  241             Rx   d 8 AA 00 00 00 00 00 00 A2
 1.661658 1  251             Rx   d 8 00 00 00 00 00 00 00 00
 1.663656 1  252             Rx   d 8 00 00 00 01 00 00 00 00
 1.665686 1  253             Rx   d 8 00 00 00 00 00 00 00 00
 1.666083 1  221             Rx   d 8 00 00 00 00 00 00 00 00
 1.666336 1  311             Rx   d 8 00 00 14 53 00 00 0E F5
 1.667681 1  254             Rx   d 8 00 00 00 02 00 00 00 00
 1.669759 1  241             Rx   d 8 AA 00 00 00 00 00 00 A3
 1.680686 1  261             Rx   d 8 01 1F 00 19 1E 00 00 00
 1.681682 1  251             Rx   d 8 00 00 00 00 00 00 00 00
 1.683679 1  252             Rx   d 8 00 00 00 01 00 00 00 00
 1.685683 1  253             Rx   d 8 00 00 00 00 00 00 00 00
 1.686054 1  221             Rx   d 8 00 00 00 00 00 00 00 00
 1.686333 1  311             Rx   d 8 00 00 14 53 00 00 0E F5
 1.687682 1  254             Rx   d 8 00 00 00 02 00 00 00 00
 1.689703 1  241             Rx   d 8 AA 00 00 00 00 00 00 A4
 1.691684 1  262             Rx   d 8 01 1E 00 19 1E 00 00 00
 1.699760 1  211             Rx   d 8 00 01 01 15 00 00 00 00
 1.701708 1  251             Rx   d 8 00 00 00 00 00 00 00 00
 1.702676 1  263             Rx   d 8 01 1F 00 19 1E 00 00 00
 1.703708 1  252             Rx   d 8 00 00 00 01 00 00 00 00
 1.705708 1  253             Rx   d 8 00 00 00 00 00 00 00 00
 1.706105 1  221             Rx   d 8 00 00 00 00 00 00 00 00
 1.706342 1  311             Rx   d 8 00 00 14 53 00 00 0E F5
 1.707702 1  254             Rx   d 8 00 00 00 02 00 00 00 00
 1.709757 1  241             Rx   d 8 AA 00 00 00 00 00 00 A5
 1.713706 1  264             Rx   d 8 01 1E 00 19 1E 00 00 00
 1.721747 1  251             Rx   d 8 00 00 00 00 00 00 00 00
 1.723733 1  252             Rx   d 8 00 00 00 01 00 00 00 00
 1.725707 1  253             Rx   d 8 00 00 00 00 00 00 00 00
 1.726104 1  221             Rx   d 8 00 00 00 00 00 00 00 00
 1.726339 1  311             Rx   d 8 00 00 14 53 00 00 0E F5
 1.727735 1  254             Rx   d 8 00 00 00 02 00 00 00 00
 1.729810 1  241             Rx   d 8 AA 00 00 00 00 00 00 A6
 1.741760 1  251             Rx   d 8 00 00 00 00 00 00 00 00
 1.743757 1  252             Rx   d 8 00 00 00 01 00 00 00 00
 1.745754 1  253             Rx   d 8 00 00 00 00 00 00 00 00
 1.746111 1  221             Rx   d 8 00 00 00 00 00 00 00 00
 1.746336 1  311             Rx   d 8 00 00 14 53 00 00 0E F5
 1.747756 1  254             Rx   d 8 00 00 00 02 00 00 00 00
 1.749793 1  241             Rx   d 8 AA 00 00 00 00 00 00 A7
 1.761765 1  251             Rx   d 8 00 00 00 00 00 00 00 00
 1.763790 1  252             Rx   d 8 00 00 00 01 00 00 00 00
 1.765792 1  253             Rx   d 8 00 00 00 00 00 00 00 00
 1.766115 1  221             Rx   d 8 00 00 00 00 00 00 00 00
 1.766348 1  311             Rx   d 8 00 00 14 53 00 00 0E F5
 1.767788 1  254             Rx   d 8 00 00 00 02 00 00 00 00
 1.769835 1  241             Rx   d 8 AA 00 00 00 00 00 00 A8
 1.780794 1  261             Rx   d 8 01 20 00 19 1E 00 00 00
 1.781786 1  251             Rx   d 8 00 00 00 00 00 00 00 00
 1.783800 1  252             Rx   d 8 00 00 00 01 00 00 00 00
 1.785790 1  253             Rx   d 8 00 00 00 00 00 00 00 00
 1.786109 1  221             Rx   d 8 00 00 00 00 00 00 00 00
 1.786345 1  311             Rx   d 8 00 00 14 53 00 00 0E F5
 1.787787 1  254             Rx   d 8 00 00 00 02 00 00 00 00
 1.789807 1  241             Rx   d 8 AA 00 00 00 00 00 00 A9
 1.791788 1  262             Rx   d 8 01 1F 00 19 1E 00 00 00
 1.801815 1  251             Rx   d 8 00 00 00 00 00 00 00 00
 1.802820 1  263             Rx   d 8 01 1F 00 19 1E 00 00 00
 1.803818 1  252             Rx   d 8 00 00 00 01 00 00 00 00
 1.805818 1  253             Rx   d 8 00 00 00 00 00 00 00 00
 1.806116 1  221             Rx   d 8 00 00 00 00 00 00 00 00
 1.806360 1  311             Rx   d 8 00 00 14 53 00 00 0E F5
 1.807816 1  254             Rx   d 8 00 00 00 02 00 00 00 00
 1.809866 1  241             Rx   d 8 AA 00 00 00 00 00 00 AA
 1.813798 1  264             Rx   d 8 01 1D 00 19 1E 00 00 00
 1.819919 1  231             Rx   d 8 00 00 00 02 07 00 00 00
 1.821844 1  251             Rx   d 8 00 00 00 00 00 00 00 00
 1.823843 1  252             Rx   d 8 00 00 00 01 00 00 00 00
 1.825813 1  253             Rx   d 8 00 00 00 00 00 00 00 00
 1.826149 1  221             Rx   d 8 00 00 00 00 00 00 00 00
 1.826342 1  311             Rx   d 8 00 00 14 53 00 00 0E F5
 1.827883 1  254             Rx   d 8 00 00 00 02 00 00 00 00
 1.829836 1  241             Rx   d 8 AA 00 00 00 00 00 00 AB
 1.841843 1  251             Rx   d 8 00 00 00 00 00 00 00 00
 1.843872 1  252             Rx   d 8 00 00 00 01 00 00 00 00
 1.845873 1  253             Rx   d 8 00 00 00 00 00 00 00 00
 1.846116 1  221             Rx   d 8 00 00 00 00 00 00 00 00
 1.846371 1  311             Rx   d 8 00 00 14 53 00 00 0E F5
 1.847916 1  254             Rx   d 8 00 00 00 02 00 00 00 00
 1.849968 1  241             Rx   d 8 AA 00 00 00 00 00 00 AC
 1.861871 1  251             Rx   d 8 00 00 00 00 00 00 00 00
 1.863867 1  252             Rx   d 8 00 00 00 01 00 00 00 00
 1.865947 1  253             Rx   d 8 00 00 00 00 00 00 00 00
 1.866142 1  221             Rx   d 8 00 00 00 00 00 00 00 00
 1.866369 1  311             Rx   d 8 00 00 14 53 00 00 0E F5
 1.867860 1  254             Rx   d 8 00 00 00 02 00 00 00 00
 1.869919 1  241             Rx   d 8 AA 00 00 00 00 00 00 AD
 1.880892 1  261             Rx   d 8 01 20 00 19 1E 00 00 00
 1.881894 1  251             Rx   d 8 00 00 00 00 00 00 00 00
 1.883894 1  252             Rx   d 8 00 00 00 01 00 00 00 00
 1.885949 1  253             Rx   d 8 00 00 00 00 00 00 00 00
 1.886140 1  221             Rx   d 8 00 00 00 00 00 00 00 00
 1.886388 1  311             Rx   d 8 00 00 14 53 00 00 0E F5
 1.887947 1  254             Rx   d 8 00 00 00 02 00 00 00 00
 1.889911 1  241             Rx   d 8 AA 00 00 00 00 00 00 AE
 1.891951 1  262             Rx   d 8 01 1F 00 19 1E 00 00 00
 1.899944 1  211             Rx   d 8 00 01 01 15 00 00 00 00
 1.901919 1  251             Rx   d 8 00 00 00 00 00 00 00 00
 1.902923 1  263             Rx   d 8 01 1F 00 19 1E 00 00 00
 1.903921 1  252             Rx   d 8 00 00 00 01 00 00 00 00
 1.905932 1  253             Rx   d 8 00 00 00 00 00 00 00 00
 1.906196 1  221             Rx   d 8 00 00 00 00 00 00 00 00
 1.906405 1  311             Rx   d 8 00 00 14 53 00 00 0E F5
 1.907995 1  254             Rx   d 8 00 00 00 02 00 00 00 00
 1.909972 1  241             Rx   d 8 AA 00 00 00 00 00 00 AF
 1.913918 1  264             Rx   d 8 01 1E 00 19 1E 00 00 00
 1.921938 1  251             Rx   d 8 00 00 00 00 00 00 00 00
 1.923943 1  252             Rx   d 8 00 00 00 01 00 00 00 00
 1.925938 1  253             Rx   d 8 00 00 00 00 00 00 00 00
 1.926184 1  221             Rx   d 8 00 00 00 00 00 00 00 00
 1.926441 1  311             Rx   d 8 00 00 14 53 00 00 0E F5
 1.927970 1  254             Rx   d 8 00 00 00 02 00 00 00 00
 1.930031 1  241             Rx   d 8 AA 00 00 00 00 00 00 B0
 1.941944 1  251             Rx   d 8 00 00 00 00 00 00 00 00
 1.943964 1  252             Rx   d 8 00 00 00 01 00 00 00 00
 1.945967 1  253             Rx   d 8 00 00 00 00 00 00 00 00
 1.946226 1  221             Rx   d 8 00 00 00 00 00 00 00 00
 1.946447 1  311             Rx   d 8 00 00 14 53 00 00 0E F5
 1.947966 1  254             Rx   d 8 00 00 00 02 00 00 00 00
 1.950074 1  241             Rx   d 8 AA 00 00 00 00 00 00 B1
 1.961966 1  251             Rx   d 8 00 00 00 00 00 00 00 00
 1.963994 1  252             Rx   d 8 00 00 00 01 00 00 00 00
 1.965970 1  253             Rx   d 8 00 00 00 00 00 00 00 00
 1.966245 1  221             Rx   d 8 00 00 00 00 00 00 00 00
 1.966459 1  311             Rx   d 8 00 00 14 53 00 00 0E F5
 1.967997 1  254             Rx   d 8 00 00 00 02 00 00 00 00
 1.970026 1  241             Rx   d 8 AA 00 00 00 00 00 00 B2
 1.980974 1  261             Rx   d 8 01 20 00 19 1E 00 00 00
 1.981967 1  251             Rx   d 8 00 00 00 00 00 00 00 00
 1.983996 1  252             Rx   d 8 00 00 00 01 00 00 00 00
 1.985994 1  253             Rx   d 8 00 00 00 00 00 00 00 00
 1.986234 1  221             Rx   d 8 00 00 00 00 00 00 00 00
 1.986485 1  311             Rx   d 8 00 00 14 53 00 00 0E F5
 1.987994 1  254             Rx   d 8 00 00 00 02 00 00 00 00
 1.990011 1  241             Rx   d 8 AA 00 00 00 00 00 00 B3
 1.992004 1  262             Rx   d 8 01 1F 00 19 1E 00 00 00
 2.002019 1  251             Rx   d 8 00 00 00 00 00 00 00 00
 2.003027 1  263             Rx   d 8 01 1F 00 19 1E 00 00 00
 2.004020 1  252             Rx   d 8 00 00 00 01 00 00 00 00
 2.006020 1  253             Rx   d 8 00 00 00 00 00 00 00 00
 2.006274 1  221             Rx   d 8 00 00 00 00 00 00 00 00
 2.006512 1  311             Rx   d 8 00 00 14 53 00 00 0E F5
 2.008049 1  254             Rx   d 8 00 00 00 02 00 00 00 00
 2.010073 1  241             Rx   d 8 AA 00 00 00 00 00 00 B4
 2.014078 1  264             Rx   d 8 01 1E 00 19 1E 00 00 00
 2.022053 1  251             Rx   d 8 00 00 00 00 00 00 00 00
 2.024021 1  252             Rx   d 8 00 00 00 01 00 00 00 00
 2.026052 1  253             Rx   d 8 00 00 00 00 00 00 00 00
 2.026293 1  221             Rx   d 8 00 00 00 00 00 00 00 00
 2.026513 1  311             Rx   d 8 00 00 14 53 00 00 0E F5
 2.028039 1  254             Rx   d 8 00 00 00 02 00 00 00 00
 2.030046 1  241             Rx   d 8 AA 00 00 00 00 00 00 B5
 2.042074 1  251             Rx   d 8 00 00 00 00 00 00 00 00
 2.044057 1  252             Rx   d 8 00 00 00 01 00 00 00 00
 2.046077 1  253             Rx   d 8 00 00 00 00 00 00 00 00
 2.046321 1  221             Rx   d 8 00 00 00 00 00 00 00 00
 2.046542 1  311             Rx   d 8 00 00 14 53 00 00 0E F5
 2.048075 1  254             Rx   d 8 00 00 00 02 00 00 00 00
 2.050148 1  241             Rx   d 8 AA 00 00 00 00 00 00 B6
 2.062120 1  251             Rx   d 8 00 00 00 00 00 00 00 00
 2.064077 1  252             Rx   d 8 00 00 00 01 00 00 00 00
 2.066078 1  253             Rx   d 8 00 00 00 00 00 00 00 00
 2.066355 1  221             Rx   d 8 00 00 00 00 00 00 00 00
 2.066567 1  311             Rx   d 8 00 00 14 53 00 00 0E F5
 2.068100 1  254             Rx   d 8 00 00 00 02 00 00 00 00
 2.070124 1  241             Rx   d 8 AA 00 00 00 00 00 00 B7
 2.081102 1  261             Rx   d 8 01 20 00 19 1E 00 00 00
 2.082102 1  251             Rx   d 8 00 00 00 00 00 00 00 00
 2.084102 1  252             Rx   d 8 00 00 00 01 00 00 00 00
 2.086103 1  253             Rx   d 8 00 00 00 00 00 00 00 00
 2.086359 1  221             Rx   d 8 00 00 00 00 00 00 00 00
 2.086592 1  311             Rx   d 8 00 00 14 53 00 00 0E F5
 2.088101 1  254             Rx   d 8 00 00 00 02 00 00 00 00
 2.090164 1  241             Rx   d 8 AA 00 00 00 00 00 00 B8
 2.092067 1  262             Rx   d 8 01 1F 00 19 1E 00 00 00
 2.100155 1  211             Rx   d 8 00 01 01 15 00 00 00 00
 2.102128 1  251             Rx   d 8 00 00 00 00 00 00 00 00
 2.103120 1  263             Rx   d 8 01 1F 00 19 1E 00 00 00
 2.104086 1  252             Rx   d 8 00 00 00 01 00 00 00 00
 2.106200 1  221             Rx   d 8 00 00 00 00 00 00 00 00
 2.106398 1  311             Rx   d 8 00 00 14 53 00 00 0E F5
 2.106635 1  253             Rx   d 8 00 00 00 00 00 00 00 00
 2.108126 1  254             Rx   d 8 00 00 00 02 00 00 00 00
 2.110201 1  241             Rx   d 8 AA 00 00 00 00 00 00 B9
 2.114126 1  264             Rx   d 8 01 1E 00 19 1E 00 00 00
 2.122201 1  251             Rx   d 8 00 00 00 00 00 00 00 00
 2.124254 1  252             Rx   d 8 00 00 00 01 00 00 00 00
 2.126165 1  221             Rx   d 8 00 00 00 00 00 00 00 00
 2.126363 1  311             Rx   d 8 00 00 14 53 00 00 0E F5
 2.126647 1  253             Rx   d 8 00 00 00 00 00 00 00 00
 2.128204 1  254             Rx   d 8 00 00 00 02 00 00 00 00
 2.130257 1  241             Rx   d 8 AA 00 00 00 00 00 00 BA
 2.142168 1  251             Rx   d 8 00 00 00 00 00 00 00 00
 2.144252 1  252             Rx   d 8 00 00 00 01 00 00 00 00
 2.146254 1  221             Rx   d 8 00 00 00 00 00 00 00 00
 2.146375 1  311             Rx   d 8 00 00 14 53 00 00 0E F5
 2.146642 1  253             Rx   d 8 00 00 00 00 00 00 00 00
 2.148203 1  254             Rx   d 8 00 00 00 02 00 00 00 00
 2.150219 1  241             Rx   d 8 AA 00 00 00 00 00 00 BB
 2.162257 1  251             Rx   d 8 00 00 00 00 00 00 00 00
 2.164198 1  252             Rx   d 8 00 00 00 01 00 00 00 00
 2.166196 1  221             Rx   d 8 00 00 00 00 00 00 00 00
 2.166398 1  311             Rx   d 8 00 00 14 53 00 00 0E F5
 2.166650 1  253             Rx   d 8 00 00 00 00 00 00 00 00
 2.168197 1  254             Rx   d 8 00 00 00 02 00 00 00 00
 2.170247 1  241             Rx   d 8 AA 00 00 00 00 00 00 BC
 2.181200 1  261             Rx   d 8 01 1F 00 19 1E 00 00 00
 2.182209 1  251             Rx   d 8 00 00 00 00 00 00 00 00
 2.184200 1  252             Rx   d 8 00 00 00 01 00 00 00 00
 2.186198 1  221             Rx   d 8 00 00 00 00 00 00 00 00
 2.186396 1  311             Rx   d 8 00 00 14 53 00 00 0E F5
 2.186645 1  253             Rx   d 8 00 00 00 00 00 00 00 00
 2.188199 1  254             Rx   d 8 00 00 00 02 00 00 00 00
 2.190169 1  241             Rx   d 8 AA 00 00 00 00 00 00 BD
 2.192200 1  262             Rx   d 8 01 1E 00 19 1E 00 00 00
 2.202228 1  251             Rx   d 8 00 00 00 00 00 00 00 00
 2.203232 1  263             Rx   d 8 01 1F 00 19 1E 00 00 00
 2.204226 1  252             Rx   d 8 00 00 00 01 00 00 00 00
 2.206184 1  221             Rx   d 8 00 00 00 00 00 00 00 00
 2.206399 1  311             Rx   d 8 00 00 14 53 00 00 0E F5
 2.206615 1  253             Rx   d 8 00 00 00 00 00 00 00 00
 2.208229 1  254             Rx   d 8 00 00 00 02 00 00 00 00
 2.210274 1  241             Rx   d 8 AA 00 00 00 00 00 00 BE
 2.214230 1  264             Rx   d 8 01 1E 00 19 1E 00 00 00
 2.222255 1  251             Rx   d 8 00 00 00 00 00 00 00 00
 2.224255 1  252             Rx   d 8 00 00 00 01 00 00 00 00
 2.226206 1  221             Rx   d 8 00 00 00 00 00 00 00 00
 2.226396 1  311             Rx   d 8 00 00 14 53 00 00 0E F5
 2.226614 1  253             Rx   d 8 00 00 00 00 00 00 00 00
 2.228252 1  254             Rx   d 8 00 00 00 02 00 00 00 00
 2.230251 1  241             Rx   d 8 AA 00 00 00 00 00 00 BF
 2.242278 1  251             Rx   d 8 00 00 00 00 00 00 00 00
 2.244278 1  252             Rx   d 8 00 00 00 01 00 00 00 00
 2.246201 1  221             Rx   d 8 00 00 00 00 00 00 00 00
 2.246400 1  311             Rx   d 8 00 00 14 53 00 00 0E F5
 2.246635 1  253             Rx   d 8 00 00 00 00 00 00 00 00
 2.248278 1  254             Rx   d 8 00 00 00 02 00 00 00 00
 2.250335 1  241             Rx   d 8 AA 00 00 00 00 00 00 C0
 2.262282 1  251             Rx   d 8 00 00 00 00 00 00 00 00
 2.264284 1  252             Rx   d 8 00 00 00 01 00 00 00 00
 2.266201 1  221             Rx   d 8 00 00 00 00 00 00 00 00
 2.266395 1  311             Rx   d 8 00 00 14 53 00 00 0E F5
 2.266640 1  253             Rx   d 8 00 00 00 00 00 00 00 00
 2.268301 1  254             Rx   d 8 00 00 00 02 00 00 00 00
 2.270357 1  241             Rx   d 8 AA 00 00 00 00 00 00 C1
 2.281309 1  261             Rx   d 8 01 1F 00 19 1E 00 00 00
 2.282307 1  251             Rx   d 8 00 00 00 00 00 00 00 00
 2.284308 1  252             Rx   d 8 00 00 00 01 00 00 00 00
 2.286208 1  221             Rx   d 8 00 00 00 00 00 00 00 00
 2.286405 1  311             Rx   d 8 00 00 14 53 00 00 0E F5
 2.286644 1  253             Rx   d 8 00 00 00 00 00 00 00 00
 2.288302 1  254             Rx   d 8 00 00 00 02 00 00 00 00
 2.290322 1  241             Rx   d 8 AA 00 00 00 00 00 00 C2
 2.292304 1  262             Rx   d 8 01 1E 00 19 1E 00 00 00
 2.300383 1  211             Rx   d 8 00 01 01 14 00 00 00 00
 2.302335 1  251             Rx   d 8 00 00 00 00 00 00 00 00
 2.303335 1  263             Rx   d 8 01 1F 00 19 1E 00 00 00
 2.304331 1  252             Rx   d 8 00 00 00 01 00 00 00 00
 2.306202 1  221             Rx   d 8 00 00 00 00 00 00 00 00
 2.306401 1  311             Rx   d 8 00 00 14 53 00 00 0E F5
 2.306619 1  253             Rx   d 8 00 00 00 00 00 00 00 00
 2.308300 1  254             Rx   d 8 00 00 00 02 00 00 00 00
 2.310379 1  241             Rx   d 8 AA 00 00 00 00 00 00 C3
 2.314332 1  264             Rx   d 8 01 1E 00 19 1E 00 00 00
 2.320384 1  231             Rx   d 8 00 00 00 02 1B 00 00 00
 2.322352 1  251             Rx   d 8 00 00 00 00 00 00 00 00
 2.324345 1  252             Rx   d 8 00 00 00 01 00 00 00 00
 2.326221 1  221             Rx   d 8 00 00 00 00 00 00 00 00
 2.326404 1  311             Rx   d 8 00 00 14 53 00 00 0E F5
 2.326672 1  253             Rx   d 8 00 00 00 00 00 00 00 00
 2.328359 1  254             Rx   d 8 00 00 00 02 00 00 00 00
 2.330405 1  241             Rx   d 8 AA 00 00 00 00 00 00 C4
 2.342359 1  251             Rx   d 8 00 00 00 00 00 00 00 00
 2.344394 1  252             Rx   d 8 00 00 00 01 00 00 00 00
 2.346204 1  221             Rx   d 8 00 00 00 00 00 00 00 00
 2.346426 1  311             Rx   d 8 00 00 14 53 00 00 0E F5
 2.346680 1  253             Rx   d 8 00 00 00 00 00 00 00 00
 2.348398 1  254             Rx   d 8 00 00 00 02 00 00 00 00
 2.350434 1  241             Rx   d 8 AA 00 00 00 00 00 00 C5
 2.362413 1  251             Rx   d 8 00 00 00 00 00 00 00 00
 2.364409 1  252             Rx   d 8 00 00 00 01 00 00 00 00
 2.366205 1  221             Rx   d 8 00 00 00 00 00 00 00 00
 2.366453 1  311             Rx   d 8 00 00 14 53 00 00 0E F5
 2.366677 1  253             Rx   d 8 00 00 00 00 00 00 00 00
 2.368380 1  254             Rx   d 8 00 00 00 02 00 00 00 00
 2.370455 1  241             Rx   d 8 AA 00 00 00 00 00 00 C6
 2.381380 1  261             Rx   d 8 01 20 00 19 1E 00 00 00
 2.382413 1  251             Rx   d 8 00 00 00 00 00 00 00 00
 2.384413 1  252             Rx   d 8 00 00 00 01 00 00 00 00
 2.386205 1  221             Rx   d 8 00 00 00 00 00 00 00 00
 2.386431 1  311             Rx   d 8 00 00 14 53 00 00 0E F5
 2.386685 1  253             Rx   d 8 00 00 00 00 00 00 00 00
 2.388430 1  254             Rx   d 8 00 00 00 02 00 00 00 00
 2.390424 1  241             Rx   d 8 AA 00 00 00 00 00 00 C7
 2.392412 1  262             Rx   d 8 01 1E 00 19 1E 00 00 00
 2.402440 1  251             Rx   d 8 00 00 00 00 00 00 00 00
 2.403437 1  263             Rx   d 8 01 1F 00 19 1E 00 00 00
 2.404441 1  252             Rx   d 8 00 00 00 01 00 00 00 00
 2.406207 1  221             Rx   d 8 00 00 00 00 00 00 00 00
 2.406435 1  311             Rx   d 8 00 00 14 53 00 00 0E F5
 2.406671 1  253             Rx   d 8 00 00 00 00 00 00 00 00
 2.408446 1  254             Rx   d 8 00 00 00 02 00 00 00 00
 2.410437 1  241             Rx   d 8 AA 00 00 00 00 00 00 C8
 2.414436 1  264             Rx   d 8 01 1E 00 19 1E 00 00 00
 2.422453 1  251             Rx   d 8 00 00 00 00 00 00 00 00
 2.424458 1  252             Rx   d 8 00 00 00 01 00 00 00 00
 2.426207 1  221             Rx   d 8 00 00 00 00 00 00 00 00
 2.426430 1  311             Rx   d 8 00 00 14 53 00 00 0E F5
 2.426644 1  253             Rx   d 8 00 00 00 00 00 00 00 00
 2.428444 1  254             Rx   d 8 00 00 00 02 00 00 00 00
 2.430455 1  241             Rx   d 8 AA 00 00 00 00 00 00 C9
 2.442460 1  251             Rx   d 8 00 00 00 00 00 00 00 00
 2.444455 1  252             Rx   d 8 00 00 00 01 00 00 00 00
 2.446244 1  221             Rx   d 8 00 00 00 00 00 00 00 00
 2.446405 1  311             Rx   d 8 00 00 14 53 00 00 0E F5
 2.446646 1  253             Rx   d 8 00 00 00 00 00 00 00 00
 2.448486 1  254             Rx   d 8 00 00 00 02 00 00 00 00
 2.450521 1  241             Rx   d 8 AA 00 00 00 00 00 00 CA
 2.462455 1  251             Rx   d 8 00 00 00 00 00 00 00 00
 2.464483 1  252             Rx   d 8 00 00 00 01 00 00 00 00
 2.466211 1  221             Rx   d 8 00 00 00 00 00 00 00 00
 2.466424 1  311             Rx   d 8 00 00 14 53 00 00 0E F5
 2.466647 1  253             Rx   d 8 00 00 00 00 00 00 00 00
 2.468510 1  254             Rx   d 8 00 00 00 02 00 00 00 00
 2.470553 1  241             Rx   d 8 AA 00 00 00 00 00 00 CB
 2.481521 1  261             Rx   d 8 01 1F 00 19 1E 00 00 00
 2.482509 1  251             Rx   d 8 00 00 00 00 00 00 00 00
 2.484480 1  252             Rx   d 8 00 00 00 01 00 00 00 00
 2.486215 1  221             Rx   d 8 00 00 00 00 00 00 00 00
 2.486436 1  311             Rx   d 8 00 00 14 53 00 00 0E F5
 2.486681 1  253             Rx   d 8 00 00 00 00 00 00 00 00
 2.488539 1  254             Rx   d 8 00 00 00 02 00 00 00 00
 2.490530 1  241             Rx   d 8 AA 00 00 00 00 00 00 CC
 2.492506 1  262             Rx   d 8 01 1E 00 19 1E 00 00 00
 2.500588 1  211             Rx   d 8 00 01 01 14 00 00 00 00
 2.502532 1  251             Rx   d 8 00 00 00 00 00 00 00 00
 2.503532 1  263             Rx   d 8 01 1F 00 19 1E 00 00 00
 2.504534 1  252             Rx   d 8 00 00 00 01 00 00 00 00
 2.506209 1  221             Rx   d 8 00 00 00 00 00 00 00 00
 2.506425 1  311             Rx   d 8 00 00 14 53 00 00 0E F5
 2.506648 1  253             Rx   d 8 00 00 00 00 00 00 00 00
 2.508540 1  254             Rx   d 8 00 00 00 02 00 00 00 00
 2.510528 1  241             Rx   d 8 AA 00 00 00 00 00 00 CD
 2.514538 1  264             Rx   d 8 01 1D 00 19 1E 00 00 00
 2.522562 1  251             Rx   d 8 00 00 00 00 00 00 00 00
 2.524545 1  252             Rx   d 8 00 00 00 01 00 00 00 00
 2.526227 1  221             Rx   d 8 00 00 00 00 00 00 00 00
 2.526428 1  311             Rx   d 8 00 00 14 53 00 00 0E F5
 2.526694 1  253             Rx   d 8 00 00 00 00 00 00 00 00
 2.528556 1  254             Rx   d 8 00 00 00 02 00 00 00 00
 2.530585 1  241             Rx   d 8 AA 00 00 00 00 00 00 CE
 2.542569 1  251             Rx   d 8 00 00 00 00 00 00 00 00
 2.544570 1  252             Rx   d 8 00 00 00 01 00 00 00 00
 2.546211 1  221             Rx   d 8 00 00 00 00 00 00 00 00
 2.546440 1  311             Rx   d 8 00 00 14 53 00 00 0E F5
 2.546684 1  253             Rx   d 8 00 00 00 00 00 00 00 00
 2.548591 1  254             Rx   d 8 00 00 00 02 00 00 00 00
 2.550617 1  241             Rx   d 8 AA 00 00 00 00 00 00 CF
 2.562572 1  251             Rx   d 8 00 00 00 00 00 00 00 00
 2.564562 1  252             Rx   d 8 00 00 00 01 00 00 00 00
 2.566216 1  221             Rx   d 8 00 00 00 00 00 00 00 00
 2.566443 1  311             Rx   d 8 00 00 14 53 00 00 0E F5
 2.566653 1  253             Rx   d 8 00 00 00 00 00 00 00 00
 2.568588 1  254             Rx   d 8 00 00 00 02 00 00 00 00
 2.570615 1  241             Rx   d 8 AA 00 00 00 00 00 00 D0
 2.581616 1  261             Rx   d 8 01 1F 00 19 1E 00 00 00
 2.582613 1  251             Rx   d 8 00 00 00 00 00 00 00 00
 2.584611 1  252             Rx   d 8 00 00 00 01 00 00 00 00
 2.586212 1  221             Rx   d 8 00 00 00 00 00 00 00 00
 2.586435 1  311             Rx   d 8 00 00 14 53 00 00 0E F5
 2.586714 1  253             Rx   d 8 00 00 00 00 00 00 00 00
 2.588614 1  254             Rx   d 8 00 00 00 02 00 00 00 00
 2.590638 1  241             Rx   d 8 AA 00 00 00 00 00 00 D1
 2.592619 1  262             Rx   d 8 01 1E 00 19 1E 00 00 00
 2.602646 1  251             Rx   d 8 00 00 00 00 00 00 00 00
 2.603650 1  263             Rx   d 8 01 1F 00 19 1E 00 00 00
 2.604645 1  252             Rx   d 8 00 00 00 01 00 00 00 00
 2.606218 1  221             Rx   d 8 00 00 00 00 00 00 00 00
 2.606441 1  311             Rx   d 8 00 00 14 53 00 00 0E F5
 2.606712 1  253             Rx   d 8 00 00 00 00 00 00 00 00
 2.608645 1  254             Rx   d 8 00 00 00 02 00 00 00 00
 2.610708 1  241             Rx   d 8 AA 00 00 00 00 00 00 D2
 2.614645 1  264             Rx   d 8 01 1D 00 19 1E 00 00 00
 2.622675 1  251             Rx   d 8 00 00 00 00 00 00 00 00
 2.624664 1  252             Rx   d 8 00 00 00 01 00 00 00 00
 2.626213 1  221             Rx   d 8 00 00 00 00 00 00 00 00
 2.626465 1  311             Rx   d 8 00 00 14 53 00 00 0E F5
 2.626713 1  253             Rx   d 8 00 00 00 00 00 00 00 00
 2.628663 1  254             Rx   d 8 00 00 00 02 00 00 00 00
 2.630668 1  241             Rx   d 8 AA 00 00 00 00 00 00 D3
 2.642670 1  251             Rx   d 8 00 00 00 00 00 00 00 00
 2.644667 1  252             Rx   d 8 00 00 00 01 00 00 00 00
 2.646219 1  221             Rx   d 8 00 00 00 00 00 00 00 00
 2.646464 1  311             Rx   d 8 00 00 14 53 00 00 0E F5
 2.646707 1  253             Rx   d 8 00 00 00 00 00 00 00 00
 2.648694 1  254             Rx   d 8 00 00 00 02 00 00 00 00
 2.650684 1  241             Rx   d 8 AA 00 00 00 00 00 00 D4
 2.662704 1  251             Rx   d 8 00 00 00 00 00 00 00 00
 2.664704 1  252             Rx   d 8 00 00 00 01 00 00 00 00
 2.666219 1  221             Rx   d 8 00 00 00 00 00 00 00 00
 2.666462 1  311             Rx   d 8 00 00 14 53 00 00 0E F5
 2.666681 1  253             Rx   d 8 00 00 00 00 00 00 00 00
 2.668722 1  254             Rx   d 8 00 00 00 02 00 00 00 00
 2.670747 1  241             Rx   d 8 AA 00 00 00 00 00 00 D5
 2.681697 1  261             Rx   d 8 01 1F 00 19 1E 00 00 00
 2.682723 1  251             Rx   d 8 00 00 00 00 00 00 00 00
 2.684718 1  252             Rx   d 8 00 00 00 01 00 00 00 00
 2.686216 1  221             Rx   d 8 00 00 00 00 00 00 00 00
 2.686467 1  311             Rx   d 8 00 00 14 53 00 00 0E F5
 2.686732 1  253             Rx   d 8 00 00 00 00 00 00 00 00
 2.688718 1  254             Rx   d 8 00 00 00 02 00 00 00 00
 2.690739 1  241             Rx   d 8 AA 00 00 00 00 00 00 D6
 2.692717 1  262             Rx   d 8 01 1E 00 19 1E 00 00 00
 2.700790 1  211             Rx   d 8 00 01 01 15 00 00 00 00
 2.702836 1  251             Rx   d 8 00 00 00 00 00 00 00 00
 2.703724 1  263             Rx   d 8 01 1F 00 19 1E 00 00 00
 2.704746 1  252             Rx   d 8 00 00 00 01 00 00 00 00
 2.706228 1  221             Rx   d 8 00 00 00 00 00 00 00 00
 2.706465 1  311             Rx   d 8 00 00 14 53 00 00 0E F5
 2.706728 1  253             Rx   d 8 00 00 00 00 00 00 00 00
 2.708749 1  254             Rx   d 8 00 00 00 02 00 00 00 00
 2.710798 1  241             Rx   d 8 AA 00 00 00 00 00 00 D7
 2.714749 1  264             Rx   d 8 01 1E 00 19 1E 00 00 00
 2.722786 1  251             Rx   d 8 00 00 00 00 00 00 00 00
 2.724771 1  252             Rx   d 8 00 00 00 01 00 00 00 00
 2.726222 1  221             Rx   d 8 00 00 00 00 00 00 00 00
 2.726442 1  311             Rx   d 8 00 00 14 53 00 00 0E F5
 2.726734 1  253             Rx   d 8 00 00 00 00 00 00 00 00
 2.728771 1  254             Rx   d 8 00 00 00 02 00 00 00 00
 2.730798 1  241             Rx   d 8 AA 00 00 00 00 00 00 D8
 2.742809 1  251             Rx   d 8 00 00 00 00 00 00 00 00
 2.744804 1  252             Rx   d 8 00 00 00 01 00 00 00 00
 2.746244 1  221             Rx   d 8 00 00 00 00 00 00 00 00
 2.746449 1  311             Rx   d 8 00 00 14 53 00 00 0E F5
 2.746788 1  253             Rx   d 8 00 00 00 00 00 00 00 00
 2.748796 1  254             Rx   d 8 00 00 00 02 00 00 00 00
 2.750851 1  241             Rx   d 8 AA 00 00 00 00 00 00 D9
 2.762801 1  251             Rx   d 8 00 00 00 00 00 00 00 00
 2.764824 1  252             Rx   d 8 00 00 00 01 00 00 00 00
 2.766249 1  221             Rx   d 8 00 00 00 00 00 00 00 00
 2.766468 1  311             Rx   d 8 00 00 14 53 00 00 0E F5
 2.766798 1  253             Rx   d 8 00 00 00 00 00 00 00 00
 2.768786 1  254             Rx   d 8 00 00 00 02 00 00 00 00
 2.770811 1  241             Rx   d 8 AA 00 00 00 00 00 00 DA
 2.781821 1  261             Rx   d 8 01 1F 00 19 1E 00 00 00
 2.782790 1  251             Rx   d 8 00 00 00 00 00 00 00 00
 2.784787 1  252             Rx   d 8 00 00 00 01 00 00 00 00
 2.786211 1  221             Rx   d 8 00 00 00 00 00 00 00 00
 2.786437 1  311             Rx   d 8 00 00 14 53 00 00 0E F5
 2.786786 1  253             Rx   d 8 00 00 00 00 00 00 00 00
 2.788789 1  254             Rx   d 8 00 00 00 02 00 00 00 00
 2.790838 1  241             Rx   d 8 AA 00 00 00 00 00 00 DB
 2.792790 1  262             Rx   d 8 01 1E 00 19 1E 00 00 00
 2.802820 1  251             Rx   d 8 00 00 00 00 00 00 00 00
 2.803790 1  263             Rx   d 8 01 1F 00 19 1E 00 00 00
 2.804815 1  252             Rx   d 8 00 00 00 01 00 00 00 00
 2.806215 1  221             Rx   d 8 00 00 00 00 00 00 00 00
 2.806436 1  311             Rx   d 8 00 00 14 53 00 00 0E F5
 2.806808 1  253             Rx   d 8 00 00 00 00 00 00 00 00
 2.808812 1  254             Rx   d 8 00 00 00 02 00 00 00 00
 2.810864 1  241             Rx   d 8 AA 00 00 00 00 00 00 DC
 2.814816 1  264             Rx   d 8 01 1E 00 19 1E 00 00 00
 2.820889 1  231             Rx   d 8 00 00 00 02 2F 00 00 00
 2.822839 1  251             Rx   d 8 00 00 00 00 00 00 00 00
 2.824840 1  252             Rx   d 8 00 00 00 01 00 00 00 00
 2.826213 1  221             Rx   d 8 00 00 00 00 00 00 00 00
 2.826461 1  311             Rx   d 8 00 00 14 53 00 00 0E F5
 2.826835 1  253             Rx   d 8 00 00 00 00 00 00 00 00
 2.828839 1  254             Rx   d 8 00 00 00 02 00 00 00 00
 2.830891 1  241             Rx   d 8 AA 00 00 00 00 00 00 DD
 2.842874 1  251             Rx   d 8 00 00 00 00 00 00 00 00
 2.844898 1  252             Rx   d 8 00 00 00 01 00 00 00 00
 2.846247 1  221             Rx   d 8 00 00 00 00 00 00 00 00
 2.846478 1  311             Rx   d 8 00 00 14 53 00 00 0E F5
 2.846906 1  253             Rx   d 8 00 00 00 00 00 00 00 00
 2.848905 1  254             Rx   d 8 00 00 00 02 00 00 00 00
 2.850897 1  241             Rx   d 8 AA 00 00 00 00 00 00 DE
 2.862867 1  251             Rx   d 8 00 00 00 00 00 00 00 00
 2.864889 1  252             Rx   d 8 00 00 00 01 00 00 00 00
 2.866215 1  221             Rx   d 8 00 00 00 00 00 00 00 00
 2.866463 1  311             Rx   d 8 00 00 14 53 00 00 0E F5
 2.866887 1  253             Rx   d 8 00 00 00 00 00 00 00 00
 2.868866 1  254             Rx   d 8 00 00 00 02 00 00 00 00
 2.870917 1  241             Rx   d 8 AA 00 00 00 00 00 00 DF
 2.881895 1  261             Rx   d 8 01 1F 00 19 1E 00 00 00
 2.882893 1  251             Rx   d 8 00 00 00 00 00 00 00 00
 2.884891 1  252             Rx   d 8 00 00 00 01 00 00 00 00
 2.886216 1  221             Rx   d 8 00 00 00 00 00 00 00 00
 2.886464 1  311             Rx   d 8 00 00 14 53 00 00 0E F5
 2.886889 1  253             Rx   d 8 00 00 00 00 00 00 00 00
 2.888893 1  254             Rx   d 8 00 00 00 02 00 00 00 00
 2.890944 1  241             Rx   d 8 AA 00 00 00 00 00 00 E0
 2.892894 1  262             Rx   d 8 01 1E 00 19 1E 00 00 00
 2.901001 1  211             Rx   d 8 00 01 01 15 00 00 00 00
 2.902962 1  251             Rx   d 8 00 00 00 00 00 00 00 00
 2.903963 1  263             Rx   d 8 01 1F 00 19 1E 00 00 00
 2.904959 1  252             Rx   d 8 00 00 00 01 00 00 00 00
 2.906250 1  221             Rx   d 8 00 00 00 00 00 00 00 00
 2.906498 1  311             Rx   d 8 00 00 14 53 00 00 0E F5
 2.906949 1  253             Rx   d 8 00 00 00 00 00 00 00 00
 2.908954 1  254             Rx   d 8 00 00 00 02 00 00 00 00
 2.911005 1  241             Rx   d 8 AA 00 00 00 00 00 00 E1
 2.914919 1  264             Rx   d 8 01 1D 00 19 1E 00 00 00
 2.922975 1  251             Rx   d 8 00 00 00 00 00 00 00 00
 2.924970 1  252             Rx   d 8 00 00 00 01 00 00 00 00
 2.926249 1  221             Rx   d 8 00 00 00 00 00 00 00 00
 2.926493 1  311             Rx   d 8 00 00 14 53 00 00 0E F5
 2.926939 1  253             Rx   d 8 00 00 00 00 00 00 00 00
 2.928942 1  254             Rx   d 8 00 00 00 02 00 00 00 00
 2.930996 1  241             Rx   d 8 AA 00 00 00 00 00 00 E2
 2.942946 1  251             Rx   d 8 00 00 00 00 00 00 00 00
 2.944945 1  252             Rx   d 8 00 00 00 01 00 00 00 00
 2.946234 1  221             Rx   d 8 00 00 00 00 00 00 00 00
 2.946467 1  311             Rx   d 8 00 00 14 53 00 00 0E F5
 2.946966 1  253             Rx   d 8 00 00 00 00 00 00 00 00
 2.948968 1  254             Rx   d 8 00 00 00 02 00 00 00 00
 2.951020 1  241             Rx   d 8 AA 00 00 00 00 00 00 E3
 2.962971 1  251             Rx   d 8 00 00 00 00 00 00 00 00
 2.964971 1  252             Rx   d 8 00 00 00 01 00 00 00 00
 2.966244 1  221             Rx   d 8 00 00 00 00 00 00 00 00
 2.966467 1  311             Rx   d 8 00 00 14 53 00 00 0E F5
 2.966990 1  253             Rx   d 8 00 00 00 00 00 00 00 00
 2.968979 1  254             Rx   d 8 00 00 00 02 00 00 00 00
 2.971046 1  241             Rx   d 8 AA 00 00 00 00 00 00 E4
 2.982001 1  261             Rx   d 8 01 20 00 19 1E 00 00 00
 2.983000 1  251             Rx   d 8 00 00 00 00 00 00 00 00
 2.984999 1  252             Rx   d 8 00 00 00 01 00 00 00 00
 2.986235 1  221             Rx   d 8 00 00 00 00 00 00 00 00
 2.986474 1  311             Rx   d 8 00 00 14 53 00 00 0E F5
 2.986994 1  253             Rx   d 8 00 00 00 00 00 00 00 00
 2.988996 1  254             Rx   d 8 00 00 00 02 00 00 00 00
 2.990998 1  241             Rx   d 8 AA 00 00 00 00 00 00 E5
 2.992996 1  262             Rx   d 8 01 1E 00 19 1E 00 00 00
 3.003023 1  251             Rx   d 8 00 00 00 00 00 00 00 00
 3.004021 1  263             Rx   d 8 01 1F 00 19 1E 00 00 00
 3.005022 1  252             Rx   d 8 00 00 00 01 00 00 00 00
 3.006219 1  221             Rx   d 8 00 00 00 00 00 00 00 00
 3.006468 1  311             Rx   d 8 00 00 14 53 00 00 0E F5
 3.007016 1  253             Rx   d 8 00 00 00 00 00 00 00 00
 3.009021 1  254             Rx   d 8 00 00 00 02 00 00 00 00
 3.011046 1  241             Rx   d 8 AA 00 00 00 00 00 00 E6
 3.015021 1  264             Rx   d 8 01 1D 00 19 1E 00 00 00
 3.023096 1  251             Rx   d 8 00 00 00 00 00 00 00 00
 3.025067 1  252             Rx   d 8 00 00 00 01 00 00 00 00
 3.026226 1  221             Rx   d 8 00 00 00 00 00 00 00 00
 3.026472 1  311             Rx   d 8 00 00 14 53 00 00 0E F5
 3.027045 1  253             Rx   d 8 00 00 00 00 00 00 00 00
 3.029047 1  254             Rx   d 8 00 00 00 02 00 00 00 00
 3.031097 1  241             Rx   d 8 AA 00 00 00 00 00 00 E7
 3.043086 1  251             Rx   d 8 00 00 00 00 00 00 00 00
 3.045070 1  252             Rx   d 8 00 00 00 01 00 00 00 00
 3.046247 1  221             Rx   d 8 00 00 00 00 00 00 00 00
 3.046470 1  311             Rx   d 8 00 00 14 53 00 00 0E F5
 3.047103 1  253             Rx   d 8 00 00 00 00 00 00 00 00
 3.049072 1  254             Rx   d 8 00 00 00 02 00 00 00 00
 3.051099 1  241             Rx   d 8 AA 00 00 00 00 00 00 E8
 3.063106 1  251             Rx   d 8 00 00 00 00 00 00 00 00
 3.065104 1  252             Rx   d 8 00 00 00 01 00 00 00 00
 3.066289 1  221             Rx   d 8 00 00 00 00 00 00 00 00
 3.066495 1  311             Rx   d 8 00 00 14 53 00 00 0E F5
 3.067127 1  253             Rx   d 8 00 00 00 00 00 00 00 00
 3.069105 1  254             Rx   d 8 00 00 00 02 00 00 00 00
 3.071130 1  241             Rx   d 8 AA 00 00 00 00 00 00 E9
 3.082099 1  261             Rx   d 8 01 1F 00 19 1E 00 00 00
 3.083101 1  251             Rx   d 8 00 00 00 00 00 00 00 00
 3.085101 1  252             Rx   d 8 00 00 00 01 00 00 00 00
 3.086248 1  221             Rx   d 8 00 00 00 00 00 00 00 00
 3.086497 1  311             Rx   d 8 00 00 14 53 00 00 0E F5
 3.087096 1  253             Rx   d 8 00 00 00 00 00 00 00 00
 3.089100 1  254             Rx   d 8 00 00 00 02 00 00 00 00
 3.091199 1  241             Rx   d 8 AA 00 00 00 00 00 00 EA
 3.093101 1  262             Rx   d 8 01 1E 00 19 1E 00 00 00
 3.101197 1  211             Rx   d 8 00 01 01 15 00 00 00 00
 3.103125 1  251             Rx   d 8 00 00 00 00 00 00 00 00
 3.104103 1  263             Rx   d 8 01 1F 00 19 1E 00 00 00
 3.105127 1  252             Rx   d 8 00 00 00 01 00 00 00 00
 3.106250 1  221             Rx   d 8 00 00 00 00 00 00 00 00
 3.106473 1  311             Rx   d 8 00 00 14 53 00 00 0E F5
 3.107122 1  253             Rx   d 8 00 00 00 00 00 00 00 00
 3.109126 1  254             Rx   d 8 00 00 00 02 00 00 00 00
 3.111199 1  241             Rx   d 8 AA 00 00 00 00 00 00 EB
 3.115127 1  264             Rx   d 8 01 1E 00 19 1E 00 00 00
 3.123198 1  251             Rx   d 8 00 00 00 00 00 00 00 00
 3.125149 1  252             Rx   d 8 00 00 00 01 00 00 00 00
 3.126250 1  221             Rx   d 8 00 00 00 00 00 00 00 00
 3.126497 1  311             Rx   d 8 00 00 14 53 00 00 0E F5
 3.127149 1  253             Rx   d 8 00 00 00 00 00 00 00 00
 3.129200 1  254             Rx   d 8 00 00 00 02 00 00 00 00
 3.131199 1  241             Rx   d 8 AA 00 00 00 00 00 00 EC
 3.143200 1  251             Rx   d 8 00 00 00 00 00 00 00 00
 3.145199 1  252             Rx   d 8 00 00 00 02 00 00 00 00
 3.146250 1  221             Rx   d 8 00 00 00 00 00 00 00 00
 3.146498 1  311             Rx   d 8 00 00 14 53 00 00 0E F5
 3.147200 1  253             Rx   d 8 00 00 00 00 00 00 00 00
 3.149204 1  254             Rx   d 8 00 00 00 02 00 00 00 00
 3.151200 1  241             Rx   d 8 AA 00 00 00 00 00 00 ED
 3.163202 1  251             Rx   d 8 00 00 00 00 00 00 00 00
 3.165201 1  252             Rx   d 8 00 00 00 02 00 00 00 00
 3.166250 1  221             Rx   d 8 00 00 00 00 00 00 00 00
 3.166501 1  311             Rx   d 8 00 00 14 53 00 00 0E F5
 3.167200 1  253             Rx   d 8 00 00 00 00 00 00 00 00
 3.169200 1  254             Rx   d 8 00 00 00 02 00 00 00 00
 3.171250 1  241             Rx   d 8 AA 00 00 00 00 00 00 EE
 3.182201 1  261             Rx   d 8 01 20 00 19 1E 00 00 00
 3.183201 1  251             Rx   d 8 00 00 00 00 00 00 00 00
 3.185202 1  252             Rx   d 8 00 00 00 01 00 00 00 00
 3.186250 1  221             Rx   d 8 00 00 00 00 00 00 00 00
 3.186500 1  311             Rx   d 8 00 00 14 53 00 00 0E F5
 3.187201 1  253             Rx   d 8 00 00 00 00 00 00 00 00
 3.189201 1  254             Rx   d 8 00 00 00 02 00 00 00 00
 3.191252 1  241             Rx   d 8 AA 00 00 00 00 00 00 EF
 3.193202 1  262             Rx   d 8 01 1E 00 19 1E 00 00 00
 3.203227 1  251             Rx   d 8 00 00 00 00 00 00 00 00
 3.204226 1  263             Rx   d 8 01 1F 00 19 1E 00 00 00
 3.205227 1  252             Rx   d 8 00 00 00 01 00 00 00 00
 3.206253 1  221             Rx   d 8 00 00 00 00 00 00 00 00
 3.206501 1  311             Rx   d 8 00 00 14 53 00 00 0E F5
 3.207227 1  253             Rx   d 8 00 00 00 00 00 00 00 00
 3.209227 1  254             Rx   d 8 00 00 00 02 00 00 00 00
 3.211277 1  241             Rx   d 8 AA 00 00 00 00 00 00 F0
 3.215228 1  264             Rx   d 8 01 1D 00 19 1E 00 00 00
 3.223253 1  251             Rx   d 8 00 00 00 00 00 00 00 00
 3.225254 1  252             Rx   d 8 00 00 00 01 00 00 00 00
 3.226277 1  221             Rx   d 8 00 00 00 00 00 00 00 00
 3.226526 1  311             Rx   d 8 00 00 14 53 00 00 0E F5
 3.227253 1  253             Rx   d 8 00 00 00 00 00 00 00 00
 3.229253 1  254             Rx   d 8 00 00 00 02 00 00 00 00
 3.231303 1  241             Rx   d 8 AA 00 00 00 00 00 00 F1
 3.243255 1  251             Rx   d 8 00 00 00 00 00 00 00 00
 3.245278 1  252             Rx   d 8 00 00 00 01 00 00 00 00
 3.246278 1  221             Rx   d 8 00 00 00 00 00 00 00 00
 3.246501 1  311             Rx   d 8 00 00 14 53 00 00 0E F5
 3.247254 1  253             Rx   d 8 00 00 00 00 00 00 00 00
 3.249280 1  254             Rx   d 8 00 00 00 02 00 00 00 00
 3.251328 1  241             Rx   d 8 AA 00 00 00 00 00 00 F2
 3.263279 1  251             Rx   d 8 00 00 00 00 00 00 00 00
 3.265279 1  252             Rx   d 8 00 00 00 01 00 00 00 00
 3.266254 1  221             Rx   d 8 00 00 00 00 00 00 00 00
 3.266503 1  311             Rx   d 8 00 00 14 53 00 00 0E F5
 3.267278 1  253             Rx   d 8 00 00 00 00 00 00 00 00
 3.269278 1  254             Rx   d 8 00 00 00 02 00 00 00 00
 3.271328 1  241             Rx   d 8 AA 00 00 00 00 00 00 F3
 3.282305 1  261             Rx   d 8 01 20 00 19 1E 00 00 00
 3.283305 1  251             Rx   d 8 00 00 00 00 00 00 00 00
 3.285306 1  252             Rx   d 8 00 00 00 01 00 00 00 00
 3.286255 1  221             Rx   d 8 00 00 00 00 00 00 00 00
 3.286504 1  311             Rx   d 8 00 00 14 53 00 00 0E F5
 3.287306 1  253             Rx   d 8 00 00 00 00 00 00 00 00
 3.289305 1  254             Rx   d 8 00 00 00 02 00 00 00 00
 3.291357 1  241             Rx   d 8 AA 00 00 00 00 00 00 F4
 3.293305 1  262             Rx   d 8 01 1E 00 19 1E 00 00 00
 3.301381 1  211             Rx   d 8 00 01 01 15 00 00 00 00
 3.303330 1  251             Rx   d 8 00 00 00 00 00 00 00 00
 3.304330 1  263             Rx   d 8 01 1F 00 19 1E 00 00 00
 3.305330 1  252             Rx   d 8 00 00 00 01 00 00 00 00
 3.306281 1  221             Rx   d 8 00 00 00 00 00 00 00 00
 3.306504 1  311             Rx   d 8 00 00 14 53 00 00 0E F5
 3.307354 1  253             Rx   d 8 00 00 00 00 00 00 00 00
 3.309330 1  254             Rx   d 8 00 00 00 02 00 00 00 00
 3.311381 1  241             Rx   d 8 AA 00 00 00 00 00 00 F5
 3.315366 1  264             Rx   d 8 01 1D 00 19 1E 00 00 00
 3.321416 1  231             Rx   d 8 00 00 00 02 43 00 00 00
 3.323390 1  251             Rx   d 8 00 00 00 00 00 00 00 00
 3.325395 1  252             Rx   d 8 00 00 00 01 00 00 00 00
 3.326320 1  221             Rx   d 8 00 00 00 00 00 00 00 00
 3.326541 1  311             Rx   d 8 00 00 14 53 00 00 0E F5
 3.327396 1  253             Rx   d 8 00 00 00 00 00 00 00 00
 3.329394 1  254             Rx   d 8 00 00 00 02 00 00 00 00
 3.331418 1  241             Rx   d 8 AA 00 00 00 00 00 00 F6
 3.343412 1  251             Rx   d 8 00 00 00 00 00 00 00 00
 3.345385 1  252             Rx   d 8 00 00 00 01 00 00 00 00
 3.346310 1  221             Rx   d 8 00 00 00 00 00 00 00 00
 3.346532 1  311             Rx   d 8 00 00 14 53 00 00 0E F5
 3.347411 1  253             Rx   d 8 00 00 00 00 00 00 00 00
 3.349411 1  254             Rx   d 8 00 00 00 02 00 00 00 00
 3.351459 1  241             Rx   d 8 AA 00 00 00 00 00 00 F7
 3.363389 1  251             Rx   d 8 00 00 00 00 00 00 00 00
 3.365416 1  252             Rx   d 8 00 00 00 01 00 00 00 00
 3.366314 1  221             Rx   d 8 00 00 00 00 00 00 00 00
 3.366539 1  311             Rx   d 8 00 00 14 53 00 00 0E F5
 3.367414 1  253             Rx   d 8 00 00 00 00 00 00 00 00
 3.369415 1  254             Rx   d 8 00 00 00 02 00 00 00 00
 3.371497 1  241             Rx   d 8 AA 00 00 00 00 00 00 F8
 3.382439 1  261             Rx   d 8 01 1F 00 19 1E 00 00 00
 3.383440 1  251             Rx   d 8 00 00 00 00 00 00 00 00
 3.385447 1  252             Rx   d 8 00 00 00 01 00 00 00 00
 3.386317 1  221             Rx   d 8 00 00 00 00 00 00 00 00
 3.386571 1  311             Rx   d 8 00 00 14 53 00 00 0E F5
 3.387408 1  253             Rx   d 8 00 00 00 00 00 00 00 00
 3.389409 1  254             Rx   d 8 00 00 00 02 00 00 00 00
 3.391410 1  241             Rx   d 8 AA 00 00 00 00 00 00 F9
 3.393440 1  262             Rx   d 8 01 1F 00 19 1E 00 00 00
 3.403463 1  251             Rx   d 8 00 00 00 00 00 00 00 00
 3.404437 1  263             Rx   d 8 01 1F 00 19 1E 00 00 00
 3.405470 1  252             Rx   d 8 00 00 00 01 00 00 00 00
 3.406312 1  221             Rx   d 8 00 00 00 00 00 00 00 00
 3.406561 1  311             Rx   d 8 00 00 14 53 00 00 0E F5
 3.407436 1  253             Rx   d 8 00 00 00 00 00 00 00 00
 3.409479 1  254             Rx   d 8 00 00 00 02 00 00 00 00
 3.411512 1  241             Rx   d 8 AA 00 00 00 00 00 00 FA
 3.415464 1  264             Rx   d 8 01 1D 00 19 1E 00 00 00
 3.423464 1  251             Rx   d 8 00 00 00 00 00 00 00 00
 3.425462 1  252             Rx   d 8 00 00 00 01 00 00 00 00
 3.426286 1  221             Rx   d 8 00 00 00 00 00 00 00 00
 3.426533 1  311             Rx   d 8 00 00 14 53 00 00 0E F5
 3.427459 1  253             Rx   d 8 00 00 00 00 00 00 00 00
 3.429482 1  254             Rx   d 8 00 00 00 02 00 00 00 00
 3.431523 1  241             Rx   d 8 AA 00 00 00 00 00 00 FB
 3.443491 1  251             Rx   d 8 00 00 00 00 00 00 00 00
 3.445513 1  252             Rx   d 8 00 00 00 01 00 00 00 00
 3.446314 1  221             Rx   d 8 00 00 00 00 00 00 00 00
 3.446562 1  311             Rx   d 8 00 00 14 53 00 00 0E F5
 3.447522 1  253             Rx   d 8 00 00 00 00 00 00 00 00
 3.449495 1  254             Rx   d 8 00 00 00 02 00 00 00 00
 3.451563 1  241             Rx   d 8 AA 00 00 00 00 00 00 FC
 3.463515 1  251             Rx   d 8 00 00 00 00 00 00 00 00
 3.465491 1  252             Rx   d 8 00 00 00 01 00 00 00 00
 3.466316 1  221             Rx   d 8 00 00 00 00 00 00 00 00
 3.466566 1  311             Rx   d 8 00 00 14 53 00 00 0E F5
 3.467493 1  253             Rx   d 8 00 00 00 00 00 00 00 00
 3.469517 1  254             Rx   d 8 00 00 00 02 00 00 00 00
 3.471602 1  241             Rx   d 8 AA 00 00 00 00 00 00 FD
 3.482544 1  261             Rx   d 8 01 20 00 19 1E 00 00 00
 3.483539 1  251             Rx   d 8 00 00 00 00 00 00 00 00
 3.485553 1  252             Rx   d 8 00 00 00 01 00 00 00 00
 3.486290 1  221             Rx   d 8 00 00 00 00 00 00 00 00
 3.486555 1  311             Rx   d 8 00 00 14 53 00 00 0E F5
 3.487514 1  253             Rx   d 8 00 00 00 00 00 00 00 00
 3.489543 1  254             Rx   d 8 00 00 00 02 00 00 00 00
 3.491591 1  241             Rx   d 8 AA 00 00 00 00 00 00 FE
 3.493541 1  262             Rx   d 8 01 1E 00 19 1E 00 00 00
 3.501600 1  211             Rx   d 8 00 01 01 15 00 00 00 00
 3.503567 1  251             Rx   d 8 00 00 00 00 00 00 00 00
 3.504543 1  263             Rx   d 8 01 1F 00 19 1E 00 00 00
 3.505567 1  252             Rx   d 8 00 00 00 01 00 00 00 00
 3.506316 1  221             Rx   d 8 00 00 00 00 00 00 00 00
 3.506566 1  311             Rx   d 8 00 00 14 53 00 00 0E F5
 3.507574 1  253             Rx   d 8 00 00 00 00 00 00 00 00
 3.509565 1  254             Rx   d 8 00 00 00 02 00 00 00 00
 3.511616 1  241             Rx   d 8 AA 00 00 00 00 00 00 FF
 3.515566 1  264             Rx   d 8 01 1D 00 19 1E 00 00 00
 3.523596 1  251             Rx   d 8 00 00 00 00 00 00 00 00
 3.525593 1  252             Rx   d 8 00 00 00 01 00 00 00 00
 3.526343 1  221             Rx   d 8 00 00 00 00 00 00 00 00
 3.526537 1  311             Rx   d 8 00 00 14 53 00 00 0E F5
 3.527591 1  253             Rx   d 8 00 00 00 00 00 00 00 00
 3.529568 1  254             Rx   d 8 00 00 00 02 00 00 00 00
 3.531618 1  241             Rx   d 8 AA 00 00 00 00 00 00 00
 3.543622 1  251             Rx   d 8 00 00 00 00 00 00 00 00
 3.545619 1  252             Rx   d 8 00 00 00 01 00 00 00 00
 3.546320 1  221             Rx   d 8 00 00 00 00 00 00 00 00
 3.546568 1  311             Rx   d 8 00 00 14 53 00 00 0E F5
 3.547610 1  253             Rx   d 8 00 00 00 00 00 00 00 00
 3.549618 1  254             Rx   d 8 00 00 00 02 00 00 00 00
 3.551667 1  241             Rx   d 8 AA 00 00 00 00 00 00 01
 3.563618 1  251             Rx   d 8 00 00 00 00 00 00 00 00
 3.565617 1  252             Rx   d 8 00 00 00 01 00 00 00 00
 3.566341 1  221             Rx   d 8 00 00 00 00 00 00 00 00
 3.566567 1  311             Rx   d 8 00 00 14 53 00 00 0E F5
 3.567618 1  253             Rx   d 8 00 00 00 00 00 00 00 00
 3.569622 1  254             Rx   d 8 00 00 00 02 00 00 00 00
 3.571700 1  241             Rx   d 8 AA 00 00 00 00 00 00 02
 3.582647 1  261             Rx   d 8 01 1F 00 19 1E 00 00 00
 3.583649 1  251             Rx   d 8 00 00 00 00 00 00 00 00
 3.585649 1  252             Rx   d 8 00 00 00 01 00 00 00 00
 3.586349 1  221             Rx   d 8 00 00 00 00 00 00 00 00
 3.586572 1  311             Rx   d 8 00 00 14 53 00 00 0E F5
 3.587618 1  253             Rx   d 8 00 00 00 00 00 00 00 00
 3.589617 1  254             Rx   d 8 00 00 00 02 00 00 00 00
 3.591673 1  241             Rx   d 8 AA 00 00 00 00 00 00 03
 3.593649 1  262             Rx   d 8 01 1F 00 19 1E 00 00 00
 3.603673 1  251             Rx   d 8 00 00 00 00 00 00 00 00
 3.604647 1  263             Rx   d 8 01 1F 00 19 1E 00 00 00
 3.605644 1  252             Rx   d 8 00 00 00 01 00 00 00 00
 3.606349 1  221             Rx   d 8 00 00 00 00 00 00 00 00
 3.606568 1  311             Rx   d 8 00 00 14 53 00 00 0E F5
 3.607678 1  253             Rx   d 8 00 00 00 00 00 00 00 00
 3.609675 1  254             Rx   d 8 00 00 00 02 00 00 00 00
 3.611724 1  241             Rx   d 8 AA 00 00 00 00 00 00 04
 3.615675 1  264             Rx   d 8 01 1E 00 19 1E 00 00 00
 3.623698 1  251             Rx   d 8 00 00 00 00 00 00 00 00
 3.625698 1  252             Rx   d 8 00 00 00 01 00 00 00 00
 3.626347 1  221             Rx   d 8 00 00 00 00 00 00 00 00
 3.626596 1  311             Rx   d 8 00 00 14 53 00 00 0E F5
 3.627698 1  253             Rx   d 8 00 00 00 00 00 00 00 00
 3.629702 1  254             Rx   d 8 00 00 00 02 00 00 00 00
 3.631700 1  241             Rx   d 8 AA 00 00 00 00 00 00 05
 3.643728 1  251             Rx   d 8 00 00 00 00 00 00 00 00
 3.645724 1  252             Rx   d 8 00 00 00 01 00 00 00 00
 3.646348 1  221             Rx   d 8 00 00 00 00 00 00 00 00
 3.646601 1  311             Rx   d 8 00 00 14 53 00 00 0E F5
 3.647700 1  253             Rx   d 8 00 00 00 00 00 00 00 00
 3.649700 1  254             Rx   d 8 00 00 00 02 00 00 00 00
 3.651725 1  241             Rx   d 8 AA 00 00 00 00 00 00 06
 3.663695 1  251             Rx   d 8 00 00 00 00 00 00 00 00
 3.665724 1  252             Rx   d 8 00 00 00 01 00 00 00 00
 3.666346 1  221             Rx   d 8 00 00 00 00 00 00 00 00
 3.666571 1  311             Rx   d 8 00 00 14 53 00 00 0E F5
 3.667722 1  253             Rx   d 8 00 00 00 00 00 00 00 00
 3.669696 1  254             Rx   d 8 00 00 00 02 00 00 00 00
 3.671776 1  241             Rx   d 8 AA 00 00 00 00 00 00 07
 3.682730 1  261             Rx   d 8 01 20 00 19 1E 00 00 00
 3.683754 1  251             Rx   d 8 00 00 00 00 00 00 00 00
 3.685737 1  252             Rx   d 8 00 00 00 01 00 00 00 00
 3.686356 1  221             Rx   d 8 00 00 00 00 00 00 00 00
 3.686598 1  311             Rx   d 8 00 00 14 53 00 00 0E F5
 3.687753 1  253             Rx   d 8 00 00 00 00 00 00 00 00
 3.689721 1  254             Rx   d 8 00 00 00 02 00 00 00 00
 3.691746 1  241             Rx   d 8 AA 00 00 00 00 00 00 08
 3.693746 1  262             Rx   d 8 01 1E 00 19 1E 00 00 00
 3.701823 1  211             Rx   d 8 00 01 01 15 00 00 00 00
 3.703774 1  251             Rx   d 8 00 00 00 00 00 00 00 00
 3.704778 1  263             Rx   d 8 01 1F 00 19 1E 00 00 00
 3.705772 1  252             Rx   d 8 00 00 00 01 00 00 00 00
 3.706347 1  221             Rx   d 8 00 00 00 00 00 00 00 00
 3.706595 1  311             Rx   d 8 00 00 14 53 00 00 0E F5
 3.707776 1  253             Rx   d 8 00 00 00 00 00 00 00 00
 3.709776 1  254             Rx   d 8 00 00 00 02 00 00 00 00
 3.711825 1  241             Rx   d 8 AA 00 00 00 00 00 00 09
 3.715779 1  264             Rx   d 8 01 1D 00 19 1E 00 00 00
 3.723801 1  251             Rx   d 8 00 00 00 00 00 00 00 00
 3.725803 1  252             Rx   d 8 00 00 00 01 00 00 00 00
 3.726354 1  221             Rx   d 8 00 00 00 00 00 00 00 00
 3.726603 1  311             Rx   d 8 00 00 14 53 00 00 0E F5
 3.727802 1  253             Rx   d 8 00 00 00 00 00 00 00 00
 3.729806 1  254             Rx   d 8 00 00 00 02 00 00 00 00
 3.731803 1  241             Rx   d 8 AA 00 00 00 00 00 00 0A
 3.743804 1  251             Rx   d 8 00 00 00 00 00 00 00 00
 3.745818 1  252             Rx   d 8 00 00 00 01 00 00 00 00
 3.746353 1  221             Rx   d 8 00 00 00 00 00 00 00 00
 3.746604 1  311             Rx   d 8 00 00 14 53 00 00 0E F5
 3.747802 1  253             Rx   d 8 00 00 00 00 00 00 00 00
 3.749798 1  254             Rx   d 8 00 00 00 02 00 00 00 00
 3.751847 1  241             Rx   d 8 AA 00 00 00 00 00 00 0B
 3.763826 1  251             Rx   d 8 00 00 00 00 00 00 00 00
 3.765817 1  252             Rx   d 8 00 00 00 01 00 00 00 00
 3.766334 1  221             Rx   d 8 00 00 00 00 00 00 00 00
 3.766599 1  311             Rx   d 8 00 00 14 53 00 00 0E F5
 3.767825 1  253             Rx   d 8 00 00 00 00 00 00 00 00
 3.769828 1  254             Rx   d 8 00 00 00 02 00 00 00 00
 3.771879 1  241             Rx   d 8 AA 00 00 00 00 00 00 0C
 3.782855 1  261             Rx   d 8 01 1F 00 19 1E 00 00 00
 3.783856 1  251             Rx   d 8 00 00 00 00 00 00 00 00
 3.785864 1  252             Rx   d 8 00 00 00 01 00 00 00 00
 3.786354 1  221             Rx   d 8 00 00 00 00 00 00 00 00
 3.786605 1  311             Rx   d 8 00 00 14 53 00 00 0E F5
 3.787858 1  253             Rx   d 8 00 00 00 00 00 00 00 00
 3.789826 1  254             Rx   d 8 00 00 00 02 00 00 00 00
 3.791873 1  241             Rx   d 8 AA 00 00 00 00 00 00 0D
 3.793853 1  262             Rx   d 8 01 1F 00 19 1E 00 00 00
 3.803882 1  251             Rx   d 8 00 00 00 00 00 00 00 00
 3.804883 1  263             Rx   d 8 01 1F 00 19 1E 00 00 00
 3.805879 1  252             Rx   d 8 00 00 00 01 00 00 00 00
 3.806355 1  221             Rx   d 8 00 00 00 00 00 00 00 00
 3.806607 1  311             Rx   d 8 00 00 14 53 00 00 0E F5
 3.807881 1  253             Rx   d 8 00 00 00 00 00 00 00 00
 3.809881 1  254             Rx   d 8 00 00 00 02 00 00 00 00
 3.811930 1  241             Rx   d 8 AA 00 00 00 00 00 00 0E
 3.815882 1  264             Rx   d 8 01 1E 00 19 1E 00 00 00
 3.821957 1  231             Rx   d 8 00 00 00 02 57 00 00 00
 3.823875 1  251             Rx   d 8 00 00 00 00 00 00 00 00
 3.825882 1  252             Rx   d 8 00 00 00 01 00 00 00 00
 3.826381 1  221             Rx   d 8 00 00 00 00 00 00 00 00
 3.826607 1  311             Rx   d 8 00 00 14 53 00 00 0E F5
 3.827883 1  253             Rx   d 8 00 00 00 00 00 00 00 00
 3.829908 1  254             Rx   d 8 00 00 00 02 00 00 00 00
 3.831958 1  241             Rx   d 8 AA 00 00 00 00 00 00 0F
 3.843908 1  251             Rx   d 8 00 00 00 00 00 00 00 00
 3.845909 1  252             Rx   d 8 00 00 00 01 00 00 00 00
 3.846357 1  221             Rx   d 8 00 00 00 00 00 00 00 00
 3.846603 1  311             Rx   d 8 00 00 14 53 00 00 0E F5
 3.847905 1  253             Rx   d 8 00 00 00 00 00 00 00 00
 3.849908 1  254             Rx   d 8 00 00 00 02 00 00 00 00
 3.851969 1  241             Rx   d 8 AA 00 00 00 00 00 00 10
 3.863929 1  251             Rx   d 8 00 00 00 00 00 00 00 00
 3.865954 1  252             Rx   d 8 00 00 00 01 00 00 00 00
 3.866376 1  221             Rx   d 8 00 00 00 00 00 00 00 00
 3.866592 1  311             Rx   d 8 00 00 14 53 00 00 0E F5
 3.867928 1  253             Rx   d 8 00 00 00 00 00 00 00 00
 3.869928 1  254             Rx   d 8 00 00 00 02 00 00 00 00
 3.871984 1  241             Rx   d 8 AA 00 00 00 00 00 00 11
 3.882973 1  261             Rx   d 8 01 20 00 19 1E 00 00 00
 3.883958 1  251             Rx   d 8 00 00 00 00 00 00 00 00
 3.885928 1  252             Rx   d 8 00 00 00 01 00 00 00 00
 3.886385 1  221             Rx   d 8 00 00 00 00 00 00 00 00
 3.886575 1  311             Rx   d 8 00 00 14 53 00 00 0E F5
 3.887958 1  253             Rx   d 8 00 00 00 00 00 00 00 00
 3.889936 1  254             Rx   d 8 00 00 00 02 00 00 00 00
 3.891980 1  241             Rx   d 8 AA 00 00 00 00 00 00 12
 3.893954 1  262             Rx   d 8 01 1F 00 19 1E 00 00 00
 3.902008 1  211             Rx   d 8 00 01 01 15 00 00 00 00
 3.903959 1  251             Rx   d 8 00 00 00 00 00 00 00 00
 3.904965 1  263             Rx   d 8 01 1F 00 19 1E 00 00 00
 3.905982 1  252             Rx   d 8 00 00 00 01 00 00 00 00
 3.906383 1  221             Rx   d 8 00 00 00 00 00 00 00 00
 3.906612 1  311             Rx   d 8 00 00 14 53 00 00 0E F5
 3.907985 1  253             Rx   d 8 00 00 00 00 00 00 00 00
 3.909986 1  254             Rx   d 8 00 00 00 02 00 00 00 00
 3.912004 1  241             Rx   d 8 AA 00 00 00 00 00 00 13
 3.915955 1  264             Rx   d 8 01 1D 00 19 1E 00 00 00
 3.923989 1  251             Rx   d 8 00 00 00 00 00 00 00 00
 3.925986 1  252             Rx   d 8 00 00 00 01 00 00 00 00
 3.926384 1  221             Rx   d 8 00 00 00 00 00 00 00 00
 3.926636 1  311             Rx   d 8 00 00 14 53 00 00 0E F5
 3.927987 1  253             Rx   d 8 00 00 00 00 00 00 00 00
 3.930019 1  254             Rx   d 8 00 00 00 02 00 00 00 00
 3.932018 1  241             Rx   d 8 AA 00 00 00 00 00 00 14
 3.944013 1  251             Rx   d 8 00 00 00 00 00 00 00 00
 3.946013 1  252             Rx   d 8 00 00 00 01 00 00 00 00
 3.946388 1  221             Rx   d 8 00 00 00 00 00 00 00 00
 3.946629 1  311             Rx   d 8 00 00 14 53 00 00 0E F5
 3.948040 1  253             Rx   d 8 00 00 00 00 00 00 00 00
 3.950012 1  254             Rx   d 8 00 00 00 02 00 00 00 00
 3.952061 1  241             Rx   d 8 AA 00 00 00 00 00 00 15
 3.964037 1  251             Rx   d 8 00 00 00 00 00 00 00 00
 3.966004 1  252             Rx   d 8 00 00 00 01 00 00 00 00
 3.966384 1  221             Rx   d 8 00 00 00 00 00 00 00 00
 3.966635 1  311             Rx   d 8 00 00 14 53 00 00 0E F5
 3.968037 1  253             Rx   d 8 00 00 00 00 00 00 00 00
 3.970038 1  254             Rx   d 8 00 00 00 02 00 00 00 00
 3.972091 1  241             Rx   d 8 AA 00 00 00 00 00 00 16
 3.983069 1  261             Rx   d 8 01 20 00 19 1E 00 00 00
 3.984066 1  251             Rx   d 8 00 00 00 00 00 00 00 00
 3.986068 1  252             Rx   d 8 00 00 00 01 00 00 00 00
 3.986392 1  221             Rx   d 8 00 00 00 00 00 00 00 00
 3.986603 1  311             Rx   d 8 00 00 14 53 00 00 0E F5
 3.988068 1  253             Rx   d 8 00 00 00 00 00 00 00 00
 3.990033 1  254             Rx   d 8 00 00 00 02 00 00 00 00
 3.992110 1  241             Rx   d 8 AA 00 00 00 00 00 00 17
 3.994042 1  262             Rx   d 8 01 1E 00 19 1E 00 00 00
 4.004070 1  251             Rx   d 8 00 00 00 00 00 00 00 00
 4.005063 1  263             Rx   d 8 01 1F 00 19 1E 00 00 00
 4.006056 1  252             Rx   d 8 00 00 00 01 00 00 00 00
 4.006390 1  221             Rx   d 8 00 00 00 00 00 00 00 00
 4.006602 1  311             Rx   d 8 00 00 14 53 00 00 0E F5
 4.008064 1  253             Rx   d 8 00 00 00 00 00 00 00 00
 4.010089 1  254             Rx   d 8 00 00 00 02 00 00 00 00
 4.012090 1  241             Rx   d 8 AA 00 00 00 00 00 00 18
 4.016092 1  264             Rx   d 8 01 1E 00 19 1E 00 00 00
 4.024089 1  251             Rx   d 8 00 00 00 00 00 00 00 00
 4.026087 1  252             Rx   d 8 00 00 00 01 00 00 00 00
 4.026389 1  221             Rx   d 8 00 00 00 00 00 00 00 00
 4.026641 1  311             Rx   d 8 00 00 14 53 00 00 0E F5
 4.028095 1  253             Rx   d 8 00 00 00 00 00 00 00 00
 4.030113 1  254             Rx   d 8 00 00 00 02 00 00 00 00
 4.032163 1  241             Rx   d 8 AA 00 00 00 00 00 00 19
 4.044090 1  251             Rx   d 8 00 00 00 00 00 00 00 00
 4.046118 1  252             Rx   d 8 00 00 00 01 00 00 00 00
 4.046360 1  221             Rx   d 8 00 00 00 00 00 00 00 00
 4.046640 1  311             Rx   d 8 00 00 14 53 00 00 0E F5
 4.048092 1  253             Rx   d 8 00 00 00 00 00 00 00 00
