date Wed Oct 25 11:20:15.655 AM 2023
base hex  timestamps absolute
internal events logged
Begin Triggerblock Wed Oct 25 11:20:15.625 AM 2023
 0.000000 Start of measurement
 0.000000 1  231             Rx   d 8 00 00 00 02 34 00 00 00
 0.001923 1  251             Rx   d 8 00 00 00 00 00 00 00 00
 0.003930 1  252             Rx   d 8 00 00 00 01 00 00 00 00
 0.005916 1  253             Rx   d 8 00 00 00 00 00 00 00 00
 0.007166 1  221             Rx   d 8 00 00 00 00 00 00 00 00
 0.007440 1  311             Rx   d 8 00 00 33 5B 00 00 33 1A
 0.007936 1  254             Rx   d 8 00 00 00 02 00 00 00 00
 0.009993 1  241             Rx   d 8 AA 00 00 00 00 00 00 8D
 0.021925 1  251             Rx   d 8 00 00 00 00 00 00 00 00
 0.023971 1  252             Rx   d 8 00 00 00 01 00 00 00 00
 0.025987 1  253             Rx   d 8 00 00 00 00 00 00 00 00
 0.027195 1  221             Rx   d 8 00 00 00 00 00 00 00 00
 0.027442 1  311             Rx   d 8 00 00 33 5B 00 00 33 1A
 0.027965 1  254             Rx   d 8 00 00 00 02 00 00 00 00
 0.029998 1  241             Rx   d 8 AA 00 00 00 00 00 00 8E
 0.041954 1  251             Rx   d 8 00 00 00 00 00 00 00 00
 0.044005 1  252             Rx   d 8 00 00 00 01 00 00 00 00
 0.045974 1  253             Rx   d 8 00 00 00 00 00 00 00 00
 0.047167 1  221             Rx   d 8 00 00 00 00 00 00 00 00
 0.047415 1  311             Rx   d 8 00 00 33 5B 00 00 33 1A
 0.047981 1  254             Rx   d 8 00 00 00 02 00 00 00 00
 0.050059 1  241             Rx   d 8 AA 00 00 00 00 00 00 8F
 0.061008 1  261             Rx   d 8 01 0D 00 1B 1E 00 00 00
 0.062000 1  251             Rx   d 8 00 00 00 00 00 00 00 00
 0.063995 1  252             Rx   d 8 00 00 00 01 00 00 00 00
 0.066072 1  253             Rx   d 8 00 00 00 00 00 00 00 00
 0.067227 1  221             Rx   d 8 00 00 00 00 00 00 00 00
 0.067444 1  311             Rx   d 8 00 00 33 5B 00 00 33 1A
 0.068018 1  254             Rx   d 8 00 00 00 02 00 00 00 00
 0.070076 1  241             Rx   d 8 AA 00 00 00 00 00 00 90
 0.072002 1  262             Rx   d 8 01 0D 00 1B 1E 00 00 00
 0.080129 1  211             Rx   d 8 00 01 01 03 00 00 00 00
 0.082033 1  251             Rx   d 8 00 00 00 00 00 00 00 00
 0.082995 1  263             Rx   d 8 01 0E 00 1B 1E 00 00 00
 0.084099 1  252             Rx   d 8 00 00 00 01 00 00 00 00
 0.085999 1  253             Rx   d 8 00 00 00 00 00 00 00 00
 0.087235 1  221             Rx   d 8 00 00 00 00 00 00 00 00
 0.087452 1  311             Rx   d 8 00 00 33 5B 00 00 33 1A
 0.088021 1  254             Rx   d 8 00 00 00 02 00 00 00 00
 0.090122 1  241             Rx   d 8 AA 00 00 00 00 00 00 91
 0.094030 1  264             Rx   d 8 01 0D 00 1A 1E 00 00 00
 0.102052 1  251             Rx   d 8 00 00 00 00 00 00 00 00
 0.104051 1  252             Rx   d 8 00 00 00 01 00 00 00 00
 0.106050 1  253             Rx   d 8 00 00 00 00 00 00 00 00
 0.107223 1  221             Rx   d 8 00 00 00 00 00 00 00 00
 0.107458 1  311             Rx   d 8 00 00 33 5B 00 00 33 1A
 0.108050 1  254             Rx   d 8 00 00 00 02 00 00 00 00
 0.110107 1  241             Rx   d 8 AA 00 00 00 00 00 00 92
 0.122076 1  251             Rx   d 8 00 00 00 00 00 00 00 00
 0.124048 1  252             Rx   d 8 00 00 00 01 00 00 00 00
 0.126098 1  253             Rx   d 8 00 00 00 00 00 00 00 00
 0.127203 1  221             Rx   d 8 00 00 00 00 00 00 00 00
 0.127450 1  311             Rx   d 8 00 00 33 5B 00 00 33 1A
 0.128047 1  254             Rx   d 8 00 00 00 02 00 00 00 00
 0.130127 1  241             Rx   d 8 AA 00 00 00 00 00 00 93
 0.142081 1  251             Rx   d 8 00 00 00 00 00 00 00 00
 0.144136 1  252             Rx   d 8 00 00 00 01 00 00 00 00
 0.146131 1  253             Rx   d 8 00 00 00 00 00 00 00 00
 0.147238 1  221             Rx   d 8 00 00 00 00 00 00 00 00
 0.147454 1  311             Rx   d 8 00 00 33 5B 00 00 33 1A
 0.148129 1  254             Rx   d 8 00 00 00 02 00 00 00 00
 0.150241 1  241             Rx   d 8 AA 00 00 00 00 00 00 94
 0.161129 1  261             Rx   d 8 01 0D 00 1B 1E 00 00 00
 0.162205 1  251             Rx   d 8 00 00 00 00 00 00 00 00
 0.164128 1  252             Rx   d 8 00 00 00 01 00 00 00 00
 0.166131 1  253             Rx   d 8 00 00 00 00 00 00 00 00
 0.167287 1  221             Rx   d 8 00 00 00 00 00 00 00 00
 0.167448 1  311             Rx   d 8 00 00 33 5B 00 00 33 1A
 0.168129 1  254             Rx   d 8 00 00 00 02 00 00 00 00
 0.170129 1  241             Rx   d 8 AA 00 00 00 00 00 00 95
 0.172110 1  262             Rx   d 8 01 0D 00 1B 1E 00 00 00
 0.182130 1  251             Rx   d 8 00 00 00 00 00 00 00 00
 0.183134 1  263             Rx   d 8 01 0D 00 1B 1E 00 00 00
 0.184126 1  252             Rx   d 8 00 00 00 01 00 00 00 00
 0.186133 1  253             Rx   d 8 00 00 00 00 00 00 00 00
 0.187237 1  221             Rx   d 8 00 00 00 00 00 00 00 00
 0.187483 1  311             Rx   d 8 00 00 33 5B 00 00 33 1A
 0.188138 1  254             Rx   d 8 00 00 00 02 00 00 00 00
 0.190181 1  241             Rx   d 8 AA 00 00 00 00 00 00 96
 0.194187 1  264             Rx   d 8 01 0C 00 1A 1E 00 00 00
 0.202162 1  251             Rx   d 8 00 00 00 00 00 00 00 00
 0.204160 1  252             Rx   d 8 00 00 00 01 00 00 00 00
 0.206171 1  253             Rx   d 8 00 00 00 00 00 00 00 00
 0.207232 1  221             Rx   d 8 00 00 00 00 00 00 00 00
 0.207479 1  311             Rx   d 8 00 00 33 5B 00 00 33 1A
 0.208156 1  254             Rx   d 8 00 00 00 02 00 00 00 00
 0.210208 1  241             Rx   d 8 AA 00 00 00 00 00 00 97
 0.222182 1  251             Rx   d 8 00 00 00 00 00 00 00 00
 0.224153 1  252             Rx   d 8 00 00 00 01 00 00 00 00
 0.226187 1  253             Rx   d 8 00 00 00 00 00 00 00 00
 0.227237 1  221             Rx   d 8 00 00 00 00 00 00 00 00
 0.227485 1  311             Rx   d 8 00 00 33 5B 00 00 33 1A
 0.228192 1  254             Rx   d 8 00 00 00 02 00 00 00 00
 0.230212 1  241             Rx   d 8 AA 00 00 00 00 00 00 98
 0.242246 1  251             Rx   d 8 00 00 00 00 00 00 00 00
 0.244207 1  252             Rx   d 8 00 00 00 01 00 00 00 00
 0.246183 1  253             Rx   d 8 00 00 00 00 00 00 00 00
 0.247236 1  221             Rx   d 8 00 00 00 00 00 00 00 00
 0.247481 1  311             Rx   d 8 00 00 33 5B 00 00 33 1A
 0.248209 1  254             Rx   d 8 00 00 00 02 00 00 00 00
 0.250258 1  241             Rx   d 8 AA 00 00 00 00 00 00 99
 0.261251 1  261             Rx   d 8 01 0E 00 1B 1E 00 00 00
 0.262213 1  251             Rx   d 8 00 00 00 00 00 00 00 00
 0.264214 1  252             Rx   d 8 00 00 00 01 00 00 00 00
 0.266215 1  253             Rx   d 8 00 00 00 00 00 00 00 00
 0.267241 1  221             Rx   d 8 00 00 00 00 00 00 00 00
 0.267483 1  311             Rx   d 8 00 00 33 5B 00 00 33 1A
 0.268215 1  254             Rx   d 8 00 00 00 02 00 00 00 00
 0.270263 1  241             Rx   d 8 AA 00 00 00 00 00 00 9A
 0.272217 1  262             Rx   d 8 01 0D 00 1B 1E 00 00 00
 0.280292 1  211             Rx   d 8 00 01 01 04 00 00 00 00
 0.282242 1  251             Rx   d 8 00 00 00 00 00 00 00 00
 0.283241 1  263             Rx   d 8 01 0E 00 1B 1E 00 00 00
 0.284240 1  252             Rx   d 8 00 00 00 01 00 00 00 00
 0.286239 1  253             Rx   d 8 00 00 00 00 00 00 00 00
 0.287265 1  221             Rx   d 8 00 00 00 00 00 00 00 00
 0.287511 1  311             Rx   d 8 00 00 33 5B 00 00 33 1A
 0.288239 1  254             Rx   d 8 00 00 00 02 00 00 00 00
 0.290313 1  241             Rx   d 8 AA 00 00 00 00 00 00 9B
 0.294297 1  264             Rx   d 8 01 0D 00 1A 1E 00 00 00
 0.302266 1  251             Rx   d 8 00 00 00 00 00 00 00 00
 0.304266 1  252             Rx   d 8 00 00 00 01 00 00 00 00
 0.306268 1  253             Rx   d 8 00 00 00 00 00 00 00 00
 0.307269 1  221             Rx   d 8 00 00 00 00 00 00 00 00
 0.307516 1  311             Rx   d 8 00 00 33 5B 00 00 33 1A
 0.308270 1  254             Rx   d 8 00 00 00 02 00 00 00 00
 0.310318 1  241             Rx   d 8 AA 00 00 00 00 00 00 9C
 0.322312 1  251             Rx   d 8 00 00 00 00 00 00 00 00
 0.324314 1  252             Rx   d 8 00 00 00 01 00 00 00 00
 0.326276 1  253             Rx   d 8 00 00 00 00 00 00 00 00
 0.327269 1  221             Rx   d 8 00 00 00 00 00 00 00 00
 0.327489 1  311             Rx   d 8 00 00 33 5B 00 00 33 1A
 0.328294 1  254             Rx   d 8 00 00 00 02 00 00 00 00
 0.330366 1  241             Rx   d 8 AA 00 00 00 00 00 00 9D
 0.342397 1  251             Rx   d 8 00 00 00 00 00 00 00 00
 0.344295 1  252             Rx   d 8 00 00 00 01 00 00 00 00
 0.346316 1  253             Rx   d 8 00 00 00 00 00 00 00 00
 0.347270 1  221             Rx   d 8 00 00 00 00 00 00 00 00
 0.347501 1  311             Rx   d 8 00 00 33 5B 00 00 33 1A
 0.348319 1  254             Rx   d 8 00 00 00 02 00 00 00 00
 0.350368 1  241             Rx   d 8 AA 00 00 00 00 00 00 9E
 0.361392 1  261             Rx   d 8 01 0E 00 1B 1E 00 00 00
 0.362366 1  251             Rx   d 8 00 00 00 00 00 00 00 00
 0.364331 1  252             Rx   d 8 00 00 00 01 00 00 00 00
 0.366320 1  253             Rx   d 8 00 00 00 00 00 00 00 00
 0.367270 1  221             Rx   d 8 00 00 00 00 00 00 00 00
 0.367496 1  311             Rx   d 8 00 00 33 5B 00 00 33 1A
 0.368317 1  254             Rx   d 8 00 00 00 02 00 00 00 00
 0.370364 1  241             Rx   d 8 AA 00 00 00 00 00 00 9F
 0.372318 1  262             Rx   d 8 01 0D 00 1B 1E 00 00 00
 0.382343 1  251             Rx   d 8 00 00 00 00 00 00 00 00
 0.383369 1  263             Rx   d 8 01 0E 00 1B 1E 00 00 00
 0.384381 1  252             Rx   d 8 00 00 00 01 00 00 00 00
 0.386334 1  253             Rx   d 8 00 00 00 00 00 00 00 00
 0.387260 1  221             Rx   d 8 00 00 00 00 00 00 00 00
 0.387507 1  311             Rx   d 8 00 00 33 5B 00 00 33 1A
 0.388335 1  254             Rx   d 8 00 00 00 02 00 00 00 00
 0.390385 1  241             Rx   d 8 AA 00 00 00 00 00 00 A0
 0.394401 1  264             Rx   d 8 01 0D 00 1A 1E 00 00 00
 0.402378 1  251             Rx   d 8 00 00 00 00 00 00 00 00
 0.404422 1  252             Rx   d 8 00 00 00 01 00 00 00 00
 0.406367 1  253             Rx   d 8 00 00 00 00 00 00 00 00
 0.407274 1  221             Rx   d 8 00 00 00 00 00 00 00 00
 0.407496 1  311             Rx   d 8 00 00 33 5B 00 00 33 1A
 0.408370 1  254             Rx   d 8 00 00 00 02 00 00 00 00
 0.410418 1  241             Rx   d 8 AA 00 00 00 00 00 00 A1
 0.422495 1  251             Rx   d 8 00 00 00 00 00 00 00 00
 0.424399 1  252             Rx   d 8 00 00 00 01 00 00 00 00
 0.426392 1  253             Rx   d 8 00 00 00 00 00 00 00 00
 0.427236 1  221             Rx   d 8 00 00 00 00 00 00 00 00
 0.427512 1  311             Rx   d 8 00 00 33 5B 00 00 33 1A
 0.428391 1  254             Rx   d 8 00 00 00 02 00 00 00 00
 0.430437 1  241             Rx   d 8 AA 00 00 00 00 00 00 A2
 0.442392 1  251             Rx   d 8 00 00 00 00 00 00 00 00
 0.444369 1  252             Rx   d 8 00 00 00 01 00 00 00 00
 0.446417 1  253             Rx   d 8 00 00 00 00 00 00 00 00
 0.447354 1  221             Rx   d 8 00 00 00 00 00 00 00 00
 0.447520 1  311             Rx   d 8 00 00 33 5B 00 00 33 1A
 0.448417 1  254             Rx   d 8 00 00 00 02 00 00 00 00
 0.450468 1  241             Rx   d 8 AA 00 00 00 00 00 00 A3
 0.461418 1  261             Rx   d 8 01 0E 00 1B 1E 00 00 00
 0.462480 1  251             Rx   d 8 00 00 00 00 00 00 00 00
 0.464475 1  252             Rx   d 8 00 00 00 01 00 00 00 00
 0.466475 1  253             Rx   d 8 00 00 00 00 00 00 00 00
 0.467330 1  221             Rx   d 8 00 00 00 00 00 00 00 00
 0.467521 1  311             Rx   d 8 00 00 33 5B 00 00 33 1A
 0.468475 1  254             Rx   d 8 00 00 00 02 00 00 00 00
 0.470496 1  241             Rx   d 8 AA 00 00 00 00 00 00 A4
 0.472423 1  262             Rx   d 8 01 0D 00 1B 1E 00 00 00
 0.480468 1  211             Rx   d 8 00 01 01 03 00 00 00 00
 0.482444 1  251             Rx   d 8 00 00 00 00 00 00 00 00
 0.483446 1  263             Rx   d 8 01 0E 00 1B 1E 00 00 00
 0.484498 1  252             Rx   d 8 00 00 00 01 00 00 00 00
 0.486504 1  253             Rx   d 8 00 00 00 00 00 00 00 00
 0.487347 1  221             Rx   d 8 00 00 00 00 00 00 00 00
 0.487524 1  311             Rx   d 8 00 00 33 5B 00 00 33 1A
 0.488500 1  254             Rx   d 8 00 00 00 02 00 00 00 00
 0.490444 1  241             Rx   d 8 AA 00 00 00 00 00 00 A5
 0.494449 1  264             Rx   d 8 01 0D 00 1A 1E 00 00 00
 0.500519 1  231             Rx   d 8 00 00 00 02 20 00 00 00
 0.502469 1  251             Rx   d 8 00 00 00 00 00 00 00 00
 0.504515 1  252             Rx   d 8 00 00 00 01 00 00 00 00
 0.506527 1  253             Rx   d 8 00 00 00 00 00 00 00 00
 0.507354 1  221             Rx   d 8 00 00 00 00 00 00 00 00
 0.507523 1  311             Rx   d 8 00 00 33 5B 00 00 33 1A
 0.508525 1  254             Rx   d 8 00 00 00 02 00 00 00 00
 0.510578 1  241             Rx   d 8 AA 00 00 00 00 00 00 A6
 0.522478 1  251             Rx   d 8 00 00 00 00 00 00 00 00
 0.524473 1  252             Rx   d 8 00 00 00 01 00 00 00 00
 0.526552 1  253             Rx   d 8 00 00 00 00 00 00 00 00
 0.527331 1  221             Rx   d 8 00 00 00 00 00 00 00 00
 0.527523 1  311             Rx   d 8 00 00 33 5B 00 00 33 1A
 0.528556 1  254             Rx   d 8 00 00 00 02 00 00 00 00
 0.530552 1  241             Rx   d 8 AA 00 00 00 00 00 00 A7
 0.542507 1  251             Rx   d 8 00 00 00 00 00 00 00 00
 0.544498 1  252             Rx   d 8 00 00 00 01 00 00 00 00
 0.546468 1  253             Rx   d 8 00 00 00 00 00 00 00 00
 0.547276 1  221             Rx   d 8 00 00 00 00 00 00 00 00
 0.547525 1  311             Rx   d 8 00 00 33 5B 00 00 33 1A
 0.548523 1  254             Rx   d 8 00 00 00 02 00 00 00 00
 0.550577 1  241             Rx   d 8 AA 00 00 00 00 00 00 A8
 0.561502 1  261             Rx   d 8 01 0D 00 1B 1E 00 00 00
 0.562527 1  251             Rx   d 8 00 00 00 00 00 00 00 00
 0.564528 1  252             Rx   d 8 00 00 00 01 00 00 00 00
 0.566524 1  253             Rx   d 8 00 00 00 00 00 00 00 00
 0.567275 1  221             Rx   d 8 00 00 00 00 00 00 00 00
 0.567520 1  311             Rx   d 8 00 00 33 5B 00 00 33 1A
 0.568581 1  254             Rx   d 8 00 00 00 02 00 00 00 00
 0.570657 1  241             Rx   d 8 AA 00 00 00 00 00 00 A9
 0.572583 1  262             Rx   d 8 01 0D 00 1B 1E 00 00 00
 0.582556 1  251             Rx   d 8 00 00 00 00 00 00 00 00
 0.583524 1  263             Rx   d 8 01 0E 00 1B 1E 00 00 00
 0.584551 1  252             Rx   d 8 00 00 00 01 00 00 00 00
 0.586548 1  253             Rx   d 8 00 00 00 00 00 00 00 00
 0.587298 1  221             Rx   d 8 00 00 00 00 00 00 00 00
 0.587520 1  311             Rx   d 8 00 00 33 5B 00 00 33 1A
 0.588561 1  254             Rx   d 8 00 00 00 02 00 00 00 00
 0.590658 1  241             Rx   d 8 AA 00 00 00 00 00 00 AA
 0.594420 1  421             Tx   d 1 01
 0.594517 1  264             Rx   d 8 01 0D 00 1A 1E 00 00 00
 0.602575 1  251             Rx   d 8 00 00 00 00 00 00 00 00
 0.604571 1  252             Rx   d 8 00 00 00 01 00 00 00 00
 0.606573 1  253             Rx   d 8 00 00 00 00 00 00 00 00
 0.607271 1  221             Rx   d 8 00 00 00 00 00 00 00 00
 0.607492 1  311             Rx   d 8 00 00 33 5B 00 00 33 1A
 0.608574 1  254             Rx   d 8 00 00 00 02 00 00 00 00
 0.610705 1  241             Rx   d 8 AA 00 00 00 00 00 00 AB
 0.622603 1  251             Rx   d 8 00 00 00 00 00 00 00 00
 0.624547 1  252             Rx   d 8 00 00 00 01 00 00 00 00
 0.626616 1  253             Rx   d 8 00 00 00 00 00 00 00 00
 0.627276 1  221             Rx   d 8 00 00 00 00 00 00 00 00
 0.627530 1  311             Rx   d 8 00 00 33 5B 00 00 33 1A
 0.628595 1  254             Rx   d 8 00 00 00 02 00 00 00 00
 0.630632 1  241             Rx   d 8 AA 00 00 00 00 00 00 AC
 0.642602 1  251             Rx   d 8 00 00 00 00 00 00 00 00
 0.644599 1  252             Rx   d 8 00 00 00 01 00 00 00 00
 0.646598 1  253             Rx   d 8 00 00 00 00 00 00 00 00
 0.647303 1  221             Rx   d 8 00 00 00 00 00 00 00 00
 0.647518 1  311             Rx   d 8 00 00 33 5B 00 00 33 1A
 0.648629 1  254             Rx   d 8 00 00 00 02 00 00 00 00
 0.650699 1  241             Rx   d 8 AA 00 00 00 00 00 00 AD
 0.661627 1  261             Rx   d 8 01 0E 00 1B 1E 00 00 00
 0.662633 1  251             Rx   d 8 00 00 00 00 00 00 00 00
 0.664626 1  252             Rx   d 8 00 00 00 01 00 00 00 00
 0.666626 1  253             Rx   d 8 00 00 00 00 00 00 00 00
 0.667309 1  221             Rx   d 8 00 00 00 00 00 00 00 00
 0.667530 1  311             Rx   d 8 00 00 33 5B 00 00 33 1A
 0.668632 1  254             Rx   d 8 00 00 00 02 00 00 00 00
 0.670655 1  241             Rx   d 8 AA 00 00 00 00 00 00 AE
 0.672634 1  262             Rx   d 8 01 0D 00 1B 1E 00 00 00
 0.680784 1  211             Rx   d 8 00 01 01 03 00 00 00 00
 0.682657 1  251             Rx   d 8 00 00 00 00 00 00 00 00
 0.683604 1  263             Rx   d 8 01 0D 00 1B 1E 00 00 00
 0.684631 1  252             Rx   d 8 00 00 00 01 00 00 00 00
 0.686651 1  253             Rx   d 8 00 00 00 00 00 00 00 00
 0.687303 1  221             Rx   d 8 00 00 00 00 00 00 00 00
 0.687522 1  311             Rx   d 8 00 00 33 5B 00 00 33 1A
 0.688649 1  254             Rx   d 8 00 00 00 02 00 00 00 00
 0.690678 1  241             Rx   d 8 AA 00 00 00 00 00 00 AF
 0.694623 1  264             Rx   d 8 01 0D 00 1A 1E 00 00 00
 0.702653 1  251             Rx   d 8 00 00 00 00 00 00 00 00
 0.704676 1  252             Rx   d 8 00 00 00 01 00 00 00 00
 0.706729 1  253             Rx   d 8 00 00 00 00 00 00 00 00
 0.707311 1  221             Rx   d 8 00 00 00 00 00 00 00 00
 0.707551 1  311             Rx   d 8 00 00 33 5B 00 00 33 1A
 0.708684 1  254             Rx   d 8 00 00 00 02 00 00 00 00
 0.710700 1  241             Rx   d 8 AA 00 00 00 00 00 00 B0
 0.722677 1  251             Rx   d 8 00 00 00 00 00 00 00 00
 0.724687 1  252             Rx   d 8 00 00 00 01 00 00 00 00
 0.726686 1  253             Rx   d 8 00 00 00 00 00 00 00 00
 0.727277 1  221             Rx   d 8 00 00 00 00 00 00 00 00
 0.727524 1  311             Rx   d 8 00 00 33 5B 00 00 33 1A
 0.728680 1  254             Rx   d 8 00 00 00 02 00 00 00 00
 0.730729 1  241             Rx   d 8 AA 00 00 00 00 00 00 B1
 0.742707 1  251             Rx   d 8 00 00 00 00 00 00 00 00
 0.744706 1  252             Rx   d 8 00 00 00 01 00 00 00 00
 0.746733 1  253             Rx   d 8 00 00 00 00 00 00 00 00
 0.747310 1  221             Rx   d 8 00 00 00 00 00 00 00 00
 0.747553 1  311             Rx   d 8 00 00 33 5B 00 00 33 1A
 0.748738 1  254             Rx   d 8 00 00 00 02 00 00 00 00
 0.750774 1  241             Rx   d 8 AA 00 00 00 00 00 00 B2
 0.761790 1  261             Rx   d 8 01 0E 00 1B 1E 00 00 00
 0.762791 1  251             Rx   d 8 00 00 00 00 00 00 00 00
 0.764702 1  252             Rx   d 8 00 00 00 01 00 00 00 00
 0.766737 1  253             Rx   d 8 00 00 00 00 00 00 00 00
 0.767317 1  221             Rx   d 8 00 00 00 00 00 00 00 00
 0.767573 1  311             Rx   d 8 00 00 33 5B 00 00 33 1A
 0.768735 1  254             Rx   d 8 00 00 00 02 00 00 00 00
 0.770787 1  241             Rx   d 8 AA 00 00 00 00 00 00 B3
 0.772743 1  262             Rx   d 8 01 0D 00 1B 1E 00 00 00
 0.782817 1  251             Rx   d 8 00 00 00 00 00 00 00 00
 0.783739 1  263             Rx   d 8 01 0D 00 1B 1E 00 00 00
 0.784813 1  252             Rx   d 8 00 00 00 01 00 00 00 00
 0.786763 1  253             Rx   d 8 00 00 00 00 00 00 00 00
 0.787320 1  221             Rx   d 8 00 00 00 00 00 00 00 00
 0.787567 1  311             Rx   d 8 00 00 33 5B 00 00 33 1A
 0.788764 1  254             Rx   d 8 00 00 00 02 00 00 00 00
 0.790864 1  241             Rx   d 8 AA 00 00 00 00 00 00 B4
 0.794765 1  264             Rx   d 8 01 0D 00 1A 1E 00 00 00
 0.802743 1  251             Rx   d 8 00 00 00 00 00 00 00 00
 0.804753 1  252             Rx   d 8 00 00 00 01 00 00 00 00
 0.806760 1  253             Rx   d 8 00 00 00 00 00 00 00 00
 0.807359 1  221             Rx   d 8 00 00 00 00 00 00 00 00
 0.807557 1  311             Rx   d 8 00 00 33 5B 00 00 33 1A
 0.808782 1  254             Rx   d 8 00 00 00 02 00 00 00 00
 0.810809 1  241             Rx   d 8 AA 00 00 00 00 00 00 B5
 0.822836 1  251             Rx   d 8 00 00 00 00 00 00 00 00
 0.824785 1  252             Rx   d 8 00 00 00 01 00 00 00 00
 0.826833 1  253             Rx   d 8 00 00 00 00 00 00 00 00
 0.827376 1  221             Rx   d 8 00 00 00 00 00 00 00 00
 0.827557 1  311             Rx   d 8 00 00 33 5B 00 00 33 1A
 0.828809 1  254             Rx   d 8 00 00 00 02 00 00 00 00
 0.830810 1  241             Rx   d 8 AA 00 00 00 00 00 00 B6
 0.842889 1  251             Rx   d 8 00 00 00 00 00 00 00 00
 0.844868 1  252             Rx   d 8 00 00 00 01 00 00 00 00
 0.846869 1  253             Rx   d 8 00 00 00 00 00 00 00 00
 0.847377 1  221             Rx   d 8 00 00 00 00 00 00 00 00
 0.847573 1  311             Rx   d 8 00 00 33 5B 00 00 33 1A
 0.848891 1  254             Rx   d 8 00 00 00 02 00 00 00 00
 0.850908 1  241             Rx   d 8 AA 00 00 00 00 00 00 B7
 0.861785 1  261             Rx   d 8 01 0D 00 1B 1E 00 00 00
 0.862809 1  251             Rx   d 8 00 00 00 00 00 00 00 00
 0.864813 1  252             Rx   d 8 00 00 00 01 00 00 00 00
 0.866862 1  253             Rx   d 8 00 00 00 00 00 00 00 00
 0.867298 1  221             Rx   d 8 00 00 00 00 00 00 00 00
 0.867535 1  311             Rx   d 8 00 00 33 5B 00 00 33 1A
 0.868810 1  254             Rx   d 8 00 00 00 02 00 00 00 00
 0.870807 1  241             Rx   d 8 AA 00 00 00 00 00 00 B8
 0.872807 1  262             Rx   d 8 01 0D 00 1B 1E 00 00 00
 0.880895 1  211             Rx   d 8 00 01 01 03 00 00 00 00
 0.882859 1  251             Rx   d 8 00 00 00 00 00 00 00 00
 0.883862 1  263             Rx   d 8 01 0E 00 1B 1E 00 00 00
 0.884868 1  252             Rx   d 8 00 00 00 01 00 00 00 00
 0.886834 1  253             Rx   d 8 00 00 00 00 00 00 00 00
 0.887318 1  221             Rx   d 8 00 00 00 00 00 00 00 00
 0.887537 1  311             Rx   d 8 00 00 33 5B 00 00 33 1A
 0.888834 1  254             Rx   d 8 00 00 00 02 00 00 00 00
 0.890881 1  241             Rx   d 8 AA 00 00 00 00 00 00 B9
 0.894832 1  264             Rx   d 8 01 0C 00 1A 1E 00 00 00
 0.902863 1  251             Rx   d 8 00 00 00 00 00 00 00 00
 0.904858 1  252             Rx   d 8 00 00 00 01 00 00 00 00
 0.906858 1  253             Rx   d 8 00 00 00 00 00 00 00 00
 0.907283 1  221             Rx   d 8 00 00 00 00 00 00 00 00
 0.907530 1  311             Rx   d 8 00 00 33 5B 00 00 33 1A
 0.908858 1  254             Rx   d 8 00 00 00 02 00 00 00 00
 0.910883 1  241             Rx   d 8 AA 00 00 00 00 00 00 BA
 0.922881 1  251             Rx   d 8 00 00 00 00 00 00 00 00
 0.924896 1  252             Rx   d 8 00 00 00 01 00 00 00 00
 0.926864 1  253             Rx   d 8 00 00 00 00 00 00 00 00
 0.927312 1  221             Rx   d 8 00 00 00 00 00 00 00 00
 0.927531 1  311             Rx   d 8 00 00 33 5B 00 00 33 1A
 0.928885 1  254             Rx   d 8 00 00 00 02 00 00 00 00
 0.930884 1  241             Rx   d 8 AA 00 00 00 00 00 00 BB
 0.942888 1  251             Rx   d 8 00 00 00 00 00 00 00 00
 0.944887 1  252             Rx   d 8 00 00 00 01 00 00 00 00
 0.946884 1  253             Rx   d 8 00 00 00 00 00 00 00 00
 0.947309 1  221             Rx   d 8 00 00 00 00 00 00 00 00
 0.947556 1  311             Rx   d 8 00 00 33 5B 00 00 33 1A
 0.948884 1  254             Rx   d 8 00 00 00 02 00 00 00 00
 0.950910 1  241             Rx   d 8 AA 00 00 00 00 00 00 BC
 0.961912 1  261             Rx   d 8 01 0D 00 1B 1E 00 00 00
 0.962910 1  251             Rx   d 8 00 00 00 00 00 00 00 00
 0.964912 1  252             Rx   d 8 00 00 00 01 00 00 00 00
 0.966911 1  253             Rx   d 8 00 00 00 00 00 00 00 00
 0.967309 1  221             Rx   d 8 00 00 00 00 00 00 00 00
 0.967558 1  311             Rx   d 8 00 00 33 5B 00 00 33 1A
 0.968911 1  254             Rx   d 8 00 00 00 02 00 00 00 00
 0.970961 1  241             Rx   d 8 AA 00 00 00 00 00 00 BD
 0.972911 1  262             Rx   d 8 01 0D 00 1B 1E 00 00 00
 0.982981 1  251             Rx   d 8 00 00 00 00 00 00 00 00
 0.983913 1  263             Rx   d 8 01 0E 00 1B 1E 00 00 00
 0.984937 1  252             Rx   d 8 00 00 00 01 00 00 00 00
 0.986937 1  253             Rx   d 8 00 00 00 00 00 00 00 00
 0.987313 1  221             Rx   d 8 00 00 00 00 00 00 00 00
 0.987559 1  311             Rx   d 8 00 00 33 5B 00 00 33 1A
 0.988937 1  254             Rx   d 8 00 00 00 02 00 00 00 00
 0.990990 1  241             Rx   d 8 AA 00 00 00 00 00 00 BE
 0.994940 1  264             Rx   d 8 01 0D 00 1A 1E 00 00 00
 1.001041 1  231             Rx   d 8 00 00 00 02 0C 00 00 00
 1.002962 1  251             Rx   d 8 00 00 00 00 00 00 00 00
 1.004963 1  252             Rx   d 8 00 00 00 01 00 00 00 00
 1.006963 1  253             Rx   d 8 00 00 00 00 00 00 00 00
 1.007313 1  221             Rx   d 8 00 00 00 00 00 00 00 00
 1.007559 1  311             Rx   d 8 00 00 33 5B 00 00 33 1A
 1.008961 1  254             Rx   d 8 00 00 00 02 00 00 00 00
 1.011013 1  241             Rx   d 8 AA 00 00 00 00 00 00 BF
 1.022964 1  251             Rx   d 8 00 00 00 00 00 00 00 00
 1.024964 1  252             Rx   d 8 00 00 00 01 00 00 00 00
 1.026989 1  253             Rx   d 8 00 00 00 00 00 00 00 00
 1.027313 1  221             Rx   d 8 00 00 00 00 00 00 00 00
 1.027561 1  311             Rx   d 8 00 00 33 5B 00 00 33 1A
 1.028987 1  254             Rx   d 8 00 00 00 02 00 00 00 00
 1.031013 1  241             Rx   d 8 AA 00 00 00 00 00 00 C0
 1.042994 1  251             Rx   d 8 00 00 00 00 00 00 00 00
 1.044991 1  252             Rx   d 8 00 00 00 01 00 00 00 00
 1.046991 1  253             Rx   d 8 00 00 00 00 00 00 00 00
 1.047313 1  221             Rx   d 8 00 00 00 00 00 00 00 00
 1.047560 1  311             Rx   d 8 00 00 33 5B 00 00 33 1A
 1.048990 1  254             Rx   d 8 00 00 00 02 00 00 00 00
 1.051066 1  241             Rx   d 8 AA 00 00 00 00 00 00 C1
 1.062018 1  261             Rx   d 8 01 0E 00 1B 1E 00 00 00
 1.063017 1  251             Rx   d 8 00 00 00 00 00 00 00 00
 1.065016 1  252             Rx   d 8 00 00 00 01 00 00 00 00
 1.067017 1  253             Rx   d 8 00 00 00 00 00 00 00 00
 1.067314 1  221             Rx   d 8 00 00 00 00 00 00 00 00
 1.067562 1  311             Rx   d 8 00 00 33 5B 00 00 33 1A
 1.069018 1  254             Rx   d 8 00 00 00 02 00 00 00 00
 1.071067 1  241             Rx   d 8 AA 00 00 00 00 00 00 C2
 1.073018 1  262             Rx   d 8 01 0D 00 1B 1E 00 00 00
 1.081070 1  211             Rx   d 8 00 01 01 03 00 00 00 00
 1.083044 1  251             Rx   d 8 00 00 00 00 00 00 00 00
 1.084018 1  263             Rx   d 8 01 0E 00 1B 1E 00 00 00
 1.085061 1  252             Rx   d 8 00 00 00 01 00 00 00 00
 1.087042 1  253             Rx   d 8 00 00 00 00 00 00 00 00
 1.087316 1  221             Rx   d 8 00 00 00 00 00 00 00 00
 1.087564 1  311             Rx   d 8 00 00 33 5B 00 00 33 1A
 1.089043 1  254             Rx   d 8 00 00 00 02 00 00 00 00
 1.091143 1  241             Rx   d 8 AA 00 00 00 00 00 00 C3
 1.095044 1  264             Rx   d 8 01 0D 00 1A 1E 00 00 00
 1.103048 1  251             Rx   d 8 00 00 00 00 00 00 00 00
 1.105070 1  252             Rx   d 8 00 00 00 01 00 00 00 00
 1.107068 1  253             Rx   d 8 00 00 00 00 00 00 00 00
 1.107316 1  221             Rx   d 8 00 00 00 00 00 00 00 00
 1.107564 1  311             Rx   d 8 00 00 33 5B 00 00 33 1A
 1.109070 1  254             Rx   d 8 00 00 00 02 00 00 00 00
 1.111141 1  241             Rx   d 8 AA 00 00 00 00 00 00 C4
 1.123071 1  251             Rx   d 8 00 00 00 00 00 00 00 00
 1.125143 1  252             Rx   d 8 00 00 00 01 00 00 00 00
 1.127069 1  253             Rx   d 8 00 00 00 00 00 00 00 00
 1.127342 1  221             Rx   d 8 00 00 00 00 00 00 00 00
 1.127565 1  311             Rx   d 8 00 00 33 5B 00 00 33 1A
 1.129071 1  254             Rx   d 8 00 00 00 02 00 00 00 00
 1.131142 1  241             Rx   d 8 AA 00 00 00 00 00 00 C5
 1.143144 1  251             Rx   d 8 00 00 00 00 00 00 00 00
 1.145142 1  252             Rx   d 8 00 00 00 01 00 00 00 00
 1.147142 1  253             Rx   d 8 00 00 00 00 00 00 00 00
 1.147365 1  221             Rx   d 8 00 00 00 00 00 00 00 00
 1.147588 1  311             Rx   d 8 00 00 33 5B 00 00 33 1A
 1.149158 1  254             Rx   d 8 00 00 00 02 00 00 00 00
 1.151143 1  241             Rx   d 8 AA 00 00 00 00 00 00 C6
 1.162146 1  261             Rx   d 8 01 0E 00 1B 1E 00 00 00
 1.163143 1  251             Rx   d 8 00 00 00 00 00 00 00 00
 1.165144 1  252             Rx   d 8 00 00 00 01 00 00 00 00
 1.167144 1  253             Rx   d 8 00 00 00 00 00 00 00 00
 1.167366 1  221             Rx   d 8 00 00 00 00 00 00 00 00
 1.167614 1  311             Rx   d 8 00 00 33 5B 00 00 33 1A
 1.169144 1  254             Rx   d 8 00 00 00 02 00 00 00 00
 1.171170 1  241             Rx   d 8 AA 00 00 00 00 00 00 C7
 1.173144 1  262             Rx   d 8 01 0D 00 1B 1E 00 00 00
 1.183146 1  251             Rx   d 8 00 00 00 00 00 00 00 00
 1.184145 1  263             Rx   d 8 01 0D 00 1B 1E 00 00 00
 1.185145 1  252             Rx   d 8 00 00 00 01 00 00 00 00
 1.187145 1  253             Rx   d 8 00 00 00 00 00 00 00 00
 1.187392 1  221             Rx   d 8 00 00 00 00 00 00 00 00
 1.187668 1  311             Rx   d 8 00 00 33 5B 00 00 33 1A
 1.189145 1  254             Rx   d 8 00 00 00 02 00 00 00 00
 1.191197 1  241             Rx   d 8 AA 00 00 00 00 00 00 C8
 1.195145 1  264             Rx   d 8 01 0D 00 1A 1E 00 00 00
 1.203146 1  251             Rx   d 8 00 00 00 00 00 00 00 00
 1.205171 1  252             Rx   d 8 00 00 00 01 00 00 00 00
 1.207172 1  253             Rx   d 8 00 00 00 00 00 00 00 00
 1.207421 1  221             Rx   d 8 00 00 00 00 00 00 00 00
 1.207643 1  311             Rx   d 8 00 00 33 5B 00 00 33 1A
 1.209172 1  254             Rx   d 8 00 00 00 02 00 00 00 00
 1.211222 1  241             Rx   d 8 AA 00 00 00 00 00 00 C9
 1.223174 1  251             Rx   d 8 00 00 00 00 00 00 00 00
 1.225173 1  252             Rx   d 8 00 00 00 02 00 00 00 00
 1.227173 1  253             Rx   d 8 00 00 00 00 00 00 00 00
 1.227420 1  221             Rx   d 8 00 00 00 00 00 00 00 00
 1.227668 1  311             Rx   d 8 00 00 33 5B 00 00 33 1A
 1.229171 1  254             Rx   d 8 00 00 00 02 00 00 00 00
 1.231223 1  241             Rx   d 8 AA 00 00 00 00 00 00 CA
 1.243199 1  251             Rx   d 8 00 00 00 00 00 00 00 00
 1.245198 1  252             Rx   d 8 00 00 00 02 00 00 00 00
 1.247198 1  253             Rx   d 8 00 00 00 00 00 00 00 00
 1.247457 1  221             Rx   d 8 00 00 00 00 00 00 00 00
 1.247692 1  311             Rx   d 8 00 00 33 5B 00 00 33 1A
 1.249210 1  254             Rx   d 8 00 00 00 02 00 00 00 00
 1.251274 1  241             Rx   d 8 AA 00 00 00 00 00 00 CB
 1.262201 1  261             Rx   d 8 01 0D 00 1B 1E 00 00 00
 1.263223 1  251             Rx   d 8 00 00 00 00 00 00 00 00
 1.265224 1  252             Rx   d 8 00 00 00 02 00 00 00 00
 1.267225 1  253             Rx   d 8 00 00 00 00 00 00 00 00
 1.267472 1  221             Rx   d 8 00 00 00 00 00 00 00 00
 1.267720 1  311             Rx   d 8 00 00 33 5B 00 00 33 1A
 1.269224 1  254             Rx   d 8 00 00 00 02 00 00 00 00
 1.271275 1  241             Rx   d 8 AA 00 00 00 00 00 00 CC
 1.273225 1  262             Rx   d 8 01 0D 00 1B 1E 00 00 00
 1.281303 1  211             Rx   d 8 00 01 01 03 00 00 00 00
 1.283252 1  251             Rx   d 8 00 00 00 00 00 00 00 00
 1.284250 1  263             Rx   d 8 01 0D 00 1B 1E 00 00 00
 1.285250 1  252             Rx   d 8 00 00 00 01 00 00 00 00
 1.287249 1  253             Rx   d 8 00 00 00 00 00 00 00 00
 1.287497 1  221             Rx   d 8 00 00 00 00 00 00 00 00
 1.287745 1  311             Rx   d 8 00 00 33 5B 00 00 33 1A
 1.289249 1  254             Rx   d 8 00 00 00 02 00 00 00 00
 1.291300 1  241             Rx   d 8 AA 00 00 00 00 00 00 CD
 1.295251 1  264             Rx   d 8 01 0D 00 1A 1E 00 00 00
 1.303276 1  251             Rx   d 8 00 00 00 00 00 00 00 00
 1.305276 1  252             Rx   d 8 00 00 00 01 00 00 00 00
 1.307277 1  253             Rx   d 8 00 00 00 00 00 00 00 00
 1.307526 1  221             Rx   d 8 00 00 00 00 00 00 00 00
 1.307749 1  311             Rx   d 8 00 00 33 5B 00 00 33 1A
 1.309277 1  254             Rx   d 8 00 00 00 02 00 00 00 00
 1.311301 1  241             Rx   d 8 AA 00 00 00 00 00 00 CE
 1.323279 1  251             Rx   d 8 00 00 00 00 00 00 00 00
 1.325277 1  252             Rx   d 8 00 00 00 01 00 00 00 00
 1.327278 1  253             Rx   d 8 00 00 00 00 00 00 00 00
 1.327525 1  221             Rx   d 8 00 00 00 00 00 00 00 00
 1.327773 1  311             Rx   d 8 00 00 33 5B 00 00 33 1A
 1.329302 1  254             Rx   d 8 00 00 00 02 00 00 00 00
 1.331328 1  241             Rx   d 8 AA 00 00 00 00 00 00 CF
 1.343306 1  251             Rx   d 8 00 00 00 00 00 00 00 00
 1.345304 1  252             Rx   d 8 00 00 00 01 00 00 00 00
 1.347306 1  253             Rx   d 8 00 00 00 00 00 00 00 00
 1.347551 1  221             Rx   d 8 00 00 00 00 00 00 00 00
 1.347800 1  311             Rx   d 8 00 00 33 5B 00 00 33 1A
 1.349303 1  254             Rx   d 8 00 00 00 02 00 00 00 00
 1.351356 1  241             Rx   d 8 AA 00 00 00 00 00 00 D0
 1.362306 1  261             Rx   d 8 01 0D 00 1B 1E 00 00 00
 1.363330 1  251             Rx   d 8 00 00 00 00 00 00 00 00
 1.365329 1  252             Rx   d 8 00 00 00 01 00 00 00 00
 1.367331 1  253             Rx   d 8 00 00 00 00 00 00 00 00
 1.367577 1  221             Rx   d 8 00 00 00 00 00 00 00 00
 1.367826 1  311             Rx   d 8 00 00 33 5B 00 00 33 1A
 1.369333 1  254             Rx   d 8 00 00 00 02 00 00 00 00
 1.371381 1  241             Rx   d 8 AA 00 00 00 00 00 00 D1
 1.373330 1  262             Rx   d 8 01 0D 00 1B 1E 00 00 00
 1.383370 1  251             Rx   d 8 00 00 00 00 00 00 00 00
 1.384336 1  263             Rx   d 8 01 0E 00 1B 1E 00 00 00
 1.385358 1  252             Rx   d 8 00 00 00 01 00 00 00 00
 1.387381 1  221             Rx   d 8 00 00 00 00 00 00 00 00
 1.387628 1  311             Rx   d 8 00 00 33 5B 00 00 33 1A
 1.387875 1  253             Rx   d 8 00 00 00 00 00 00 00 00
 1.389355 1  254             Rx   d 8 00 00 00 02 00 00 00 00
 1.391381 1  241             Rx   d 8 AA 00 00 00 00 00 00 D2
 1.395356 1  264             Rx   d 8 01 0D 00 1A 1E 00 00 00
 1.403360 1  251             Rx   d 8 00 00 00 00 00 00 00 00
 1.405381 1  252             Rx   d 8 00 00 00 01 00 00 00 00
 1.407381 1  221             Rx   d 8 00 00 00 00 00 00 00 00
 1.407605 1  311             Rx   d 8 00 00 33 5B 00 00 33 1A
 1.407877 1  253             Rx   d 8 00 00 00 00 00 00 00 00
 1.409384 1  254             Rx   d 8 00 00 00 02 00 00 00 00
 1.411435 1  241             Rx   d 8 AA 00 00 00 00 00 00 D3
 1.423385 1  251             Rx   d 8 00 00 00 00 00 00 00 00
 1.425411 1  252             Rx   d 8 00 00 00 01 00 00 00 00
 1.427358 1  221             Rx   d 8 00 00 00 00 00 00 00 00
 1.427605 1  311             Rx   d 8 00 00 33 5B 00 00 33 1A
 1.427852 1  253             Rx   d 8 00 00 00 00 00 00 00 00
 1.429406 1  254             Rx   d 8 00 00 00 02 00 00 00 00
 1.431407 1  241             Rx   d 8 AA 00 00 00 00 00 00 D4
 1.443423 1  251             Rx   d 8 00 00 00 00 00 00 00 00
 1.445409 1  252             Rx   d 8 00 00 00 01 00 00 00 00
 1.447384 1  221             Rx   d 8 00 00 00 00 00 00 00 00
 1.447603 1  311             Rx   d 8 00 00 33 5B 00 00 33 1A
 1.447851 1  253             Rx   d 8 00 00 00 00 00 00 00 00
 1.449407 1  254             Rx   d 8 00 00 00 02 00 00 00 00
 1.451459 1  241             Rx   d 8 AA 00 00 00 00 00 00 D5
 1.462410 1  261             Rx   d 8 01 0D 00 1B 1E 00 00 00
 1.463433 1  251             Rx   d 8 00 00 00 00 00 00 00 00
 1.465432 1  252             Rx   d 8 00 00 00 01 00 00 00 00
 1.467385 1  221             Rx   d 8 00 00 00 00 00 00 00 00
 1.467608 1  311             Rx   d 8 00 00 33 5B 00 00 33 1A
 1.467857 1  253             Rx   d 8 00 00 00 00 00 00 00 00
 1.469434 1  254             Rx   d 8 00 00 00 02 00 00 00 00
 1.471483 1  241             Rx   d 8 AA 00 00 00 00 00 00 D6
 1.473434 1  262             Rx   d 8 01 0D 00 1B 1E 00 00 00
 1.481486 1  211             Rx   d 8 00 01 01 03 00 00 00 00
 1.483488 1  251             Rx   d 8 00 00 00 00 00 00 00 00
 1.484433 1  263             Rx   d 8 01 0E 00 1B 1E 00 00 00
 1.485458 1  252             Rx   d 8 00 00 00 01 00 00 00 00
 1.487394 1  221             Rx   d 8 00 00 00 00 00 00 00 00
 1.487633 1  311             Rx   d 8 00 00 33 5B 00 00 33 1A
 1.487881 1  253             Rx   d 8 00 00 00 00 00 00 00 00
 1.489458 1  254             Rx   d 8 00 00 00 02 00 00 00 00
 1.491510 1  241             Rx   d 8 AA 00 00 00 00 00 00 D7
 1.495460 1  264             Rx   d 8 01 0D 00 1A 1E 00 00 00
 1.501535 1  231             Rx   d 8 00 00 00 02 08 00 00 00
 1.503485 1  251             Rx   d 8 00 00 00 00 00 00 00 00
 1.505485 1  252             Rx   d 8 00 00 00 01 00 00 00 00
 1.507385 1  221             Rx   d 8 00 00 00 00 00 00 00 00
 1.507633 1  311             Rx   d 8 00 00 33 5B 00 00 33 1A
 1.507855 1  253             Rx   d 8 00 00 00 00 00 00 00 00
 1.509486 1  254             Rx   d 8 00 00 00 02 00 00 00 00
 1.511484 1  241             Rx   d 8 AA 00 00 00 00 00 00 D8
 1.523489 1  251             Rx   d 8 00 00 00 00 00 00 00 00
 1.525490 1  252             Rx   d 8 00 00 00 01 00 00 00 00
 1.527387 1  221             Rx   d 8 00 00 00 00 00 00 00 00
 1.527635 1  311             Rx   d 8 00 00 33 5B 00 00 33 1A
 1.527884 1  253             Rx   d 8 00 00 00 00 00 00 00 00
 1.529510 1  254             Rx   d 8 00 00 00 02 00 00 00 00
 1.531555 1  241             Rx   d 8 AA 00 00 00 00 00 00 D9
 1.543514 1  251             Rx   d 8 00 00 00 00 00 00 00 00
 1.545512 1  252             Rx   d 8 00 00 00 01 00 00 00 00
 1.547386 1  221             Rx   d 8 00 00 00 00 00 00 00 00
 1.547636 1  311             Rx   d 8 00 00 33 5B 00 00 33 1A
 1.547883 1  253             Rx   d 8 00 00 00 00 00 00 00 00
 1.549511 1  254             Rx   d 8 00 00 00 02 00 00 00 00
 1.551588 1  241             Rx   d 8 AA 00 00 00 00 00 00 DA
 1.562517 1  261             Rx   d 8 01 0D 00 1B 1E 00 00 00
 1.563538 1  251             Rx   d 8 00 00 00 00 00 00 00 00
 1.565538 1  252             Rx   d 8 00 00 00 01 00 00 00 00
 1.567387 1  221             Rx   d 8 00 00 00 00 00 00 00 00
 1.567635 1  311             Rx   d 8 00 00 33 5B 00 00 33 1A
 1.567883 1  253             Rx   d 8 00 00 00 00 00 00 00 00
 1.569539 1  254             Rx   d 8 00 00 00 02 00 00 00 00
 1.571587 1  241             Rx   d 8 AA 00 00 00 00 00 00 DB
 1.573553 1  262             Rx   d 8 01 0D 00 1B 1E 00 00 00
 1.583565 1  251             Rx   d 8 00 00 00 00 00 00 00 00
 1.584538 1  263             Rx   d 8 01 0D 00 1B 1E 00 00 00
 1.585563 1  252             Rx   d 8 00 00 00 01 00 00 00 00
 1.587389 1  221             Rx   d 8 00 00 00 00 00 00 00 00
 1.587637 1  311             Rx   d 8 00 00 33 5B 00 00 33 1A
 1.587885 1  253             Rx   d 8 00 00 00 00 00 00 00 00
 1.589563 1  254             Rx   d 8 00 00 00 02 00 00 00 00
 1.591589 1  241             Rx   d 8 AA 00 00 00 00 00 00 DC
 1.595563 1  264             Rx   d 8 01 0C 00 1A 1E 00 00 00
 1.603566 1  251             Rx   d 8 00 00 00 00 00 00 00 00
 1.605589 1  252             Rx   d 8 00 00 00 01 00 00 00 00
 1.607390 1  221             Rx   d 8 00 00 00 00 00 00 00 00
 1.607637 1  311             Rx   d 8 00 00 33 5B 00 00 33 1A
 1.607886 1  253             Rx   d 8 00 00 00 00 00 00 00 00
 1.609593 1  254             Rx   d 8 00 00 00 02 00 00 00 00
 1.611641 1  241             Rx   d 8 AA 00 00 00 00 00 00 DD
 1.623593 1  251             Rx   d 8 00 00 00 00 00 00 00 00
 1.625596 1  252             Rx   d 8 00 00 00 01 00 00 00 00
 1.627392 1  221             Rx   d 8 00 00 00 00 00 00 00 00
 1.627640 1  311             Rx   d 8 00 00 33 5B 00 00 33 1A
 1.627888 1  253             Rx   d 8 00 00 00 00 00 00 00 00
 1.629615 1  254             Rx   d 8 00 00 00 02 00 00 00 00
 1.631666 1  241             Rx   d 8 AA 00 00 00 00 00 00 DE
 1.643619 1  251             Rx   d 8 00 00 00 00 00 00 00 00
 1.645619 1  252             Rx   d 8 00 00 00 01 00 00 00 00
 1.647391 1  221             Rx   d 8 00 00 00 00 00 00 00 00
 1.647638 1  311             Rx   d 8 00 00 33 5B 00 00 33 1A
 1.647887 1  253             Rx   d 8 00 00 00 00 00 00 00 00
 1.649641 1  254             Rx   d 8 00 00 00 02 00 00 00 00
 1.651693 1  241             Rx   d 8 AA 00 00 00 00 00 00 DF
 1.662620 1  261             Rx   d 8 01 0D 00 1B 1E 00 00 00
 1.663642 1  251             Rx   d 8 00 00 00 00 00 00 00 00
 1.665642 1  252             Rx   d 8 00 00 00 01 00 00 00 00
 1.667417 1  221             Rx   d 8 00 00 00 00 00 00 00 00
 1.667642 1  311             Rx   d 8 00 00 33 5B 00 00 33 1A
 1.667890 1  253             Rx   d 8 00 00 00 00 00 00 00 00
 1.669643 1  254             Rx   d 8 00 00 00 02 00 00 00 00
 1.671692 1  241             Rx   d 8 AA 00 00 00 00 00 00 E0
 1.673643 1  262             Rx   d 8 01 0D 00 1B 1E 00 00 00
 1.681648 1  211             Rx   d 8 00 01 01 03 00 00 00 00
 1.683679 1  251             Rx   d 8 00 00 00 00 00 00 00 00
 1.684649 1  263             Rx   d 8 01 0E 00 1B 1E 00 00 00
 1.685669 1  252             Rx   d 8 00 00 00 01 00 00 00 00
 1.687401 1  221             Rx   d 8 00 00 00 00 00 00 00 00
 1.687643 1  311             Rx   d 8 00 00 33 5B 00 00 33 1A
 1.687890 1  253             Rx   d 8 00 00 00 00 00 00 00 00
 1.689668 1  254             Rx   d 8 00 00 00 02 00 00 00 00
 1.691719 1  241             Rx   d 8 AA 00 00 00 00 00 00 E1
 1.695668 1  264             Rx   d 8 01 0C 00 1A 1E 00 00 00
 1.703670 1  251             Rx   d 8 00 00 00 00 00 00 00 00
 1.705694 1  252             Rx   d 8 00 00 00 01 00 00 00 00
 1.707419 1  221             Rx   d 8 00 00 00 00 00 00 00 00
 1.707642 1  311             Rx   d 8 00 00 33 5B 00 00 33 1A
 1.707892 1  253             Rx   d 8 00 00 00 00 00 00 00 00
 1.709696 1  254             Rx   d 8 00 00 00 02 00 00 00 00
 1.711746 1  241             Rx   d 8 AA 00 00 00 00 00 00 E2
 1.723735 1  251             Rx   d 8 00 00 00 00 00 00 00 00
 1.725732 1  252             Rx   d 8 00 00 00 01 00 00 00 00
 1.727422 1  221             Rx   d 8 00 00 00 00 00 00 00 00
 1.727643 1  311             Rx   d 8 00 00 33 5B 00 00 33 1A
 1.727916 1  253             Rx   d 8 00 00 00 00 00 00 00 00
 1.729721 1  254             Rx   d 8 00 00 00 02 00 00 00 00
 1.731745 1  241             Rx   d 8 AA 00 00 00 00 00 00 E3
 1.743722 1  251             Rx   d 8 00 00 00 00 00 00 00 00
 1.745721 1  252             Rx   d 8 00 00 00 01 00 00 00 00
 1.747421 1  221             Rx   d 8 00 00 00 00 00 00 00 00
 1.747668 1  311             Rx   d 8 00 00 33 5B 00 00 33 1A
 1.747916 1  253             Rx   d 8 00 00 00 00 00 00 00 00
 1.749721 1  254             Rx   d 8 00 00 00 02 00 00 00 00
 1.751798 1  241             Rx   d 8 AA 00 00 00 00 00 00 E4
 1.762724 1  261             Rx   d 8 01 0D 00 1B 1E 00 00 00
 1.763748 1  251             Rx   d 8 00 00 00 00 00 00 00 00
 1.765745 1  252             Rx   d 8 00 00 00 01 00 00 00 00
 1.767423 1  221             Rx   d 8 00 00 00 00 00 00 00 00
 1.767645 1  311             Rx   d 8 00 00 33 5B 00 00 33 1A
 1.767920 1  253             Rx   d 8 00 00 00 00 00 00 00 00
 1.769747 1  254             Rx   d 8 00 00 00 02 00 00 00 00
 1.771797 1  241             Rx   d 8 AA 00 00 00 00 00 00 E5
 1.773748 1  262             Rx   d 8 01 0D 00 1B 1E 00 00 00
 1.783776 1  251             Rx   d 8 00 00 00 00 00 00 00 00
 1.784746 1  263             Rx   d 8 01 0D 00 1B 1E 00 00 00
 1.785791 1  252             Rx   d 8 00 00 00 01 00 00 00 00
 1.787422 1  221             Rx   d 8 00 00 00 00 00 00 00 00
 1.787671 1  311             Rx   d 8 00 00 33 5B 00 00 33 1A
 1.787920 1  253             Rx   d 8 00 00 00 00 00 00 00 00
 1.789773 1  254             Rx   d 8 00 00 00 02 00 00 00 00
 1.791798 1  241             Rx   d 8 AA 00 00 00 00 00 00 E6
 1.795774 1  264             Rx   d 8 01 0D 00 1A 1E 00 00 00
 1.803800 1  251             Rx   d 8 00 00 00 00 00 00 00 00
 1.805801 1  252             Rx   d 8 00 00 00 01 00 00 00 00
 1.807423 1  221             Rx   d 8 00 00 00 00 00 00 00 00
 1.807671 1  311             Rx   d 8 00 00 33 5B 00 00 33 1A
 1.807920 1  253             Rx   d 8 00 00 00 00 00 00 00 00
 1.809799 1  254             Rx   d 8 00 00 00 02 00 00 00 00
 1.811850 1  241             Rx   d 8 AA 00 00 00 00 00 00 E7
 1.823807 1  251             Rx   d 8 00 00 00 00 00 00 00 00
 1.825801 1  252             Rx   d 8 00 00 00 01 00 00 00 00
 1.827424 1  221             Rx   d 8 00 00 00 00 00 00 00 00
 1.827671 1  311             Rx   d 8 00 00 33 5B 00 00 33 1A
 1.827920 1  253             Rx   d 8 00 00 00 00 00 00 00 00
 1.829801 1  254             Rx   d 8 00 00 00 02 00 00 00 00
 1.831850 1  241             Rx   d 8 AA 00 00 00 00 00 00 E8
 1.843826 1  251             Rx   d 8 00 00 00 00 00 00 00 00
 1.845827 1  252             Rx   d 8 00 00 00 01 00 00 00 00
 1.847426 1  221             Rx   d 8 00 00 00 00 00 00 00 00
 1.847673 1  311             Rx   d 8 00 00 33 5B 00 00 33 1A
 1.847921 1  253             Rx   d 8 00 00 00 00 00 00 00 00
 1.849824 1  254             Rx   d 8 00 00 00 02 00 00 00 00
 1.851828 1  241             Rx   d 8 AA 00 00 00 00 00 00 E9
 1.862828 1  261             Rx   d 8 01 0D 00 1B 1E 00 00 00
 1.863864 1  251             Rx   d 8 00 00 00 00 00 00 00 00
 1.865868 1  252             Rx   d 8 00 00 00 01 00 00 00 00
 1.867426 1  221             Rx   d 8 00 00 00 00 00 00 00 00
 1.867674 1  311             Rx   d 8 00 00 33 5B 00 00 33 1A
 1.867923 1  253             Rx   d 8 00 00 00 00 00 00 00 00
 1.869853 1  254             Rx   d 8 00 00 00 02 00 00 00 00
 1.871901 1  241             Rx   d 8 AA 00 00 00 00 00 00 EA
 1.873853 1  262             Rx   d 8 01 0D 00 1B 1E 00 00 00
 1.881964 1  211             Rx   d 8 00 01 01 03 00 00 00 00
 1.883855 1  251             Rx   d 8 00 00 00 00 00 00 00 00
 1.884851 1  263             Rx   d 8 01 0D 00 1B 1E 00 00 00
 1.885885 1  252             Rx   d 8 00 00 00 01 00 00 00 00
 1.887428 1  221             Rx   d 8 00 00 00 00 00 00 00 00
 1.887675 1  311             Rx   d 8 00 00 33 5B 00 00 33 1A
 1.887923 1  253             Rx   d 8 00 00 00 00 00 00 00 00
 1.889877 1  254             Rx   d 8 00 00 00 02 00 00 00 00
 1.891902 1  241             Rx   d 8 AA 00 00 00 00 00 00 EB
 1.895878 1  264             Rx   d 8 01 0C 00 1A 1E 00 00 00
 1.903879 1  251             Rx   d 8 00 00 00 00 00 00 00 00
 1.905904 1  252             Rx   d 8 00 00 00 01 00 00 00 00
 1.907452 1  221             Rx   d 8 00 00 00 00 00 00 00 00
 1.907675 1  311             Rx   d 8 00 00 33 5B 00 00 33 1A
 1.907924 1  253             Rx   d 8 00 00 00 00 00 00 00 00
 1.909903 1  254             Rx   d 8 00 00 00 02 00 00 00 00
 1.911906 1  241             Rx   d 8 AA 00 00 00 00 00 00 EC
 1.923912 1  251             Rx   d 8 00 00 00 00 00 00 00 00
 1.925909 1  252             Rx   d 8 00 00 00 01 00 00 00 00
 1.927456 1  221             Rx   d 8 00 00 00 00 00 00 00 00
 1.927677 1  311             Rx   d 8 00 00 33 5B 00 00 33 1A
 1.927924 1  253             Rx   d 8 00 00 00 00 00 00 00 00
 1.929929 1  254             Rx   d 8 00 00 00 02 00 00 00 00
 1.931956 1  241             Rx   d 8 AA 00 00 00 00 00 00 ED
 1.943946 1  251             Rx   d 8 00 00 00 00 00 00 00 00
 1.945930 1  252             Rx   d 8 00 00 00 01 00 00 00 00
 1.947456 1  221             Rx   d 8 00 00 00 00 00 00 00 00
 1.947677 1  311             Rx   d 8 00 00 33 5B 00 00 33 1A
 1.947925 1  253             Rx   d 8 00 00 00 00 00 00 00 00
 1.949931 1  254             Rx   d 8 00 00 00 02 00 00 00 00
 1.951981 1  241             Rx   d 8 AA 00 00 00 00 00 00 EE
 1.962934 1  261             Rx   d 8 01 0D 00 1B 1E 00 00 00
 1.963955 1  251             Rx   d 8 00 00 00 00 00 00 00 00
 1.965955 1  252             Rx   d 8 00 00 00 01 00 00 00 00
 1.967455 1  221             Rx   d 8 00 00 00 00 00 00 00 00
 1.967677 1  311             Rx   d 8 00 00 33 5B 00 00 33 1A
 1.967952 1  253             Rx   d 8 00 00 00 00 00 00 00 00
 1.969956 1  254             Rx   d 8 00 00 00 02 00 00 00 00
 1.972006 1  241             Rx   d 8 AA 00 00 00 00 00 00 EF
 1.973957 1  262             Rx   d 8 01 0D 00 1B 1E 00 00 00
 1.983986 1  251             Rx   d 8 00 00 00 00 00 00 00 00
 1.984956 1  263             Rx   d 8 01 0E 00 1B 1E 00 00 00
 1.985982 1  252             Rx   d 8 00 00 00 01 00 00 00 00
 1.987456 1  221             Rx   d 8 00 00 00 00 00 00 00 00
 1.987681 1  311             Rx   d 8 00 00 33 5B 00 00 33 1A
 1.987978 1  253             Rx   d 8 00 00 00 00 00 00 00 00
 1.989982 1  254             Rx   d 8 00 00 00 02 00 00 00 00
 1.992007 1  241             Rx   d 8 AA 00 00 00 00 00 00 F0
 1.995984 1  264             Rx   d 8 01 0C 00 1A 1E 00 00 00
 2.002058 1  231             Rx   d 8 00 00 00 02 1C 00 00 00
 2.003983 1  251             Rx   d 8 00 00 00 00 00 00 00 00
 2.005983 1  252             Rx   d 8 00 00 00 01 00 00 00 00
 2.007457 1  221             Rx   d 8 00 00 00 00 00 00 00 00
 2.007679 1  311             Rx   d 8 00 00 33 5B 00 00 33 1A
 2.008004 1  253             Rx   d 8 00 00 00 00 00 00 00 00
 2.010010 1  254             Rx   d 8 00 00 00 02 00 00 00 00
 2.012038 1  241             Rx   d 8 AA 00 00 00 00 00 00 F1
 2.024012 1  251             Rx   d 8 00 00 00 00 00 00 00 00
 2.026010 1  252             Rx   d 8 00 00 00 01 00 00 00 00
 2.027459 1  221             Rx   d 8 00 00 00 00 00 00 00 00
 2.027683 1  311             Rx   d 8 00 00 33 5B 00 00 33 1A
 2.028031 1  253             Rx   d 8 00 00 00 00 00 00 00 00
 2.030010 1  254             Rx   d 8 00 00 00 02 00 00 00 00
 2.032035 1  241             Rx   d 8 AA 00 00 00 00 00 00 F2
 2.044036 1  251             Rx   d 8 00 00 00 00 00 00 00 00
 2.046036 1  252             Rx   d 8 00 00 00 01 00 00 00 00
 2.047461 1  221             Rx   d 8 00 00 00 00 00 00 00 00
 2.047685 1  311             Rx   d 8 00 00 33 5B 00 00 33 1A
 2.048033 1  253             Rx   d 8 00 00 00 00 00 00 00 00
 2.050035 1  254             Rx   d 8 00 00 00 02 00 00 00 00
 2.052112 1  241             Rx   d 8 AA 00 00 00 00 00 00 F3
 2.063039 1  261             Rx   d 8 01 0E 00 1B 1E 00 00 00
 2.064062 1  251             Rx   d 8 00 00 00 00 00 00 00 00
 2.066061 1  252             Rx   d 8 00 00 00 01 00 00 00 00
 2.067461 1  221             Rx   d 8 00 00 00 00 00 00 00 00
 2.067708 1  311             Rx   d 8 00 00 33 5B 00 00 33 1A
 2.068057 1  253             Rx   d 8 00 00 00 00 00 00 00 00
 2.070063 1  254             Rx   d 8 00 00 00 02 00 00 00 00
 2.072112 1  241             Rx   d 8 AA 00 00 00 00 00 00 F4
 2.074061 1  262             Rx   d 8 01 0D 00 1B 1E 00 00 00
 2.082113 1  211             Rx   d 8 00 01 01 03 00 00 00 00
 2.084066 1  251             Rx   d 8 00 00 00 00 00 00 00 00
 2.085063 1  263             Rx   d 8 01 0E 00 1B 1E 00 00 00
 2.086064 1  252             Rx   d 8 00 00 00 01 00 00 00 00
 2.087462 1  221             Rx   d 8 00 00 00 00 00 00 00 00
 2.087711 1  311             Rx   d 8 00 00 33 5B 00 00 33 1A
 2.088085 1  253             Rx   d 8 00 00 00 00 00 00 00 00
 2.090089 1  254             Rx   d 8 00 00 00 02 00 00 00 00
 2.092113 1  241             Rx   d 8 AA 00 00 00 00 00 00 F5
 2.096090 1  264             Rx   d 8 01 0D 00 1A 1E 00 00 00
 2.104090 1  251             Rx   d 8 00 00 00 00 00 00 00 00
 2.106113 1  252             Rx   d 8 00 00 00 01 00 00 00 00
 2.107464 1  221             Rx   d 8 00 00 00 00 00 00 00 00
 2.107713 1  311             Rx   d 8 00 00 33 5B 00 00 33 1A
 2.108087 1  253             Rx   d 8 00 00 00 00 00 00 00 00
 2.110115 1  254             Rx   d 8 00 00 00 02 00 00 00 00
 2.112187 1  241             Rx   d 8 AA 00 00 00 00 00 00 F6
 2.124118 1  251             Rx   d 8 00 00 00 00 00 00 00 00
 2.126116 1  252             Rx   d 8 00 00 00 01 00 00 00 00
 2.127463 1  221             Rx   d 8 00 00 00 00 00 00 00 00
 2.127713 1  311             Rx   d 8 00 00 33 5B 00 00 33 1A
 2.128111 1  253             Rx   d 8 00 00 00 00 00 00 00 00
 2.130115 1  254             Rx   d 8 00 00 00 02 00 00 00 00
 2.132187 1  241             Rx   d 8 AA 00 00 00 00 00 00 F7
 2.144189 1  251             Rx   d 8 00 00 00 00 00 00 00 00
 2.146188 1  252             Rx   d 8 00 00 00 01 00 00 00 00
 2.147463 1  221             Rx   d 8 00 00 00 00 00 00 00 00
 2.147711 1  311             Rx   d 8 00 00 33 5B 00 00 33 1A
 2.148134 1  253             Rx   d 8 00 00 00 00 00 00 00 00
 2.150189 1  254             Rx   d 8 00 00 00 02 00 00 00 00
 2.152189 1  241             Rx   d 8 AA 00 00 00 00 00 00 F8
 2.163191 1  261             Rx   d 8 01 0D 00 1B 1E 00 00 00
 2.164189 1  251             Rx   d 8 00 00 00 00 00 00 00 00
 2.166189 1  252             Rx   d 8 00 00 00 01 00 00 00 00
 2.167489 1  221             Rx   d 8 00 00 00 00 00 00 00 00
 2.167712 1  311             Rx   d 8 00 00 33 5B 00 00 33 1A
 2.168188 1  253             Rx   d 8 00 00 00 00 00 00 00 00
 2.170190 1  254             Rx   d 8 00 00 00 02 00 00 00 00
 2.172233 1  241             Rx   d 8 AA 00 00 00 00 00 00 F9
 2.174189 1  262             Rx   d 8 01 0D 00 1B 1E 00 00 00
 2.184192 1  251             Rx   d 8 00 00 00 00 00 00 00 00
 2.185192 1  263             Rx   d 8 01 0E 00 1B 1E 00 00 00
 2.186189 1  252             Rx   d 8 00 00 00 02 00 00 00 00
 2.187491 1  221             Rx   d 8 00 00 00 00 00 00 00 00
 2.187715 1  311             Rx   d 8 00 00 33 5B 00 00 33 1A
 2.188190 1  253             Rx   d 8 00 00 00 00 00 00 00 00
 2.190191 1  254             Rx   d 8 00 00 00 02 00 00 00 00
 2.192217 1  241             Rx   d 8 AA 00 00 00 00 00 00 FA
 2.196192 1  264             Rx   d 8 01 0D 00 1A 1E 00 00 00
 2.204191 1  251             Rx   d 8 00 00 00 00 00 00 00 00
 2.206192 1  252             Rx   d 8 00 00 00 02 00 00 00 00
 2.207468 1  221             Rx   d 8 00 00 00 00 00 00 00 00
 2.207716 1  311             Rx   d 8 00 00 33 5B 00 00 33 1A
 2.208191 1  253             Rx   d 8 00 00 00 00 00 00 00 00
 2.210192 1  254             Rx   d 8 00 00 00 02 00 00 00 00
 2.212268 1  241             Rx   d 8 AA 00 00 00 00 00 00 FB
 2.224225 1  251             Rx   d 8 00 00 00 00 00 00 00 00
 2.226219 1  252             Rx   d 8 00 00 00 01 00 00 00 00
 2.227493 1  221             Rx   d 8 00 00 00 00 00 00 00 00
 2.227717 1  311             Rx   d 8 00 00 33 5B 00 00 33 1A
 2.228218 1  253             Rx   d 8 00 00 00 00 00 00 00 00
 2.230242 1  254             Rx   d 8 00 00 00 02 00 00 00 00
 2.232268 1  241             Rx   d 8 AA 00 00 00 00 00 00 FC
 2.244243 1  251             Rx   d 8 00 00 00 00 00 00 00 00
 2.246243 1  252             Rx   d 8 00 00 00 01 00 00 00 00
 2.247495 1  221             Rx   d 8 00 00 00 00 00 00 00 00
 2.247718 1  311             Rx   d 8 00 00 33 5B 00 00 33 1A
 2.248243 1  253             Rx   d 8 00 00 00 00 00 00 00 00
 2.250244 1  254             Rx   d 8 00 00 00 02 00 00 00 00
 2.252321 1  241             Rx   d 8 AA 00 00 00 00 00 00 FD
 2.263247 1  261             Rx   d 8 01 0E 00 1B 1E 00 00 00
 2.264272 1  251             Rx   d 8 00 00 00 00 00 00 00 00
 2.266271 1  252             Rx   d 8 00 00 00 01 00 00 00 00
 2.267496 1  221             Rx   d 8 00 00 00 00 00 00 00 00
 2.267718 1  311             Rx   d 8 00 00 33 5B 00 00 33 1A
 2.268272 1  253             Rx   d 8 00 00 00 00 00 00 00 00
 2.270269 1  254             Rx   d 8 00 00 00 02 00 00 00 00
 2.272308 1  241             Rx   d 8 AA 00 00 00 00 00 00 FE
 2.274270 1  262             Rx   d 8 01 0D 00 1B 1E 00 00 00
 2.282272 1  211             Rx   d 8 00 01 01 03 00 00 00 00
 2.284271 1  251             Rx   d 8 00 00 00 00 00 00 00 00
 2.285272 1  263             Rx   d 8 01 0E 00 1B 1E 00 00 00
 2.286296 1  252             Rx   d 8 00 00 00 01 00 00 00 00
 2.287496 1  221             Rx   d 8 00 00 00 00 00 00 00 00
 2.287717 1  311             Rx   d 8 00 00 33 5B 00 00 33 1A
 2.288296 1  253             Rx   d 8 00 00 00 00 00 00 00 00
 2.290296 1  254             Rx   d 8 00 00 00 02 00 00 00 00
 2.292348 1  241             Rx   d 8 AA 00 00 00 00 00 00 FF
 2.296298 1  264             Rx   d 8 01 0C 00 1A 1E 00 00 00
 2.304297 1  251             Rx   d 8 00 00 00 00 00 00 00 00
 2.306296 1  252             Rx   d 8 00 00 00 01 00 00 00 00
 2.307497 1  221             Rx   d 8 00 00 00 00 00 00 00 00
 2.307747 1  311             Rx   d 8 00 00 33 5B 00 00 33 1A
 2.308299 1  253             Rx   d 8 00 00 00 00 00 00 00 00
 2.310321 1  254             Rx   d 8 00 00 00 02 00 00 00 00
 2.312323 1  241             Rx   d 8 AA 00 00 00 00 00 00 00
 2.324327 1  251             Rx   d 8 00 00 00 00 00 00 00 00
 2.326324 1  252             Rx   d 8 00 00 00 01 00 00 00 00
 2.327499 1  221             Rx   d 8 00 00 00 00 00 00 00 00
 2.327745 1  311             Rx   d 8 00 00 33 5B 00 00 33 1A
 2.328324 1  253             Rx   d 8 00 00 00 00 00 00 00 00
 2.330322 1  254             Rx   d 8 00 00 00 02 00 00 00 00
 2.332373 1  241             Rx   d 8 AA 00 00 00 00 00 00 01
 2.344349 1  251             Rx   d 8 00 00 00 00 00 00 00 00
 2.346349 1  252             Rx   d 8 00 00 00 01 00 00 00 00
 2.347498 1  221             Rx   d 8 00 00 00 00 00 00 00 00
 2.347747 1  311             Rx   d 8 00 00 33 5B 00 00 33 1A
 2.348350 1  253             Rx   d 8 00 00 00 00 00 00 00 00
 2.350348 1  254             Rx   d 8 00 00 00 02 00 00 00 00
 2.352376 1  241             Rx   d 8 AA 00 00 00 00 00 00 02
 2.363351 1  261             Rx   d 8 01 0E 00 1B 1E 00 00 00
 2.364395 1  251             Rx   d 8 00 00 00 00 00 00 00 00
 2.366381 1  252             Rx   d 8 00 00 00 01 00 00 00 00
 2.367498 1  221             Rx   d 8 00 00 00 00 00 00 00 00
 2.367745 1  311             Rx   d 8 00 00 33 5B 00 00 33 1A
 2.368373 1  253             Rx   d 8 00 00 00 00 00 00 00 00
 2.370373 1  254             Rx   d 8 00 00 00 02 00 00 00 00
 2.372424 1  241             Rx   d 8 AA 00 00 00 00 00 00 03
 2.374374 1  262             Rx   d 8 01 0D 00 1B 1E 00 00 00
 2.384378 1  251             Rx   d 8 00 00 00 00 00 00 00 00
 2.385377 1  263             Rx   d 8 01 0D 00 1B 1E 00 00 00
 2.386376 1  252             Rx   d 8 00 00 00 01 00 00 00 00
 2.387504 1  221             Rx   d 8 00 00 00 00 00 00 00 00
 2.387747 1  311             Rx   d 8 00 00 33 5B 00 00 33 1A
 2.388402 1  253             Rx   d 8 00 00 00 00 00 00 00 00
 2.390400 1  254             Rx   d 8 00 00 00 02 00 00 00 00
 2.392426 1  241             Rx   d 8 AA 00 00 00 00 00 00 04
 2.396402 1  264             Rx   d 8 01 0C 00 1A 1E 00 00 00
 2.404402 1  251             Rx   d 8 00 00 00 00 00 00 00 00
 2.406401 1  252             Rx   d 8 00 00 00 01 00 00 00 00
 2.407505 1  221             Rx   d 8 00 00 00 00 00 00 00 00
 2.407749 1  311             Rx   d 8 00 00 33 5B 00 00 33 1A
 2.408403 1  253             Rx   d 8 00 00 00 00 00 00 00 00
 2.410425 1  254             Rx   d 8 00 00 00 02 00 00 00 00
 2.412477 1  241             Rx   d 8 AA 00 00 00 00 00 00 05
 2.424441 1  251             Rx   d 8 00 00 00 00 00 00 00 00
 2.426440 1  252             Rx   d 8 00 00 00 01 00 00 00 00
 2.427502 1  221             Rx   d 8 00 00 00 00 00 00 00 00
 2.427749 1  311             Rx   d 8 00 00 33 5B 00 00 33 1A
 2.428425 1  253             Rx   d 8 00 00 00 00 00 00 00 00
 2.430459 1  254             Rx   d 8 00 00 00 02 00 00 00 00
 2.432477 1  241             Rx   d 8 AA 00 00 00 00 00 00 06
 2.444484 1  251             Rx   d 8 00 00 00 00 00 00 00 00
 2.446481 1  252             Rx   d 8 00 00 00 01 00 00 00 00
 2.447560 1  221             Rx   d 8 00 00 00 00 00 00 00 00
 2.447754 1  311             Rx   d 8 00 00 33 5B 00 00 33 1A
 2.448480 1  253             Rx   d 8 00 00 00 00 00 00 00 00
 2.450486 1  254             Rx   d 8 00 00 00 02 00 00 00 00
 2.452556 1  241             Rx   d 8 AA 00 00 00 00 00 00 07
 2.463486 1  261             Rx   d 8 01 0D 00 1B 1E 00 00 00
 2.464511 1  251             Rx   d 8 00 00 00 00 00 00 00 00
 2.466517 1  252             Rx   d 8 00 00 00 01 00 00 00 00
 2.467536 1  221             Rx   d 8 00 00 00 00 00 00 00 00
 2.467784 1  311             Rx   d 8 00 00 33 5B 00 00 33 1A
 2.468510 1  253             Rx   d 8 00 00 00 00 00 00 00 00
 2.470515 1  254             Rx   d 8 00 00 00 02 00 00 00 00
 2.472537 1  241             Rx   d 8 AA 00 00 00 00 00 00 08
 2.474509 1  262             Rx   d 8 01 0D 00 1B 1E 00 00 00
 2.482584 1  211             Rx   d 8 00 01 01 03 00 00 00 00
 2.484509 1  251             Rx   d 8 00 00 00 00 00 00 00 00
 2.485539 1  263             Rx   d 8 01 0D 00 1B 1E 00 00 00
 2.486512 1  252             Rx   d 8 00 00 00 01 00 00 00 00
 2.487562 1  221             Rx   d 8 00 00 00 00 00 00 00 00
 2.487784 1  311             Rx   d 8 00 00 33 5B 00 00 33 1A
 2.488537 1  253             Rx   d 8 00 00 00 00 00 00 00 00
 2.490535 1  254             Rx   d 8 00 00 00 02 00 00 00 00
 2.492563 1  241             Rx   d 8 AA 00 00 00 00 00 00 09
 2.496538 1  264             Rx   d 8 01 0C 00 1A 1E 00 00 00
 2.502595 1  231             Rx   d 8 00 00 00 02 30 00 00 00
 2.504582 1  251             Rx   d 8 00 00 00 00 00 00 00 00
 2.506547 1  252             Rx   d 8 00 00 00 01 00 00 00 00
 2.507562 1  221             Rx   d 8 00 00 00 00 00 00 00 00
 2.507810 1  311             Rx   d 8 00 00 33 5B 00 00 33 1A
 2.508549 1  253             Rx   d 8 00 00 00 00 00 00 00 00
 2.510547 1  254             Rx   d 8 00 00 00 02 00 00 00 00
 2.512588 1  241             Rx   d 8 AA 00 00 00 00 00 00 0A
 2.524566 1  251             Rx   d 8 00 00 00 00 00 00 00 00
 2.526531 1  252             Rx   d 8 00 00 00 01 00 00 00 00
 2.527531 1  221             Rx   d 8 00 00 00 00 00 00 00 00
 2.527778 1  311             Rx   d 8 00 00 33 5B 00 00 33 1A
 2.528531 1  253             Rx   d 8 00 00 00 00 00 00 00 00
 2.530532 1  254             Rx   d 8 00 00 00 02 00 00 00 00
 2.532583 1  241             Rx   d 8 AA 00 00 00 00 00 00 0B
 2.544557 1  251             Rx   d 8 00 00 00 00 00 00 00 00
 2.546556 1  252             Rx   d 8 00 00 00 01 00 00 00 00
 2.547531 1  221             Rx   d 8 00 00 00 00 00 00 00 00
 2.547812 1  311             Rx   d 8 00 00 33 5B 00 00 33 1A
 2.548556 1  253             Rx   d 8 00 00 00 00 00 00 00 00
 2.550557 1  254             Rx   d 8 00 00 00 02 00 00 00 00
 2.552607 1  241             Rx   d 8 AA 00 00 00 00 00 00 0C
 2.563593 1  261             Rx   d 8 01 0D 00 1B 1E 00 00 00
 2.564618 1  251             Rx   d 8 00 00 00 00 00 00 00 00
 2.566619 1  252             Rx   d 8 00 00 00 01 00 00 00 00
 2.567571 1  221             Rx   d 8 00 00 00 00 00 00 00 00
 2.567816 1  311             Rx   d 8 00 00 33 5B 00 00 33 1A
 2.568618 1  253             Rx   d 8 00 00 00 00 00 00 00 00
 2.570619 1  254             Rx   d 8 00 00 00 02 00 00 00 00
 2.572671 1  241             Rx   d 8 AA 00 00 00 00 00 00 0D
 2.574619 1  262             Rx   d 8 01 0D 00 1B 1E 00 00 00
 2.584619 1  251             Rx   d 8 00 00 00 00 00 00 00 00
 2.585626 1  263             Rx   d 8 01 0D 00 1B 1E 00 00 00
 2.586649 1  252             Rx   d 8 00 00 00 01 00 00 00 00
 2.587570 1  221             Rx   d 8 00 00 00 00 00 00 00 00
 2.587817 1  311             Rx   d 8 00 00 33 5B 00 00 33 1A
 2.588620 1  253             Rx   d 8 00 00 00 00 00 00 00 00
 2.590644 1  254             Rx   d 8 00 00 00 02 00 00 00 00
 2.592676 1  241             Rx   d 8 AA 00 00 00 00 00 00 0E
 2.596647 1  264             Rx   d 8 01 0C 00 1A 1E 00 00 00
 2.604647 1  251             Rx   d 8 00 00 00 00 00 00 00 00
 2.606646 1  252             Rx   d 8 00 00 00 01 00 00 00 00
 2.607570 1  221             Rx   d 8 00 00 00 00 00 00 00 00
 2.607821 1  311             Rx   d 8 00 00 33 5B 00 00 33 1A
 2.608674 1  253             Rx   d 8 00 00 00 00 00 00 00 00
 2.610667 1  254             Rx   d 8 00 00 00 02 00 00 00 00
 2.612695 1  241             Rx   d 8 AA 00 00 00 00 00 00 0F
 2.624676 1  251             Rx   d 8 00 00 00 00 00 00 00 00
 2.626669 1  252             Rx   d 8 00 00 00 01 00 00 00 00
 2.627571 1  221             Rx   d 8 00 00 00 00 00 00 00 00
 2.627821 1  311             Rx   d 8 00 00 33 5B 00 00 33 1A
 2.628673 1  253             Rx   d 8 00 00 00 00 00 00 00 00
 2.630674 1  254             Rx   d 8 00 00 00 02 00 00 00 00
 2.632748 1  241             Rx   d 8 AA 00 00 00 00 00 00 10
 2.644700 1  251             Rx   d 8 00 00 00 00 00 00 00 00
 2.646696 1  252             Rx   d 8 00 00 00 01 00 00 00 00
 2.647571 1  221             Rx   d 8 00 00 00 00 00 00 00 00
 2.647820 1  311             Rx   d 8 00 00 33 5B 00 00 33 1A
 2.648699 1  253             Rx   d 8 00 00 00 00 00 00 00 00
 2.650698 1  254             Rx   d 8 00 00 00 02 00 00 00 00
 2.652699 1  241             Rx   d 8 AA 00 00 00 00 00 00 11
 2.663698 1  261             Rx   d 8 01 0D 00 1B 1E 00 00 00
 2.664722 1  251             Rx   d 8 00 00 00 00 00 00 00 00
 2.666688 1  252             Rx   d 8 00 00 00 01 00 00 00 00
 2.667573 1  221             Rx   d 8 00 00 00 00 00 00 00 00
 2.667821 1  311             Rx   d 8 00 00 33 5B 00 00 33 1A
 2.668665 1  253             Rx   d 8 00 00 00 00 00 00 00 00
 2.670687 1  254             Rx   d 8 00 00 00 02 00 00 00 00
 2.672714 1  241             Rx   d 8 AA 00 00 00 00 00 00 12
 2.674688 1  262             Rx   d 8 01 0D 00 1B 1E 00 00 00
 2.682764 1  211             Rx   d 8 00 01 01 03 00 00 00 00
 2.684695 1  251             Rx   d 8 00 00 00 00 00 00 00 00
 2.685690 1  263             Rx   d 8 01 0D 00 1B 1E 00 00 00
 2.686715 1  252             Rx   d 8 00 00 00 01 00 00 00 00
 2.687545 1  221             Rx   d 8 00 00 00 00 00 00 00 00
 2.687790 1  311             Rx   d 8 00 00 33 5B 00 00 33 1A
 2.688715 1  253             Rx   d 8 00 00 00 00 00 00 00 00
 2.690713 1  254             Rx   d 8 00 00 00 02 00 00 00 00
 2.692764 1  241             Rx   d 8 AA 00 00 00 00 00 00 13
 2.696714 1  264             Rx   d 8 01 0C 00 1A 1E 00 00 00
 2.704714 1  251             Rx   d 8 00 00 00 00 00 00 00 00
 2.706714 1  252             Rx   d 8 00 00 00 01 00 00 00 00
 2.707539 1  221             Rx   d 8 00 00 00 00 00 00 00 00
 2.707789 1  311             Rx   d 8 00 00 33 5B 00 00 33 1A
 2.708714 1  253             Rx   d 8 00 00 00 00 00 00 00 00
 2.710715 1  254             Rx   d 8 00 00 00 02 00 00 00 00
 2.712788 1  241             Rx   d 8 AA 00 00 00 00 00 00 14
 2.724740 1  251             Rx   d 8 00 00 00 00 00 00 00 00
 2.726742 1  252             Rx   d 8 00 00 00 01 00 00 00 00
 2.727566 1  221             Rx   d 8 00 00 00 00 00 00 00 00
 2.727815 1  311             Rx   d 8 00 00 33 5B 00 00 33 1A
 2.728740 1  253             Rx   d 8 00 00 00 00 00 00 00 00
 2.730742 1  254             Rx   d 8 00 00 00 02 00 00 00 00
 2.732815 1  241             Rx   d 8 AA 00 00 00 00 00 00 15
 2.744770 1  251             Rx   d 8 00 00 00 00 00 00 00 00
 2.746766 1  252             Rx   d 8 00 00 00 01 00 00 00 00
 2.747566 1  221             Rx   d 8 00 00 00 00 00 00 00 00
 2.747789 1  311             Rx   d 8 00 00 33 5B 00 00 33 1A
 2.748766 1  253             Rx   d 8 00 00 00 00 00 00 00 00
 2.750768 1  254             Rx   d 8 00 00 00 02 00 00 00 00
 2.752842 1  241             Rx   d 8 AA 00 00 00 00 00 00 16
 2.763767 1  261             Rx   d 8 01 0D 00 1B 1E 00 00 00
 2.764767 1  251             Rx   d 8 00 00 00 00 00 00 00 00
 2.766792 1  252             Rx   d 8 00 00 00 01 00 00 00 00
 2.767568 1  221             Rx   d 8 00 00 00 00 00 00 00 00
 2.767792 1  311             Rx   d 8 00 00 33 5B 00 00 33 1A
 2.768793 1  253             Rx   d 8 00 00 00 00 00 00 00 00
 2.770792 1  254             Rx   d 8 00 00 00 02 00 00 00 00
 2.772818 1  241             Rx   d 8 AA 00 00 00 00 00 00 17
 2.774793 1  262             Rx   d 8 01 0D 00 1B 1E 00 00 00
 2.784796 1  251             Rx   d 8 00 00 00 00 00 00 00 00
 2.785795 1  263             Rx   d 8 01 0D 00 1B 1E 00 00 00
 2.786794 1  252             Rx   d 8 00 00 00 01 00 00 00 00
 2.787570 1  221             Rx   d 8 00 00 00 00 00 00 00 00
 2.787818 1  311             Rx   d 8 00 00 33 5B 00 00 33 1A
 2.788819 1  253             Rx   d 8 00 00 00 00 00 00 00 00
 2.790792 1  254             Rx   d 8 00 00 00 02 00 00 00 00
 2.792843 1  241             Rx   d 8 AA 00 00 00 00 00 00 18
 2.796819 1  264             Rx   d 8 01 0C 00 1A 1E 00 00 00
 2.804819 1  251             Rx   d 8 00 00 00 00 00 00 00 00
 2.806818 1  252             Rx   d 8 00 00 00 01 00 00 00 00
 2.807569 1  221             Rx   d 8 00 00 00 00 00 00 00 00
 2.807827 1  311             Rx   d 8 00 00 33 5B 00 00 33 1A
 2.808821 1  253             Rx   d 8 00 00 00 00 00 00 00 00
 2.810818 1  254             Rx   d 8 00 00 00 02 00 00 00 00
 2.812893 1  241             Rx   d 8 AA 00 00 00 00 00 00 19
 2.824847 1  251             Rx   d 8 00 00 00 00 00 00 00 00
 2.826847 1  252             Rx   d 8 00 00 00 01 00 00 00 00
 2.827571 1  221             Rx   d 8 00 00 00 00 00 00 00 00
 2.827820 1  311             Rx   d 8 00 00 33 5B 00 00 33 1A
 2.828844 1  253             Rx   d 8 00 00 00 00 00 00 00 00
 2.830845 1  254             Rx   d 8 00 00 00 02 00 00 00 00
 2.832844 1  241             Rx   d 8 AA 00 00 00 00 00 00 1A
 2.844901 1  251             Rx   d 8 00 00 00 00 00 00 00 00
 2.846872 1  252             Rx   d 8 00 00 00 01 00 00 00 00
 2.847571 1  221             Rx   d 8 00 00 00 00 00 00 00 00
 2.847818 1  311             Rx   d 8 00 00 33 5B 00 00 33 1A
 2.848869 1  253             Rx   d 8 00 00 00 00 00 00 00 00
 2.850875 1  254             Rx   d 8 00 00 00 02 00 00 00 00
 2.852947 1  241             Rx   d 8 AA 00 00 00 00 00 00 1B
 2.863874 1  261             Rx   d 8 01 0D 00 1B 1E 00 00 00
 2.864895 1  251             Rx   d 8 00 00 00 00 00 00 00 00
 2.866897 1  252             Rx   d 8 00 00 00 01 00 00 00 00
 2.867601 1  221             Rx   d 8 00 00 00 00 00 00 00 00
 2.867850 1  311             Rx   d 8 00 00 33 5B 00 00 33 1A
 2.868929 1  253             Rx   d 8 00 00 00 00 00 00 00 00
 2.870928 1  254             Rx   d 8 00 00 00 02 00 00 00 00
 2.872977 1  241             Rx   d 8 AA 00 00 00 00 00 00 1C
 2.874929 1  262             Rx   d 8 01 0D 00 1B 1E 00 00 00
 2.883055 1  211             Rx   d 8 00 01 01 03 00 00 00 00
 2.884928 1  251             Rx   d 8 00 00 00 00 00 00 00 00
 2.885930 1  263             Rx   d 8 01 0D 00 1B 1E 00 00 00
 2.886926 1  252             Rx   d 8 00 00 00 01 00 00 00 00
 2.887602 1  221             Rx   d 8 00 00 00 00 00 00 00 00
 2.887850 1  311             Rx   d 8 00 00 33 5B 00 00 33 1A
 2.888901 1  253             Rx   d 8 00 00 00 00 00 00 00 00
 2.890924 1  254             Rx   d 8 00 00 00 02 00 00 00 00
 2.892976 1  241             Rx   d 8 AA 00 00 00 00 00 00 1D
 2.896953 1  264             Rx   d 8 01 0C 00 1A 1E 00 00 00
 2.904955 1  251             Rx   d 8 00 00 00 00 00 00 00 00
 2.906956 1  252             Rx   d 8 00 00 00 01 00 00 00 00
 2.907601 1  221             Rx   d 8 00 00 00 00 00 00 00 00
 2.907855 1  311             Rx   d 8 00 00 33 5B 00 00 33 1A
 2.908953 1  253             Rx   d 8 00 00 00 00 00 00 00 00
 2.910958 1  254             Rx   d 8 00 00 00 02 00 00 00 00
 2.913004 1  241             Rx   d 8 AA 00 00 00 00 00 00 1E
 2.924990 1  251             Rx   d 8 00 00 00 00 00 00 00 00
 2.926982 1  252             Rx   d 8 00 00 00 01 00 00 00 00
 2.927612 1  221             Rx   d 8 00 00 00 00 00 00 00 00
 2.927855 1  311             Rx   d 8 00 00 33 5B 00 00 33 1A
 2.928983 1  253             Rx   d 8 00 00 00 00 00 00 00 00
 2.930988 1  254             Rx   d 8 00 00 00 02 00 00 00 00
 2.933062 1  241             Rx   d 8 AA 00 00 00 00 00 00 1F
 2.945005 1  251             Rx   d 8 00 00 00 00 00 00 00 00
 2.947003 1  252             Rx   d 8 00 00 00 01 00 00 00 00
 2.947603 1  221             Rx   d 8 00 00 00 00 00 00 00 00
 2.947851 1  311             Rx   d 8 00 00 33 5B 00 00 33 1A
 2.949005 1  253             Rx   d 8 00 00 00 00 00 00 00 00
 2.951006 1  254             Rx   d 8 00 00 00 02 00 00 00 00
 2.953086 1  241             Rx   d 8 AA 00 00 00 00 00 00 20
 2.964014 1  261             Rx   d 8 01 0D 00 1B 1E 00 00 00
 2.965037 1  251             Rx   d 8 00 00 00 00 00 00 00 00
 2.967014 1  252             Rx   d 8 00 00 00 01 00 00 00 00
 2.967637 1  221             Rx   d 8 00 00 00 00 00 00 00 00
 2.967862 1  311             Rx   d 8 00 00 33 5B 00 00 33 1A
 2.969033 1  253             Rx   d 8 00 00 00 00 00 00 00 00
 2.971037 1  254             Rx   d 8 00 00 00 02 00 00 00 00
 2.973088 1  241             Rx   d 8 AA 00 00 00 00 00 00 21
 2.975018 1  262             Rx   d 8 01 0D 00 1B 1E 00 00 00
 2.985066 1  251             Rx   d 8 00 00 00 00 00 00 00 00
 2.986038 1  263             Rx   d 8 01 0D 00 1B 1E 00 00 00
 2.987065 1  252             Rx   d 8 00 00 00 01 00 00 00 00
 2.987614 1  221             Rx   d 8 00 00 00 00 00 00 00 00
 2.987860 1  311             Rx   d 8 00 00 33 5B 00 00 33 1A
 2.989025 1  253             Rx   d 8 00 00 00 00 00 00 00 00
 2.991014 1  254             Rx   d 8 00 00 00 02 00 00 00 00
 2.993088 1  241             Rx   d 8 AA 00 00 00 00 00 00 22
 2.997065 1  264             Rx   d 8 01 0C 00 1A 1E 00 00 00
 3.003116 1  231             Rx   d 8 00 00 00 02 44 00 00 00
 3.005028 1  251             Rx   d 8 00 00 00 00 00 00 00 00
 3.007063 1  252             Rx   d 8 00 00 00 01 00 00 00 00
 3.007638 1  221             Rx   d 8 00 00 00 00 00 00 00 00
 3.007861 1  311             Rx   d 8 00 00 33 5B 00 00 33 1A
 3.009068 1  253             Rx   d 8 00 00 00 00 00 00 00 00
 3.011071 1  254             Rx   d 8 00 00 00 02 00 00 00 00
 3.013088 1  241             Rx   d 8 AA 00 00 00 00 00 00 23
 3.025094 1  251             Rx   d 8 00 00 00 00 00 00 00 00
 3.027095 1  252             Rx   d 8 00 00 00 01 00 00 00 00
 3.027605 1  221             Rx   d 8 00 00 00 00 00 00 00 00
 3.027826 1  311             Rx   d 8 00 00 33 5B 00 00 33 1A
 3.029056 1  253             Rx   d 8 00 00 00 00 00 00 00 00
 3.031054 1  254             Rx   d 8 00 00 00 02 00 00 00 00
 3.033130 1  241             Rx   d 8 AA 00 00 00 00 00 00 24
 3.045080 1  251             Rx   d 8 00 00 00 00 00 00 00 00
 3.047079 1  252             Rx   d 8 00 00 00 01 00 00 00 00
 3.047606 1  221             Rx   d 8 00 00 00 00 00 00 00 00
 3.047828 1  311             Rx   d 8 00 00 33 5B 00 00 33 1A
 3.049081 1  253             Rx   d 8 00 00 00 00 00 00 00 00
 3.051080 1  254             Rx   d 8 00 00 00 02 00 00 00 00
 3.053155 1  241             Rx   d 8 AA 00 00 00 00 00 00 25
 3.064083 1  261             Rx   d 8 01 0D 00 1B 1E 00 00 00
 3.065105 1  251             Rx   d 8 00 00 00 00 00 00 00 00
 3.067106 1  252             Rx   d 8 00 00 00 01 00 00 00 00
 3.067606 1  221             Rx   d 8 00 00 00 00 00 00 00 00
 3.067855 1  311             Rx   d 8 00 00 33 5B 00 00 33 1A
 3.069108 1  253             Rx   d 8 00 00 00 00 00 00 00 00
 3.071106 1  254             Rx   d 8 00 00 00 02 00 00 00 00
 3.073132 1  241             Rx   d 8 AA 00 00 00 00 00 00 26
 3.075106 1  262             Rx   d 8 01 0D 00 1B 1E 00 00 00
 3.083157 1  211             Rx   d 8 00 01 01 03 00 00 00 00
 3.085106 1  251             Rx   d 8 00 00 00 00 00 00 00 00
 3.086107 1  263             Rx   d 8 01 0D 00 1B 1E 00 00 00
 3.087106 1  252             Rx   d 8 00 00 00 01 00 00 00 00
 3.087608 1  221             Rx   d 8 00 00 00 00 00 00 00 00
 3.087830 1  311             Rx   d 8 00 00 33 5B 00 00 33 1A
 3.089131 1  253             Rx   d 8 00 00 00 00 00 00 00 00
 3.091135 1  254             Rx   d 8 00 00 00 02 00 00 00 00
 3.093158 1  241             Rx   d 8 AA 00 00 00 00 00 00 27
 3.097134 1  264             Rx   d 8 01 0C 00 1A 1E 00 00 00
 3.105133 1  251             Rx   d 8 00 00 00 00 00 00 00 00
 3.107132 1  252             Rx   d 8 00 00 00 01 00 00 00 00
 3.107608 1  221             Rx   d 8 00 00 00 00 00 00 00 00
 3.107854 1  311             Rx   d 8 00 00 33 5B 00 00 33 1A
 3.109132 1  253             Rx   d 8 00 00 00 00 00 00 00 00
 3.111159 1  254             Rx   d 8 00 00 00 02 00 00 00 00
 3.113232 1  241             Rx   d 8 AA 00 00 00 00 00 00 28
 3.125166 1  251             Rx   d 8 00 00 00 00 00 00 00 00
 3.127159 1  252             Rx   d 8 00 00 00 01 00 00 00 00
 3.127610 1  221             Rx   d 8 00 00 00 00 00 00 00 00
 3.127857 1  311             Rx   d 8 00 00 33 5B 00 00 33 1A
 3.129161 1  253             Rx   d 8 00 00 00 00 00 00 00 00
 3.131161 1  254             Rx   d 8 00 00 00 02 00 00 00 00
 3.133264 1  241             Rx   d 8 AA 00 00 00 00 00 00 29
 3.145248 1  251             Rx   d 8 00 00 00 00 00 00 00 00
 3.147272 1  252             Rx   d 8 00 00 00 01 00 00 00 00
 3.147637 1  221             Rx   d 8 00 00 00 00 00 00 00 00
 3.147886 1  311             Rx   d 8 00 00 33 5B 00 00 33 1A
 3.149265 1  253             Rx   d 8 00 00 00 00 00 00 00 00
 3.151264 1  254             Rx   d 8 00 00 00 02 00 00 00 00
 3.153265 1  241             Rx   d 8 AA 00 00 00 00 00 00 2A
 3.164269 1  261             Rx   d 8 01 0D 00 1B 1E 00 00 00
 3.165262 1  251             Rx   d 8 00 00 00 00 00 00 00 00
 3.167268 1  252             Rx   d 8 00 00 00 01 00 00 00 00
 3.167638 1  221             Rx   d 8 00 00 00 00 00 00 00 00
 3.167876 1  311             Rx   d 8 00 00 33 5B 00 00 33 1A
 3.169235 1  253             Rx   d 8 00 00 00 00 00 00 00 00
 3.171236 1  254             Rx   d 8 00 00 00 02 00 00 00 00
 3.173294 1  241             Rx   d 8 AA 00 00 00 00 00 00 2B
 3.175272 1  262             Rx   d 8 01 0D 00 1B 1E 00 00 00
 3.185288 1  251             Rx   d 8 00 00 00 00 00 00 00 00
 3.186270 1  263             Rx   d 8 01 0D 00 1B 1E 00 00 00
 3.187272 1  252             Rx   d 8 00 00 00 01 00 00 00 00
 3.187644 1  221             Rx   d 8 00 00 00 00 00 00 00 00
 3.187891 1  311             Rx   d 8 00 00 33 5B 00 00 33 1A
 3.189276 1  253             Rx   d 8 00 00 00 00 00 00 00 00
 3.191272 1  254             Rx   d 8 00 00 00 02 00 00 00 00
 3.193295 1  241             Rx   d 8 AA 00 00 00 00 00 00 2C
 3.197257 1  264             Rx   d 8 01 0D 00 1A 1E 00 00 00
 3.205287 1  251             Rx   d 8 00 00 00 00 00 00 00 00
 3.207275 1  252             Rx   d 8 00 00 00 01 00 00 00 00
 3.207670 1  221             Rx   d 8 00 00 00 00 00 00 00 00
 3.207893 1  311             Rx   d 8 00 00 33 5B 00 00 33 1A
 3.209277 1  253             Rx   d 8 00 00 00 00 00 00 00 00
 3.211272 1  254             Rx   d 8 00 00 00 02 00 00 00 00
 3.213238 1  241             Rx   d 8 AA 00 00 00 00 00 00 2D
 3.225300 1  251             Rx   d 8 00 00 00 00 00 00 00 00
 3.227301 1  252             Rx   d 8 00 00 00 01 00 00 00 00
 3.227633 1  221             Rx   d 8 00 00 00 00 00 00 00 00
 3.227891 1  311             Rx   d 8 00 00 33 5B 00 00 33 1A
 3.229299 1  253             Rx   d 8 00 00 00 00 00 00 00 00
 3.231303 1  254             Rx   d 8 00 00 00 02 00 00 00 00
 3.233295 1  241             Rx   d 8 AA 00 00 00 00 00 00 2E
 3.245326 1  251             Rx   d 8 00 00 00 00 00 00 00 00
 3.247317 1  252             Rx   d 8 00 00 00 01 00 00 00 00
 3.247668 1  221             Rx   d 8 00 00 00 00 00 00 00 00
 3.247888 1  311             Rx   d 8 00 00 33 5B 00 00 33 1A
 3.249316 1  253             Rx   d 8 00 00 00 00 00 00 00 00
 3.251318 1  254             Rx   d 8 00 00 00 02 00 00 00 00
 3.253317 1  241             Rx   d 8 AA 00 00 00 00 00 00 2F
 3.264319 1  261             Rx   d 8 01 0D 00 1B 1E 00 00 00
 3.265344 1  251             Rx   d 8 00 00 00 00 00 00 00 00
 3.267327 1  252             Rx   d 8 00 00 00 01 00 00 00 00
 3.267666 1  221             Rx   d 8 00 00 00 00 00 00 00 00
 3.267865 1  311             Rx   d 8 00 00 33 5B 00 00 33 1A
 3.269345 1  253             Rx   d 8 00 00 00 00 00 00 00 00
 3.271316 1  254             Rx   d 8 00 00 00 02 00 00 00 00
 3.273347 1  241             Rx   d 8 AA 00 00 00 00 00 00 30
 3.275331 1  262             Rx   d 8 01 0D 00 1B 1E 00 00 00
 3.283424 1  211             Rx   d 8 00 01 01 03 00 00 00 00
 3.285339 1  251             Rx   d 8 00 00 00 00 00 00 00 00
 3.286352 1  263             Rx   d 8 01 0D 00 1B 1E 00 00 00
 3.287335 1  252             Rx   d 8 00 00 00 01 00 00 00 00
 3.287675 1  221             Rx   d 8 00 00 00 00 00 00 00 00
 3.287911 1  311             Rx   d 8 00 00 33 5B 00 00 33 1A
 3.289348 1  253             Rx   d 8 00 00 00 00 00 00 00 00
 3.291345 1  254             Rx   d 8 00 00 00 02 00 00 00 00
 3.293393 1  241             Rx   d 8 AA 00 00 00 00 00 00 31
 3.297328 1  264             Rx   d 8 01 0D 00 1A 1E 00 00 00
 3.305371 1  251             Rx   d 8 00 00 00 00 00 00 00 00
 3.307373 1  252             Rx   d 8 00 00 00 01 00 00 00 00
 3.307674 1  221             Rx   d 8 00 00 00 00 00 00 00 00
 3.307897 1  311             Rx   d 8 00 00 33 5B 00 00 33 1A
 3.309403 1  253             Rx   d 8 00 00 00 00 00 00 00 00
 3.311343 1  254             Rx   d 8 00 00 00 02 00 00 00 00
 3.313432 1  241             Rx   d 8 AA 00 00 00 00 00 00 32
 3.325405 1  251             Rx   d 8 00 00 00 00 00 00 00 00
 3.327410 1  252             Rx   d 8 00 00 00 01 00 00 00 00
 3.327673 1  221             Rx   d 8 00 00 00 00 00 00 00 00
 3.327920 1  311             Rx   d 8 00 00 33 5B 00 00 33 1A
 3.329394 1  253             Rx   d 8 00 00 00 00 00 00 00 00
 3.331409 1  254             Rx   d 8 00 00 00 02 00 00 00 00
 3.333476 1  241             Rx   d 8 AA 00 00 00 00 00 00 33
 3.345433 1  251             Rx   d 8 00 00 00 00 00 00 00 00
 3.347424 1  252             Rx   d 8 00 00 00 01 00 00 00 00
 3.347673 1  221             Rx   d 8 00 00 00 00 00 00 00 00
 3.347896 1  311             Rx   d 8 00 00 33 5B 00 00 33 1A
 3.349423 1  253             Rx   d 8 00 00 00 00 00 00 00 00
 3.351425 1  254             Rx   d 8 00 00 00 02 00 00 00 00
 3.353472 1  241             Rx   d 8 AA 00 00 00 00 00 00 34
 3.364423 1  261             Rx   d 8 01 0D 00 1B 1E 00 00 00
 3.365448 1  251             Rx   d 8 00 00 00 00 00 00 00 00
 3.367427 1  252             Rx   d 8 00 00 00 01 00 00 00 00
 3.367697 1  221             Rx   d 8 00 00 00 00 00 00 00 00
 3.367918 1  311             Rx   d 8 00 00 33 5B 00 00 33 1A
 3.369446 1  253             Rx   d 8 00 00 00 00 00 00 00 00
 3.371470 1  254             Rx   d 8 00 00 00 02 00 00 00 00
 3.373445 1  241             Rx   d 8 AA 00 00 00 00 00 00 35
 3.375420 1  262             Rx   d 8 01 0D 00 1B 1E 00 00 00
 3.385449 1  251             Rx   d 8 00 00 00 00 00 00 00 00
 3.386452 1  263             Rx   d 8 01 0D 00 1B 1E 00 00 00
 3.387452 1  252             Rx   d 8 00 00 00 01 00 00 00 00
 3.387696 1  221             Rx   d 8 00 00 00 00 00 00 00 00
 3.387944 1  311             Rx   d 8 00 00 33 5B 00 00 33 1A
 3.389473 1  253             Rx   d 8 00 00 00 00 00 00 00 00
 3.391485 1  254             Rx   d 8 00 00 00 02 00 00 00 00
 3.393500 1  241             Rx   d 8 AA 00 00 00 00 00 00 36
 3.397476 1  264             Rx   d 8 01 0C 00 1A 1E 00 00 00
 3.405480 1  251             Rx   d 8 00 00 00 00 00 00 00 00
 3.407475 1  252             Rx   d 8 00 00 00 01 00 00 00 00
 3.407724 1  221             Rx   d 8 00 00 00 00 00 00 00 00
 3.407974 1  311             Rx   d 8 00 00 33 5B 00 00 33 1A
 3.409479 1  253             Rx   d 8 00 00 00 00 00 00 00 00
 3.411475 1  254             Rx   d 8 00 00 00 02 00 00 00 00
 3.413532 1  241             Rx   d 8 AA 00 00 00 00 00 00 37
 3.425487 1  251             Rx   d 8 00 00 00 00 00 00 00 00
 3.427501 1  252             Rx   d 8 00 00 00 02 00 00 00 00
 3.427747 1  221             Rx   d 8 00 00 00 00 00 00 00 00
 3.427996 1  311             Rx   d 8 00 00 33 5B 00 00 33 1A
 3.429513 1  253             Rx   d 8 00 00 00 00 00 00 00 00
 3.431501 1  254             Rx   d 8 00 00 00 02 00 00 00 00
 3.433500 1  241             Rx   d 8 AA 00 00 00 00 00 00 38
 3.445534 1  251             Rx   d 8 00 00 00 00 00 00 00 00
 3.447541 1  252             Rx   d 8 00 00 00 02 00 00 00 00
 3.447777 1  221             Rx   d 8 00 00 00 00 00 00 00 00
 3.448004 1  311             Rx   d 8 00 00 33 5B 00 00 33 1A
 3.449540 1  253             Rx   d 8 00 00 00 00 00 00 00 00
 3.451530 1  254             Rx   d 8 00 00 00 02 00 00 00 00
 3.453554 1  241             Rx   d 8 AA 00 00 00 00 00 00 39
 3.464536 1  261             Rx   d 8 01 0E 00 1B 1E 00 00 00
 3.465563 1  251             Rx   d 8 00 00 00 00 00 00 00 00
 3.467554 1  252             Rx   d 8 00 00 00 02 00 00 00 00
 3.467795 1  221             Rx   d 8 00 00 00 00 00 00 00 00
 3.468013 1  311             Rx   d 8 00 00 33 5B 00 00 33 1A
 3.469559 1  253             Rx   d 8 00 00 00 00 00 00 00 00
 3.471557 1  254             Rx   d 8 00 00 00 02 00 00 00 00
 3.473585 1  241             Rx   d 8 AA 00 00 00 00 00 00 3A
 3.475563 1  262             Rx   d 8 01 0C 00 1B 1E 00 00 00
 3.483611 1  211             Rx   d 8 00 01 01 03 00 00 00 00
 3.485569 1  251             Rx   d 8 00 00 00 00 00 00 00 00
 3.486561 1  263             Rx   d 8 01 0E 00 1B 1E 00 00 00
 3.487586 1  252             Rx   d 8 00 00 00 01 00 00 00 00
 3.487836 1  221             Rx   d 8 00 00 00 00 00 00 00 00
 3.488058 1  311             Rx   d 8 00 00 33 5B 00 00 33 1A
 3.489557 1  253             Rx   d 8 00 00 00 00 00 00 00 00
 3.491589 1  254             Rx   d 8 00 00 00 02 00 00 00 00
 3.493605 1  241             Rx   d 8 AA 00 00 00 00 00 00 3B
 3.497586 1  264             Rx   d 8 01 0C 00 1A 1E 00 00 00
 3.503636 1  231             Rx   d 8 00 00 00 02 58 00 00 00
 3.505583 1  251             Rx   d 8 00 00 00 00 00 00 00 00
 3.507588 1  252             Rx   d 8 00 00 00 01 00 00 00 00
 3.507835 1  221             Rx   d 8 00 00 00 00 00 00 00 00
 3.508085 1  311             Rx   d 8 00 00 33 5B 00 00 33 1A
 3.509582 1  253             Rx   d 8 00 00 00 00 00 00 00 00
 3.511587 1  254             Rx   d 8 00 00 00 02 00 00 00 00
 3.513638 1  241             Rx   d 8 AA 00 00 00 00 00 00 3C
 3.525615 1  251             Rx   d 8 00 00 00 00 00 00 00 00
 3.527603 1  252             Rx   d 8 00 00 00 01 00 00 00 00
 3.527850 1  221             Rx   d 8 00 00 00 00 00 00 00 00
 3.528099 1  311             Rx   d 8 00 00 33 5B 00 00 33 1A
 3.529602 1  253             Rx   d 8 00 00 00 00 00 00 00 00
 3.531577 1  254             Rx   d 8 00 00 00 02 00 00 00 00
 3.533653 1  241             Rx   d 8 AA 00 00 00 00 00 00 3D
 3.545639 1  251             Rx   d 8 00 00 00 00 00 00 00 00
 3.547641 1  252             Rx   d 8 00 00 00 01 00 00 00 00
 3.547884 1  221             Rx   d 8 00 00 00 00 00 00 00 00
 3.548110 1  311             Rx   d 8 00 00 33 5B 00 00 33 1A
 3.549639 1  253             Rx   d 8 00 00 00 00 00 00 00 00
 3.551639 1  254             Rx   d 8 00 00 00 02 00 00 00 00
 3.553686 1  241             Rx   d 8 AA 00 00 00 00 00 00 3E
 3.564627 1  261             Rx   d 8 01 0E 00 1B 1E 00 00 00
 3.565657 1  251             Rx   d 8 00 00 00 00 00 00 00 00
 3.567638 1  252             Rx   d 8 00 00 00 01 00 00 00 00
 3.567883 1  221             Rx   d 8 00 00 00 00 00 00 00 00
 3.568145 1  311             Rx   d 8 00 00 33 5B 00 00 33 1A
 3.569664 1  253             Rx   d 8 00 00 00 00 00 00 00 00
 3.571641 1  254             Rx   d 8 00 00 00 02 00 00 00 00
 3.573690 1  241             Rx   d 8 AA 00 00 00 00 00 00 3F
 3.575663 1  262             Rx   d 8 01 0D 00 1B 1E 00 00 00
 3.585673 1  251             Rx   d 8 00 00 00 00 00 00 00 00
 3.586670 1  263             Rx   d 8 01 0D 00 1B 1E 00 00 00
 3.587666 1  252             Rx   d 8 00 00 00 01 00 00 00 00
 3.587914 1  221             Rx   d 8 00 00 00 00 00 00 00 00
 3.588166 1  311             Rx   d 8 00 00 33 5B 00 00 33 1A
 3.589670 1  253             Rx   d 8 00 00 00 00 00 00 00 00
 3.591668 1  254             Rx   d 8 00 00 00 02 00 00 00 00
 3.593725 1  241             Rx   d 8 AA 00 00 00 00 00 00 40
 3.597689 1  264             Rx   d 8 01 0D 00 1A 1E 00 00 00
 3.605683 1  251             Rx   d 8 00 00 00 00 00 00 00 00
 3.607709 1  221             Rx   d 8 00 00 00 00 00 00 00 00
 3.607965 1  311             Rx   d 8 00 00 33 5B 00 00 33 1A
 3.608211 1  252             Rx   d 8 00 00 00 01 00 00 00 00
 3.609691 1  253             Rx   d 8 00 00 00 00 00 00 00 00
 3.611687 1  254             Rx   d 8 00 00 00 02 00 00 00 00
 3.613771 1  241             Rx   d 8 AA 00 00 00 00 00 00 41
 3.625716 1  251             Rx   d 8 00 00 00 00 00 00 00 00
 3.627720 1  221             Rx   d 8 00 00 00 00 00 00 00 00
 3.627935 1  311             Rx   d 8 00 00 33 5B 00 00 33 1A
 3.628216 1  252             Rx   d 8 00 00 00 01 00 00 00 00
 3.629719 1  253             Rx   d 8 00 00 00 00 00 00 00 00
 3.631719 1  254             Rx   d 8 00 00 00 02 00 00 00 00
 3.633745 1  241             Rx   d 8 AA 00 00 00 00 00 00 42
 3.645761 1  251             Rx   d 8 00 00 00 00 00 00 00 00
 3.647702 1  221             Rx   d 8 00 00 00 00 00 00 00 00
 3.647968 1  311             Rx   d 8 00 00 33 5B 00 00 33 1A
 3.648216 1  252             Rx   d 8 00 00 00 01 00 00 00 00
 3.649746 1  253             Rx   d 8 00 00 00 00 00 00 00 00
 3.651741 1  254             Rx   d 8 00 00 00 02 00 00 00 00
 3.653814 1  241             Rx   d 8 AA 00 00 00 00 00 00 43
 3.664761 1  261             Rx   d 8 01 0D 00 1B 1E 00 00 00
 3.665736 1  251             Rx   d 8 00 00 00 00 00 00 00 00
 3.667715 1  221             Rx   d 8 00 00 00 00 00 00 00 00
 3.667966 1  311             Rx   d 8 00 00 33 5B 00 00 33 1A
 3.668211 1  252             Rx   d 8 00 00 00 01 00 00 00 00
 3.669770 1  253             Rx   d 8 00 00 00 00 00 00 00 00
 3.671770 1  254             Rx   d 8 00 00 00 02 00 00 00 00
 3.673793 1  241             Rx   d 8 AA 00 00 00 00 00 00 44
 3.675734 1  262             Rx   d 8 01 0D 00 1B 1E 00 00 00
 3.683750 1  211             Rx   d 8 00 01 01 03 00 00 00 00
 3.685761 1  251             Rx   d 8 00 00 00 00 00 00 00 00
 3.686764 1  263             Rx   d 8 01 0D 00 1B 1E 00 00 00
 3.687716 1  221             Rx   d 8 00 00 00 00 00 00 00 00
 3.687966 1  311             Rx   d 8 00 00 33 5B 00 00 33 1A
 3.688209 1  252             Rx   d 8 00 00 00 01 00 00 00 00
 3.689764 1  253             Rx   d 8 00 00 00 00 00 00 00 00
 3.691774 1  254             Rx   d 8 00 00 00 02 00 00 00 00
 3.693849 1  241             Rx   d 8 AA 00 00 00 00 00 00 45
 3.697788 1  264             Rx   d 8 01 0C 00 1A 1E 00 00 00
 3.705762 1  251             Rx   d 8 00 00 00 00 00 00 00 00
 3.707714 1  221             Rx   d 8 00 00 00 00 00 00 00 00
 3.707963 1  311             Rx   d 8 00 00 33 5B 00 00 33 1A
 3.708210 1  252             Rx   d 8 00 00 00 01 00 00 00 00
 3.709787 1  253             Rx   d 8 00 00 00 00 00 00 00 00
 3.711796 1  254             Rx   d 8 00 00 00 02 00 00 00 00
 3.713798 1  241             Rx   d 8 AA 00 00 00 00 00 00 46
 3.725788 1  251             Rx   d 8 00 00 00 00 00 00 00 00
 3.727718 1  221             Rx   d 8 00 00 00 00 00 00 00 00
 3.727966 1  311             Rx   d 8 00 00 33 5B 00 00 33 1A
 3.728219 1  252             Rx   d 8 00 00 00 01 00 00 00 00
 3.729826 1  253             Rx   d 8 00 00 00 00 00 00 00 00
 3.731824 1  254             Rx   d 8 00 00 00 02 00 00 00 00
 3.733872 1  241             Rx   d 8 AA 00 00 00 00 00 00 47
 3.745848 1  251             Rx   d 8 00 00 00 00 00 00 00 00
 3.747750 1  221             Rx   d 8 00 00 00 00 00 00 00 00
 3.747974 1  311             Rx   d 8 00 00 33 5B 00 00 33 1A
 3.748225 1  252             Rx   d 8 00 00 00 01 00 00 00 00
 3.749850 1  253             Rx   d 8 00 00 00 00 00 00 00 00
 3.751847 1  254             Rx   d 8 00 00 00 02 00 00 00 00
 3.753895 1  241             Rx   d 8 AA 00 00 00 00 00 00 48
 3.764843 1  261             Rx   d 8 01 0E 00 1B 1E 00 00 00
 3.765842 1  251             Rx   d 8 00 00 00 00 00 00 00 00
 3.767719 1  221             Rx   d 8 00 00 00 00 00 00 00 00
 3.767965 1  311             Rx   d 8 00 00 33 5B 00 00 33 1A
 3.768183 1  252             Rx   d 8 00 00 00 01 00 00 00 00
 3.769865 1  253             Rx   d 8 00 00 00 00 00 00 00 00
 3.771875 1  254             Rx   d 8 00 00 00 02 00 00 00 00
 3.773875 1  241             Rx   d 8 AA 00 00 00 00 00 00 49
 3.775874 1  262             Rx   d 8 01 0D 00 1B 1E 00 00 00
 3.785874 1  251             Rx   d 8 00 00 00 00 00 00 00 00
 3.786872 1  263             Rx   d 8 01 0D 00 1B 1E 00 00 00
 3.787744 1  221             Rx   d 8 00 00 00 00 00 00 00 00
 3.787961 1  311             Rx   d 8 00 00 33 5B 00 00 33 1A
 3.788185 1  252             Rx   d 8 00 00 00 01 00 00 00 00
 3.789875 1  253             Rx   d 8 00 00 00 00 00 00 00 00
 3.791871 1  254             Rx   d 8 00 00 00 02 00 00 00 00
 3.793934 1  241             Rx   d 8 AA 00 00 00 00 00 00 4A
 3.797902 1  264             Rx   d 8 01 0D 00 1A 1E 00 00 00
 3.805895 1  251             Rx   d 8 00 00 00 00 00 00 00 00
 3.807725 1  221             Rx   d 8 00 00 00 00 00 00 00 00
 3.807970 1  311             Rx   d 8 00 00 33 5B 00 00 33 1A
 3.808219 1  252             Rx   d 8 00 00 00 01 00 00 00 00
 3.809868 1  253             Rx   d 8 00 00 00 00 00 00 00 00
 3.811898 1  254             Rx   d 8 00 00 00 02 00 00 00 00
 3.813925 1  241             Rx   d 8 AA 00 00 00 00 00 00 4B
 3.825925 1  251             Rx   d 8 00 00 00 00 00 00 00 00
 3.827749 1  221             Rx   d 8 00 00 00 00 00 00 00 00
 3.827971 1  311             Rx   d 8 00 00 33 5B 00 00 33 1A
 3.828218 1  252             Rx   d 8 00 00 00 01 00 00 00 00
 3.829925 1  253             Rx   d 8 00 00 00 00 00 00 00 00
 3.831891 1  254             Rx   d 8 00 00 00 02 00 00 00 00
 3.833947 1  241             Rx   d 8 AA 00 00 00 00 00 00 4C
 3.845926 1  251             Rx   d 8 00 00 00 00 00 00 00 00
 3.847748 1  221             Rx   d 8 00 00 00 00 00 00 00 00
 3.847974 1  311             Rx   d 8 00 00 33 5B 00 00 33 1A
 3.848221 1  252             Rx   d 8 00 00 00 01 00 00 00 00
 3.849949 1  253             Rx   d 8 00 00 00 00 00 00 00 00
 3.851952 1  254             Rx   d 8 00 00 00 02 00 00 00 00
 3.853998 1  241             Rx   d 8 AA 00 00 00 00 00 00 4D
 3.864948 1  261             Rx   d 8 01 0E 00 1B 1E 00 00 00
 3.865938 1  251             Rx   d 8 00 00 00 00 00 00 00 00
 3.867746 1  221             Rx   d 8 00 00 00 00 00 00 00 00
 3.867973 1  311             Rx   d 8 00 00 33 5B 00 00 33 1A
 3.868245 1  252             Rx   d 8 00 00 00 01 00 00 00 00
 3.869947 1  253             Rx   d 8 00 00 00 00 00 00 00 00
 3.871945 1  254             Rx   d 8 00 00 00 02 00 00 00 00
 3.873967 1  241             Rx   d 8 AA 00 00 00 00 00 00 4E
 3.875948 1  262             Rx   d 8 01 0D 00 1B 1E 00 00 00
 3.883996 1  211             Rx   d 8 00 01 01 03 00 00 00 00
 3.885970 1  251             Rx   d 8 00 00 00 00 00 00 00 00
 3.886973 1  263             Rx   d 8 01 0E 00 1B 1E 00 00 00
 3.887747 1  221             Rx   d 8 00 00 00 00 00 00 00 00
 3.887997 1  311             Rx   d 8 00 00 33 5B 00 00 33 1A
 3.888217 1  252             Rx   d 8 00 00 00 01 00 00 00 00
 3.889972 1  253             Rx   d 8 00 00 00 00 00 00 00 00
 3.891995 1  254             Rx   d 8 00 00 00 02 00 00 00 00
 3.894047 1  241             Rx   d 8 AA 00 00 00 00 00 00 4F
 3.897974 1  264             Rx   d 8 01 0D 00 1A 1E 00 00 00
 3.905999 1  251             Rx   d 8 00 00 00 00 00 00 00 00
 3.907747 1  221             Rx   d 8 00 00 00 00 00 00 00 00
 3.907994 1  311             Rx   d 8 00 00 33 5B 00 00 33 1A
 3.908241 1  252             Rx   d 8 00 00 00 01 00 00 00 00
 3.910002 1  253             Rx   d 8 00 00 00 00 00 00 00 00
 3.911998 1  254             Rx   d 8 00 00 00 02 00 00 00 00
 3.914049 1  241             Rx   d 8 AA 00 00 00 00 00 00 50
 3.926025 1  251             Rx   d 8 00 00 00 00 00 00 00 00
 3.927748 1  221             Rx   d 8 00 00 00 00 00 00 00 00
 3.927997 1  311             Rx   d 8 00 00 33 5B 00 00 33 1A
 3.928252 1  252             Rx   d 8 00 00 00 01 00 00 00 00
 3.930026 1  253             Rx   d 8 00 00 00 00 00 00 00 00
 3.932023 1  254             Rx   d 8 00 00 00 02 00 00 00 00
 3.934080 1  241             Rx   d 8 AA 00 00 00 00 00 00 51
 3.946028 1  251             Rx   d 8 00 00 00 00 00 00 00 00
 3.947748 1  221             Rx   d 8 00 00 00 00 00 00 00 00
 3.947998 1  311             Rx   d 8 00 00 33 5B 00 00 33 1A
 3.948246 1  252             Rx   d 8 00 00 00 01 00 00 00 00
 3.950050 1  253             Rx   d 8 00 00 00 00 00 00 00 00
 3.952050 1  254             Rx   d 8 00 00 00 02 00 00 00 00
 3.954048 1  241             Rx   d 8 AA 00 00 00 00 00 00 52
 3.965063 1  261             Rx   d 8 01 0D 00 1B 1E 00 00 00
 3.966059 1  251             Rx   d 8 00 00 00 00 00 00 00 00
 3.967760 1  221             Rx   d 8 00 00 00 00 00 00 00 00
 3.968006 1  311             Rx   d 8 00 00 33 5B 00 00 33 1A
 3.968258 1  252             Rx   d 8 00 00 00 01 00 00 00 00
 3.970082 1  253             Rx   d 8 00 00 00 00 00 00 00 00
 3.972063 1  254             Rx   d 8 00 00 00 02 00 00 00 00
 3.974110 1  241             Rx   d 8 AA 00 00 00 00 00 00 53
 3.976056 1  262             Rx   d 8 01 0D 00 1B 1E 00 00 00
 3.986089 1  251             Rx   d 8 00 00 00 00 00 00 00 00
 3.987088 1  263             Rx   d 8 01 0D 00 1B 1E 00 00 00
 3.987757 1  221             Rx   d 8 00 00 00 00 00 00 00 00
 3.988010 1  311             Rx   d 8 00 00 33 5B 00 00 33 1A
 3.988254 1  252             Rx   d 8 00 00 00 01 00 00 00 00
 3.990085 1  253             Rx   d 8 00 00 00 00 00 00 00 00
 3.992094 1  254             Rx   d 8 00 00 00 02 00 00 00 00
 3.994136 1  241             Rx   d 8 AA 00 00 00 00 00 00 54
 3.998085 1  264             Rx   d 8 01 0C 00 1A 1E 00 00 00
 4.004185 1  231             Rx   d 8 00 00 00 02 5D 00 00 00
 4.006114 1  251             Rx   d 8 00 00 00 00 00 00 00 00
 4.007778 1  221             Rx   d 8 00 00 00 00 00 00 00 00
 4.008014 1  311             Rx   d 8 00 00 33 5B 00 00 33 1A
 4.008253 1  252             Rx   d 8 00 00 00 01 00 00 00 00
 4.010106 1  253             Rx   d 8 00 00 00 00 00 00 00 00
 4.012109 1  254             Rx   d 8 00 00 00 02 00 00 00 00
 4.014162 1  241             Rx   d 8 AA 00 00 00 00 00 00 55
 4.026159 1  251             Rx   d 8 00 00 00 00 00 00 00 00
 4.027757 1  221             Rx   d 8 00 00 00 00 00 00 00 00
 4.028005 1  311             Rx   d 8 00 00 33 5B 00 00 33 1A
 4.028227 1  252             Rx   d 8 00 00 00 01 00 00 00 00
 4.030137 1  253             Rx   d 8 00 00 00 00 00 00 00 00
 4.032131 1  254             Rx   d 8 00 00 00 02 00 00 00 00
 4.034185 1  241             Rx   d 8 AA 00 00 00 00 00 00 56
 4.046130 1  251             Rx   d 8 00 00 00 00 00 00 00 00
 4.047751 1  221             Rx   d 8 00 00 00 00 00 00 00 00
 4.047973 1  311             Rx   d 8 00 00 33 5B 00 00 33 1A
 4.048222 1  252             Rx   d 8 00 00 00 01 00 00 00 00
 4.050161 1  253             Rx   d 8 00 00 00 00 00 00 00 00
 4.052127 1  254             Rx   d 8 00 00 00 02 00 00 00 00
