date Fri Nov 03 05:04:11.947 PM 2023
base hex  timestamps absolute
internal events logged
Begin Triggerblock Fri Nov 03 05:04:11.935 PM 2023
 0.000000 Start of measurement
 0.000000 1  264             Rx   d 8 01 27 00 1C 1E 00 00 00
 0.007995 1  251             Rx   d 8 00 00 00 00 00 00 00 00
 0.010028 1  252             Rx   d 8 00 00 00 01 00 00 00 00
 0.011990 1  253             Rx   d 8 00 00 00 00 00 00 00 00
 0.013987 1  254             Rx   d 8 00 00 00 02 00 00 00 00
 0.015010 1  221             Rx   d 8 00 00 00 00 00 00 00 00
 0.015263 1  311             Rx   d 8 00 00 01 56 00 00 01 87
 0.016009 1  241             Rx   d 8 AA 00 00 00 00 00 00 CF
 0.028049 1  251             Rx   d 8 00 00 00 00 00 00 00 00
 0.030041 1  252             Rx   d 8 00 00 00 01 00 00 00 00
 0.032043 1  253             Rx   d 8 00 00 00 00 00 00 00 00
 0.034041 1  254             Rx   d 8 00 00 00 02 00 00 00 00
 0.035024 1  221             Rx   d 8 00 00 00 00 00 00 00 00
 0.035247 1  311             Rx   d 8 00 00 01 56 00 00 01 87
 0.036119 1  241             Rx   d 8 AA 00 00 00 00 00 00 D0
 0.048074 1  251             Rx   d 8 00 00 00 00 00 00 00 00
 0.050092 1  252             Rx   d 8 00 00 00 01 00 00 00 00
 0.052068 1  253             Rx   d 8 00 00 00 00 00 00 00 00
 0.054070 1  254             Rx   d 8 00 00 00 02 00 00 00 00
 0.054988 1  221             Rx   d 8 00 00 00 00 00 00 00 00
 0.055212 1  311             Rx   d 8 00 00 01 56 00 00 01 87
 0.056131 1  241             Rx   d 8 AA 00 00 00 00 00 00 D1
 0.067099 1  261             Rx   d 8 01 29 00 1C 1E 00 00 00
 0.068070 1  251             Rx   d 8 00 00 00 00 00 00 00 00
 0.070071 1  252             Rx   d 8 00 00 00 01 00 00 00 00
 0.072123 1  253             Rx   d 8 00 00 00 00 00 00 00 00
 0.074072 1  254             Rx   d 8 00 00 00 02 00 00 00 00
 0.075020 1  221             Rx   d 8 00 00 00 00 00 00 00 00
 0.075258 1  311             Rx   d 8 00 00 01 56 00 00 01 87
 0.076143 1  241             Rx   d 8 AA 00 00 00 00 00 00 D2
 0.078073 1  262             Rx   d 8 01 28 00 1C 1E 00 00 00
 0.086091 1  211             Rx   d 8 00 01 01 1E 00 00 00 00
 0.088085 1  251             Rx   d 8 00 00 00 00 00 00 00 00
 0.089085 1  263             Rx   d 8 01 29 00 1C 1E 00 00 00
 0.090085 1  252             Rx   d 8 00 00 00 01 00 00 00 00
 0.092085 1  253             Rx   d 8 00 00 00 00 00 00 00 00
 0.094085 1  254             Rx   d 8 00 00 00 02 00 00 00 00
 0.094984 1  221             Rx   d 8 00 00 00 00 00 00 00 00
 0.095235 1  311             Rx   d 8 00 00 01 56 00 00 01 87
 0.096110 1  241             Rx   d 8 AA 00 00 00 00 00 00 D3
 0.100085 1  264             Rx   d 8 01 27 00 1C 1E 00 00 00
 0.108088 1  251             Rx   d 8 00 00 00 00 00 00 00 00
 0.110161 1  252             Rx   d 8 00 00 00 01 00 00 00 00
 0.112125 1  253             Rx   d 8 00 00 00 00 00 00 00 00
 0.114120 1  254             Rx   d 8 00 00 00 02 00 00 00 00
 0.115024 1  221             Rx   d 8 00 00 00 00 00 00 00 00
 0.115269 1  311             Rx   d 8 00 00 01 56 00 00 01 87
 0.116177 1  241             Rx   d 8 AA 00 00 00 00 00 00 D4
 0.128312 1  251             Rx   d 8 00 00 00 00 00 00 00 00
 0.130198 1  252             Rx   d 8 00 00 00 01 00 00 00 00
 0.132138 1  253             Rx   d 8 00 00 00 00 00 00 00 00
 0.134139 1  254             Rx   d 8 00 00 00 02 00 00 00 00
 0.135011 1  221             Rx   d 8 00 00 00 00 00 00 00 00
 0.135263 1  311             Rx   d 8 00 00 01 56 00 00 01 87
 0.136190 1  241             Rx   d 8 AA 00 00 00 00 00 00 D5
 0.148176 1  251             Rx   d 8 00 00 00 00 00 00 00 00
 0.150204 1  252             Rx   d 8 00 00 00 01 00 00 00 00
 0.152175 1  253             Rx   d 8 00 00 00 00 00 00 00 00
 0.154170 1  254             Rx   d 8 00 00 00 02 00 00 00 00
 0.155053 1  221             Rx   d 8 00 00 00 00 00 00 00 00
 0.155274 1  311             Rx   d 8 00 00 01 56 00 00 01 87
 0.156263 1  241             Rx   d 8 AA 00 00 00 00 00 00 D6
 0.167226 1  261             Rx   d 8 01 29 00 1C 1E 00 00 00
 0.168138 1  251             Rx   d 8 00 00 00 00 00 00 00 00
 0.170174 1  252             Rx   d 8 00 00 00 01 00 00 00 00
 0.172174 1  253             Rx   d 8 00 00 00 00 00 00 00 00
 0.174174 1  254             Rx   d 8 00 00 00 02 00 00 00 00
 0.175021 1  221             Rx   d 8 00 00 00 00 00 00 00 00
 0.175273 1  311             Rx   d 8 00 00 01 56 00 00 01 87
 0.176224 1  241             Rx   d 8 AA 00 00 00 00 00 00 D7
 0.178176 1  262             Rx   d 8 01 28 00 1C 1E 00 00 00
 0.188269 1  251             Rx   d 8 00 00 00 00 00 00 00 00
 0.189238 1  263             Rx   d 8 01 29 00 1C 1E 00 00 00
 0.190267 1  252             Rx   d 8 00 00 00 01 00 00 00 00
 0.192271 1  253             Rx   d 8 00 00 00 00 00 00 00 00
 0.194166 1  254             Rx   d 8 00 00 00 02 00 00 00 00
 0.194989 1  221             Rx   d 8 00 00 00 00 00 00 00 00
 0.195238 1  311             Rx   d 8 00 00 01 56 00 00 01 87
 0.196306 1  241             Rx   d 8 AA 00 00 00 00 00 00 D8
 0.200196 1  264             Rx   d 8 01 27 00 1C 1E 00 00 00
 0.208189 1  251             Rx   d 8 00 00 00 00 00 00 00 00
 0.210188 1  252             Rx   d 8 00 00 00 01 00 00 00 00
 0.212188 1  253             Rx   d 8 00 00 00 00 00 00 00 00
 0.214187 1  254             Rx   d 8 00 00 00 02 00 00 00 00
 0.215009 1  221             Rx   d 8 00 00 00 00 00 00 00 00
 0.215238 1  311             Rx   d 8 00 00 01 56 00 00 01 87
 0.216212 1  241             Rx   d 8 AA 00 00 00 00 00 00 D9
 0.228328 1  251             Rx   d 8 00 00 00 00 00 00 00 00
 0.230302 1  252             Rx   d 8 00 00 00 01 00 00 00 00
 0.232322 1  253             Rx   d 8 00 00 00 00 00 00 00 00
 0.234302 1  254             Rx   d 8 00 00 00 02 00 00 00 00
 0.235076 1  221             Rx   d 8 00 00 00 00 00 00 00 00
 0.235315 1  311             Rx   d 8 00 00 01 56 00 00 01 87
 0.236317 1  241             Rx   d 8 AA 00 00 00 00 00 00 DA
 0.248260 1  251             Rx   d 8 00 00 00 00 00 00 00 00
 0.250302 1  252             Rx   d 8 00 00 00 01 00 00 00 00
 0.252354 1  253             Rx   d 8 00 00 00 00 00 00 00 00
 0.254327 1  254             Rx   d 8 00 00 00 02 00 00 00 00
 0.255102 1  221             Rx   d 8 00 00 00 00 00 00 00 00
 0.255275 1  311             Rx   d 8 00 00 01 56 00 00 01 87
 0.256316 1  241             Rx   d 8 AA 00 00 00 00 00 00 DB
 0.267274 1  261             Rx   d 8 01 29 00 1C 1E 00 00 00
 0.268286 1  251             Rx   d 8 00 00 00 00 00 00 00 00
 0.270301 1  252             Rx   d 8 00 00 00 01 00 00 00 00
 0.272321 1  253             Rx   d 8 00 00 00 00 00 00 00 00
 0.274356 1  254             Rx   d 8 00 00 00 02 00 00 00 00
 0.275100 1  221             Rx   d 8 00 00 00 00 00 00 00 00
 0.275283 1  311             Rx   d 8 00 00 01 56 00 00 01 87
 0.276402 1  241             Rx   d 8 AA 00 00 00 00 00 00 DC
 0.278292 1  262             Rx   d 8 01 28 00 1C 1E 00 00 00
 0.286361 1  211             Rx   d 8 00 01 01 1E 00 00 00 00
 0.288281 1  251             Rx   d 8 00 00 00 00 00 00 00 00
 0.289311 1  263             Rx   d 8 01 29 00 1C 1E 00 00 00
 0.290302 1  252             Rx   d 8 00 00 00 01 00 00 00 00
 0.292320 1  253             Rx   d 8 00 00 00 00 00 00 00 00
 0.294358 1  254             Rx   d 8 00 00 00 02 00 00 00 00
 0.295058 1  221             Rx   d 8 00 00 00 00 00 00 00 00
 0.295280 1  311             Rx   d 8 00 00 01 56 00 00 01 87
 0.296358 1  241             Rx   d 8 AA 00 00 00 00 00 00 DD
 0.300336 1  264             Rx   d 8 01 27 00 1C 1E 00 00 00
 0.306390 1  231             Rx   d 8 00 00 00 02 46 00 00 00
 0.308335 1  251             Rx   d 8 00 00 00 00 00 00 00 00
 0.310332 1  252             Rx   d 8 00 00 00 01 00 00 00 00
 0.312339 1  253             Rx   d 8 00 00 00 00 00 00 00 00
 0.314369 1  254             Rx   d 8 00 00 00 02 00 00 00 00
 0.315102 1  221             Rx   d 8 00 00 00 00 00 00 00 00
 0.315305 1  311             Rx   d 8 00 00 01 56 00 00 01 87
 0.316381 1  241             Rx   d 8 AA 00 00 00 00 00 00 DE
 0.328364 1  251             Rx   d 8 00 00 00 00 00 00 00 00
 0.330376 1  252             Rx   d 8 00 00 00 01 00 00 00 00
 0.332361 1  253             Rx   d 8 00 00 00 00 00 00 00 00
 0.334405 1  254             Rx   d 8 00 00 00 02 00 00 00 00
 0.335105 1  221             Rx   d 8 00 00 00 00 00 00 00 00
 0.335309 1  311             Rx   d 8 00 00 01 56 00 00 01 87
 0.336460 1  241             Rx   d 8 AA 00 00 00 00 00 00 DF
 0.348364 1  251             Rx   d 8 00 00 00 00 00 00 00 00
 0.350384 1  252             Rx   d 8 00 00 00 01 00 00 00 00
 0.352354 1  253             Rx   d 8 00 00 00 00 00 00 00 00
 0.354383 1  254             Rx   d 8 00 00 00 02 00 00 00 00
 0.355056 1  221             Rx   d 8 00 00 00 00 00 00 00 00
 0.355307 1  311             Rx   d 8 00 00 01 56 00 00 01 87
 0.356455 1  241             Rx   d 8 AA 00 00 00 00 00 00 E0
 0.367391 1  261             Rx   d 8 01 2A 00 1C 1E 00 00 00
 0.368379 1  251             Rx   d 8 00 00 00 00 00 00 00 00
 0.370384 1  252             Rx   d 8 00 00 00 01 00 00 00 00
 0.372389 1  253             Rx   d 8 00 00 00 00 00 00 00 00
 0.374383 1  254             Rx   d 8 00 00 00 02 00 00 00 00
 0.375057 1  221             Rx   d 8 00 00 00 00 00 00 00 00
 0.375319 1  311             Rx   d 8 00 00 01 56 00 00 01 87
 0.376431 1  241             Rx   d 8 AA 00 00 00 00 00 00 E1
 0.378431 1  262             Rx   d 8 01 28 00 1C 1E 00 00 00
 0.388428 1  251             Rx   d 8 00 00 00 00 00 00 00 00
 0.389408 1  263             Rx   d 8 01 29 00 1C 1E 00 00 00
 0.390408 1  252             Rx   d 8 00 00 00 01 00 00 00 00
 0.392411 1  253             Rx   d 8 00 00 00 00 00 00 00 00
 0.394406 1  254             Rx   d 8 00 00 00 02 00 00 00 00
 0.395056 1  221             Rx   d 8 00 00 00 00 00 00 00 00
 0.395314 1  311             Rx   d 8 00 00 01 56 00 00 01 87
 0.396454 1  241             Rx   d 8 AA 00 00 00 00 00 00 E2
 0.400479 1  264             Rx   d 8 01 27 00 1C 1E 00 00 00
 0.408434 1  251             Rx   d 8 00 00 00 00 00 00 00 00
 0.410433 1  252             Rx   d 8 00 00 00 01 00 00 00 00
 0.412434 1  253             Rx   d 8 00 00 00 00 00 00 00 00
 0.414438 1  254             Rx   d 8 00 00 00 02 00 00 00 00
 0.415055 1  221             Rx   d 8 00 00 00 00 00 00 00 00
 0.415323 1  311             Rx   d 8 00 00 01 56 00 00 01 87
 0.416478 1  241             Rx   d 8 AA 00 00 00 00 00 00 E3
 0.428478 1  251             Rx   d 8 00 00 00 00 00 00 00 00
 0.430467 1  252             Rx   d 8 00 00 00 01 00 00 00 00
 0.432458 1  253             Rx   d 8 00 00 00 00 00 00 00 00
 0.434458 1  254             Rx   d 8 00 00 00 02 00 00 00 00
 0.435057 1  221             Rx   d 8 00 00 00 00 00 00 00 00
 0.435309 1  311             Rx   d 8 00 00 01 56 00 00 01 87
 0.436486 1  241             Rx   d 8 AA 00 00 00 00 00 00 E4
 0.448476 1  251             Rx   d 8 00 00 00 00 00 00 00 00
 0.450461 1  252             Rx   d 8 00 00 00 02 00 00 00 00
 0.452483 1  253             Rx   d 8 00 00 00 00 00 00 00 00
 0.454476 1  254             Rx   d 8 00 00 00 02 00 00 00 00
 0.455074 1  221             Rx   d 8 00 00 00 00 00 00 00 00
 0.455305 1  311             Rx   d 8 00 00 01 56 00 00 01 87
 0.456531 1  241             Rx   d 8 AA 00 00 00 00 00 00 E5
 0.467534 1  261             Rx   d 8 01 29 00 1C 1E 00 00 00
 0.468484 1  251             Rx   d 8 00 00 00 00 00 00 00 00
 0.470497 1  252             Rx   d 8 00 00 00 02 00 00 00 00
 0.472490 1  253             Rx   d 8 00 00 00 00 00 00 00 00
 0.474506 1  254             Rx   d 8 00 00 00 02 00 00 00 00
 0.475054 1  221             Rx   d 8 00 00 00 00 00 00 00 00
 0.475311 1  311             Rx   d 8 00 00 01 56 00 00 01 87
 0.476530 1  241             Rx   d 8 AA 00 00 00 00 00 00 E6
 0.478481 1  262             Rx   d 8 01 28 00 1C 1E 00 00 00
 0.486610 1  211             Rx   d 8 00 01 01 1E 00 00 00 00
 0.488576 1  251             Rx   d 8 00 00 00 00 00 00 00 00
 0.489578 1  263             Rx   d 8 01 29 00 1C 1E 00 00 00
 0.490614 1  252             Rx   d 8 00 00 00 02 00 00 00 00
 0.492548 1  253             Rx   d 8 00 00 00 00 00 00 00 00
 0.494519 1  254             Rx   d 8 00 00 00 02 00 00 00 00
 0.495057 1  221             Rx   d 8 00 00 00 00 00 00 00 00
 0.495317 1  311             Rx   d 8 00 00 01 56 00 00 01 87
 0.496559 1  241             Rx   d 8 AA 00 00 00 00 00 00 E7
 0.500506 1  264             Rx   d 8 01 27 00 1C 1E 00 00 00
 0.508532 1  251             Rx   d 8 00 00 00 00 00 00 00 00
 0.510551 1  252             Rx   d 8 00 00 00 01 00 00 00 00
 0.512527 1  253             Rx   d 8 00 00 00 00 00 00 00 00
 0.514526 1  254             Rx   d 8 00 00 00 02 00 00 00 00
 0.515074 1  221             Rx   d 8 00 00 00 00 00 00 00 00
 0.515301 1  311             Rx   d 8 00 00 01 56 00 00 01 87
 0.516579 1  241             Rx   d 8 AA 00 00 00 00 00 00 E8
 0.528591 1  251             Rx   d 8 00 00 00 00 00 00 00 00
 0.530660 1  252             Rx   d 8 00 00 00 01 00 00 00 00
 0.532784 1  253             Rx   d 8 00 00 00 00 00 00 00 00
 0.534590 1  254             Rx   d 8 00 00 00 02 00 00 00 00
 0.535095 1  221             Rx   d 8 00 00 00 00 00 00 00 00
 0.535344 1  311             Rx   d 8 00 00 01 56 00 00 01 87
 0.536595 1  241             Rx   d 8 AA 00 00 00 00 00 00 E9
 0.548644 1  251             Rx   d 8 00 00 00 00 00 00 00 00
 0.550611 1  252             Rx   d 8 00 00 00 01 00 00 00 00
 0.552605 1  253             Rx   d 8 00 00 00 00 00 00 00 00
 0.554743 1  254             Rx   d 8 00 00 00 02 00 00 00 00
 0.555104 1  221             Rx   d 8 00 00 00 00 00 00 00 00
 0.555362 1  311             Rx   d 8 00 00 01 56 00 00 01 87
 0.556630 1  241             Rx   d 8 AA 00 00 00 00 00 00 EA
 0.567583 1  261             Rx   d 8 01 29 00 1C 1E 00 00 00
 0.568583 1  251             Rx   d 8 00 00 00 00 00 00 00 00
 0.570587 1  252             Rx   d 8 00 00 00 01 00 00 00 00
 0.572581 1  253             Rx   d 8 00 00 00 00 00 00 00 00
 0.574639 1  254             Rx   d 8 00 00 00 02 00 00 00 00
 0.575142 1  221             Rx   d 8 00 00 00 00 00 00 00 00
 0.575329 1  311             Rx   d 8 00 00 01 56 00 00 01 87
 0.576751 1  241             Rx   d 8 AA 00 00 00 00 00 00 EB
 0.578635 1  262             Rx   d 8 01 29 00 1C 1E 00 00 00
 0.588605 1  251             Rx   d 8 00 00 00 00 00 00 00 00
 0.589606 1  263             Rx   d 8 01 29 00 1C 1E 00 00 00
 0.590661 1  252             Rx   d 8 00 00 00 01 00 00 00 00
 0.592633 1  253             Rx   d 8 00 00 00 00 00 00 00 00
 0.594607 1  254             Rx   d 8 00 00 00 02 00 00 00 00
 0.595049 1  221             Rx   d 8 00 00 00 00 00 00 00 00
 0.595304 1  311             Rx   d 8 00 00 01 56 00 00 01 87
 0.596711 1  241             Rx   d 8 AA 00 00 00 00 00 00 EC
 0.599841 1  421             Tx   d 1 01
 0.600612 1  264             Rx   d 8 01 28 00 1C 1E 00 00 00
 0.608633 1  251             Rx   d 8 00 00 00 00 00 00 00 00
 0.610624 1  252             Rx   d 8 00 00 00 01 00 00 00 00
 0.612633 1  253             Rx   d 8 00 00 00 00 00 00 00 00
 0.614682 1  254             Rx   d 8 00 00 00 02 00 00 00 00
 0.615156 1  221             Rx   d 8 00 00 00 00 00 00 00 00
 0.615333 1  311             Rx   d 8 00 00 01 56 00 00 01 87
 0.616657 1  241             Rx   d 8 AA 00 00 00 00 00 00 ED
 0.628633 1  251             Rx   d 8 00 00 00 00 00 00 00 00
 0.630627 1  252             Rx   d 8 00 00 00 01 00 00 00 00
 0.632706 1  253             Rx   d 8 00 00 00 00 00 00 00 00
 0.634707 1  254             Rx   d 8 00 00 00 02 00 00 00 00
 0.635130 1  221             Rx   d 8 00 00 00 00 00 00 00 00
 0.635323 1  311             Rx   d 8 00 00 01 56 00 00 01 87
 0.636682 1  241             Rx   d 8 AA 00 00 00 00 00 00 EE
 0.648680 1  251             Rx   d 8 00 00 00 00 00 00 00 00
 0.650650 1  252             Rx   d 8 00 00 00 01 00 00 00 00
 0.652653 1  253             Rx   d 8 00 00 00 00 00 00 00 00
 0.654691 1  254             Rx   d 8 00 00 00 02 00 00 00 00
 0.655150 1  221             Rx   d 8 00 00 00 00 00 00 00 00
 0.655327 1  311             Rx   d 8 00 00 01 56 00 00 01 87
 0.656810 1  241             Rx   d 8 AA 00 00 00 00 00 00 EF
 0.667682 1  261             Rx   d 8 01 29 00 1C 1E 00 00 00
 0.668677 1  251             Rx   d 8 00 00 00 00 00 00 00 00
 0.670691 1  252             Rx   d 8 00 00 00 01 00 00 00 00
 0.672693 1  253             Rx   d 8 00 00 00 00 00 00 00 00
 0.674669 1  254             Rx   d 8 00 00 00 02 00 00 00 00
 0.675139 1  221             Rx   d 8 00 00 00 00 00 00 00 00
 0.675332 1  311             Rx   d 8 00 00 01 56 00 00 01 87
 0.676786 1  241             Rx   d 8 AA 00 00 00 00 00 00 F0
 0.678717 1  262             Rx   d 8 01 28 00 1C 1E 00 00 00
 0.686653 1  211             Rx   d 8 00 01 01 1E 00 00 00 00
 0.688674 1  251             Rx   d 8 00 00 00 00 00 00 00 00
 0.689674 1  263             Rx   d 8 01 29 00 1C 1E 00 00 00
 0.690674 1  252             Rx   d 8 00 00 00 01 00 00 00 00
 0.692674 1  253             Rx   d 8 00 00 00 00 00 00 00 00
 0.694674 1  254             Rx   d 8 00 00 00 02 00 00 00 00
 0.695047 1  221             Rx   d 8 00 00 00 00 00 00 00 00
 0.695300 1  311             Rx   d 8 00 00 01 56 00 00 01 87
 0.696675 1  241             Rx   d 8 AA 00 00 00 00 00 00 F1
 0.700675 1  264             Rx   d 8 01 27 00 1C 1E 00 00 00
 0.708725 1  251             Rx   d 8 00 00 00 00 00 00 00 00
 0.710701 1  252             Rx   d 8 00 00 00 01 00 00 00 00
 0.712699 1  253             Rx   d 8 00 00 00 00 00 00 00 00
 0.714700 1  254             Rx   d 8 00 00 00 02 00 00 00 00
 0.715047 1  221             Rx   d 8 00 00 00 00 00 00 00 00
 0.715300 1  311             Rx   d 8 00 00 01 56 00 00 01 87
 0.716783 1  241             Rx   d 8 AA 00 00 00 00 00 00 F2
 0.728709 1  251             Rx   d 8 00 00 00 00 00 00 00 00
 0.730705 1  252             Rx   d 8 00 00 00 01 00 00 00 00
 0.732707 1  253             Rx   d 8 00 00 00 00 00 00 00 00
 0.734732 1  254             Rx   d 8 00 00 00 02 00 00 00 00
 0.735101 1  221             Rx   d 8 00 00 00 00 00 00 00 00
 0.735299 1  311             Rx   d 8 00 00 01 56 00 00 01 87
 0.736780 1  241             Rx   d 8 AA 00 00 00 00 00 00 F3
 0.748731 1  251             Rx   d 8 00 00 00 00 00 00 00 00
 0.750757 1  252             Rx   d 8 00 00 00 01 00 00 00 00
 0.752753 1  253             Rx   d 8 00 00 00 00 00 00 00 00
 0.754768 1  254             Rx   d 8 00 00 00 02 00 00 00 00
 0.755053 1  221             Rx   d 8 00 00 00 00 00 00 00 00
 0.755317 1  311             Rx   d 8 00 00 01 56 00 00 01 87
 0.756736 1  241             Rx   d 8 AA 00 00 00 00 00 00 F4
 0.767759 1  261             Rx   d 8 01 29 00 1C 1E 00 00 00
 0.768784 1  251             Rx   d 8 00 00 00 00 00 00 00 00
 0.770783 1  252             Rx   d 8 00 00 00 01 00 00 00 00
 0.772773 1  253             Rx   d 8 00 00 00 00 00 00 00 00
 0.774798 1  254             Rx   d 8 00 00 00 02 00 00 00 00
 0.775132 1  221             Rx   d 8 00 00 00 00 00 00 00 00
 0.775365 1  311             Rx   d 8 00 00 01 56 00 00 01 87
 0.776833 1  241             Rx   d 8 AA 00 00 00 00 00 00 F5
 0.778782 1  262             Rx   d 8 01 28 00 1C 1E 00 00 00
 0.788865 1  251             Rx   d 8 00 00 00 00 00 00 00 00
 0.789794 1  263             Rx   d 8 01 29 00 1C 1E 00 00 00
 0.790813 1  252             Rx   d 8 00 00 00 01 00 00 00 00
 0.792834 1  253             Rx   d 8 00 00 00 00 00 00 00 00
 0.794806 1  254             Rx   d 8 00 00 00 02 00 00 00 00
 0.795125 1  221             Rx   d 8 00 00 00 00 00 00 00 00
 0.795322 1  311             Rx   d 8 00 00 01 56 00 00 01 87
 0.796846 1  241             Rx   d 8 AA 00 00 00 00 00 00 F6
 0.800781 1  264             Rx   d 8 01 27 00 1C 1E 00 00 00
 0.806782 1  231             Rx   d 8 00 00 00 02 5A 00 00 00
 0.808803 1  251             Rx   d 8 00 00 00 00 00 00 00 00
 0.810802 1  252             Rx   d 8 00 00 00 01 00 00 00 00
 0.812803 1  253             Rx   d 8 00 00 00 00 00 00 00 00
 0.814803 1  254             Rx   d 8 00 00 00 02 00 00 00 00
 0.815101 1  221             Rx   d 8 00 00 00 00 00 00 00 00
 0.815300 1  311             Rx   d 8 00 00 01 56 00 00 01 87
 0.816803 1  241             Rx   d 8 AA 00 00 00 00 00 00 F7
 0.828854 1  251             Rx   d 8 00 00 00 00 00 00 00 00
 0.830860 1  252             Rx   d 8 00 00 00 01 00 00 00 00
 0.832865 1  253             Rx   d 8 00 00 00 00 00 00 00 00
 0.834862 1  254             Rx   d 8 00 00 00 02 00 00 00 00
 0.835135 1  221             Rx   d 8 00 00 00 00 00 00 00 00
 0.835360 1  311             Rx   d 8 00 00 01 56 00 00 01 87
 0.836889 1  241             Rx   d 8 AA 00 00 00 00 00 00 F8
 0.848832 1  251             Rx   d 8 00 00 00 00 00 00 00 00
 0.850853 1  252             Rx   d 8 00 00 00 01 00 00 00 00
 0.852833 1  253             Rx   d 8 00 00 00 00 00 00 00 00
 0.854855 1  254             Rx   d 8 00 00 00 02 00 00 00 00
 0.855103 1  221             Rx   d 8 00 00 00 00 00 00 00 00
 0.855325 1  311             Rx   d 8 00 00 01 56 00 00 01 87
 0.856854 1  241             Rx   d 8 AA 00 00 00 00 00 00 F9
 0.867889 1  261             Rx   d 8 01 29 00 1C 1E 00 00 00
 0.868886 1  251             Rx   d 8 00 00 00 00 00 00 00 00
 0.870886 1  252             Rx   d 8 00 00 00 01 00 00 00 00
 0.872887 1  253             Rx   d 8 00 00 00 00 00 00 00 00
 0.874889 1  254             Rx   d 8 00 00 00 02 00 00 00 00
 0.875137 1  221             Rx   d 8 00 00 00 00 00 00 00 00
 0.875382 1  311             Rx   d 8 00 00 01 56 00 00 01 87
 0.876941 1  241             Rx   d 8 AA 00 00 00 00 00 00 FA
 0.878885 1  262             Rx   d 8 01 28 00 1C 1E 00 00 00
 0.886967 1  211             Rx   d 8 00 01 01 1E 00 00 00 00
 0.888912 1  251             Rx   d 8 00 00 00 00 00 00 00 00
 0.889912 1  263             Rx   d 8 01 29 00 1C 1E 00 00 00
 0.890912 1  252             Rx   d 8 00 00 00 01 00 00 00 00
 0.892913 1  253             Rx   d 8 00 00 00 00 00 00 00 00
 0.894918 1  254             Rx   d 8 00 00 00 02 00 00 00 00
 0.895166 1  221             Rx   d 8 00 00 00 00 00 00 00 00
 0.895426 1  311             Rx   d 8 00 00 01 56 00 00 01 87
 0.896940 1  241             Rx   d 8 AA 00 00 00 00 00 00 FB
 0.900917 1  264             Rx   d 8 01 27 00 1C 1E 00 00 00
 0.908945 1  251             Rx   d 8 00 00 00 00 00 00 00 00
 0.910939 1  252             Rx   d 8 00 00 00 01 00 00 00 00
 0.912945 1  253             Rx   d 8 00 00 00 00 00 00 00 00
 0.914943 1  254             Rx   d 8 00 00 00 02 00 00 00 00
 0.915195 1  221             Rx   d 8 00 00 00 00 00 00 00 00
 0.915411 1  311             Rx   d 8 00 00 01 56 00 00 01 87
 0.916989 1  241             Rx   d 8 AA 00 00 00 00 00 00 FC
 0.928945 1  251             Rx   d 8 00 00 00 00 00 00 00 00
 0.930969 1  252             Rx   d 8 00 00 00 01 00 00 00 00
 0.932970 1  253             Rx   d 8 00 00 00 00 00 00 00 00
 0.934969 1  254             Rx   d 8 00 00 00 02 00 00 00 00
 0.935217 1  221             Rx   d 8 00 00 00 00 00 00 00 00
 0.935463 1  311             Rx   d 8 00 00 01 56 00 00 01 87
 0.936991 1  241             Rx   d 8 AA 00 00 00 00 00 00 FD
 0.948972 1  251             Rx   d 8 00 00 00 00 00 00 00 00
 0.950967 1  252             Rx   d 8 00 00 00 01 00 00 00 00
 0.952971 1  253             Rx   d 8 00 00 00 00 00 00 00 00
 0.954967 1  254             Rx   d 8 00 00 00 02 00 00 00 00
 0.955241 1  221             Rx   d 8 00 00 00 00 00 00 00 00
 0.955463 1  311             Rx   d 8 00 00 01 56 00 00 01 87
 0.956995 1  241             Rx   d 8 AA 00 00 00 00 00 00 FE
 0.968009 1  261             Rx   d 8 01 29 00 1C 1E 00 00 00
 0.969005 1  251             Rx   d 8 00 00 00 00 00 00 00 00
 0.971006 1  252             Rx   d 8 00 00 00 01 00 00 00 00
 0.973005 1  253             Rx   d 8 00 00 00 00 00 00 00 00
 0.975007 1  254             Rx   d 8 00 00 00 02 00 00 00 00
 0.975252 1  221             Rx   d 8 00 00 00 00 00 00 00 00
 0.975489 1  311             Rx   d 8 00 00 01 56 00 00 01 87
 0.977017 1  241             Rx   d 8 AA 00 00 00 00 00 00 FF
 0.979006 1  262             Rx   d 8 01 29 00 1C 1E 00 00 00
 0.989037 1  251             Rx   d 8 00 00 00 00 00 00 00 00
 0.990031 1  263             Rx   d 8 01 29 00 1C 1E 00 00 00
 0.991031 1  252             Rx   d 8 00 00 00 01 00 00 00 00
 0.993030 1  253             Rx   d 8 00 00 00 00 00 00 00 00
 0.995031 1  254             Rx   d 8 00 00 00 02 00 00 00 00
 0.995236 1  221             Rx   d 8 00 00 00 00 00 00 00 00
 0.995531 1  311             Rx   d 8 00 00 01 56 00 00 01 87
 0.997095 1  241             Rx   d 8 AA 00 00 00 00 00 00 00
 1.000994 1  264             Rx   d 8 01 27 00 1C 1E 00 00 00
 1.009046 1  251             Rx   d 8 00 00 00 00 00 00 00 00
 1.011045 1  252             Rx   d 8 00 00 00 01 00 00 00 00
 1.013047 1  253             Rx   d 8 00 00 00 00 00 00 00 00
 1.015056 1  254             Rx   d 8 00 00 00 02 00 00 00 00
 1.015276 1  221             Rx   d 8 00 00 00 00 00 00 00 00
 1.015548 1  311             Rx   d 8 00 00 01 56 00 00 01 87
 1.017096 1  241             Rx   d 8 AA 00 00 00 00 00 00 01
 1.029065 1  251             Rx   d 8 00 00 00 00 00 00 00 00
 1.031065 1  252             Rx   d 8 00 00 00 01 00 00 00 00
 1.033045 1  253             Rx   d 8 00 00 00 00 00 00 00 00
 1.035068 1  254             Rx   d 8 00 00 00 02 00 00 00 00
 1.035296 1  221             Rx   d 8 00 00 00 00 00 00 00 00
 1.035544 1  311             Rx   d 8 00 00 01 56 00 00 01 87
 1.037141 1  241             Rx   d 8 AA 00 00 00 00 00 00 02
 1.049069 1  251             Rx   d 8 00 00 00 00 00 00 00 00
 1.051067 1  252             Rx   d 8 00 00 00 01 00 00 00 00
 1.053058 1  253             Rx   d 8 00 00 00 00 00 00 00 00
 1.055094 1  254             Rx   d 8 00 00 00 02 00 00 00 00
 1.055344 1  221             Rx   d 8 00 00 00 00 00 00 00 00
 1.055567 1  311             Rx   d 8 00 00 01 56 00 00 01 87
 1.057142 1  241             Rx   d 8 AA 00 00 00 00 00 00 03
 1.068147 1  261             Rx   d 8 01 29 00 1C 1E 00 00 00
 1.069062 1  251             Rx   d 8 00 00 00 00 00 00 00 00
 1.071141 1  252             Rx   d 8 00 00 00 01 00 00 00 00
 1.073141 1  253             Rx   d 8 00 00 00 00 00 00 00 00
 1.075141 1  221             Rx   d 8 00 00 00 00 00 00 00 00
 1.075387 1  311             Rx   d 8 00 00 01 56 00 00 01 87
 1.077165 1  241             Rx   d 8 AA 00 00 00 00 00 00 04
 1.079142 1  262             Rx   d 8 01 29 00 1C 1E 00 00 00
 1.087148 1  211             Rx   d 8 00 01 01 1E 00 00 00 00
 1.089142 1  251             Rx   d 8 00 00 00 00 00 00 00 00
 1.090092 1  263             Rx   d 8 01 29 00 1C 1E 00 00 00
 1.091145 1  252             Rx   d 8 00 00 00 01 00 00 00 00
 1.093141 1  253             Rx   d 8 00 00 00 00 00 00 00 00
 1.095146 1  221             Rx   d 8 00 00 00 00 00 00 00 00
 1.095396 1  311             Rx   d 8 00 00 01 56 00 00 01 87
 1.095646 1  254             Rx   d 8 00 00 00 02 00 00 00 00
 1.097165 1  241             Rx   d 8 AA 00 00 00 00 00 00 05
 1.101143 1  264             Rx   d 8 01 27 00 1C 1E 00 00 00
 1.109148 1  251             Rx   d 8 00 00 00 00 00 00 00 00
 1.111146 1  252             Rx   d 8 00 00 00 01 00 00 00 00
 1.113150 1  253             Rx   d 8 00 00 00 00 00 00 00 00
 1.115150 1  221             Rx   d 8 00 00 00 00 00 00 00 00
 1.115400 1  311             Rx   d 8 00 00 01 56 00 00 01 87
 1.115656 1  254             Rx   d 8 00 00 00 02 00 00 00 00
 1.117160 1  241             Rx   d 8 AA 00 00 00 00 00 00 06
 1.129167 1  251             Rx   d 8 00 00 00 00 00 00 00 00
 1.131165 1  252             Rx   d 8 00 00 00 01 00 00 00 00
 1.133165 1  253             Rx   d 8 00 00 00 00 00 00 00 00
 1.135138 1  221             Rx   d 8 00 00 00 00 00 00 00 00
 1.135385 1  311             Rx   d 8 00 00 01 56 00 00 01 87
 1.135636 1  254             Rx   d 8 00 00 00 02 00 00 00 00
 1.137194 1  241             Rx   d 8 AA 00 00 00 00 00 00 07
 1.149168 1  251             Rx   d 8 00 00 00 00 00 00 00 00
 1.151173 1  252             Rx   d 8 00 00 00 02 00 00 00 00
 1.153172 1  253             Rx   d 8 00 00 00 00 00 00 00 00
 1.155149 1  221             Rx   d 8 00 00 00 00 00 00 00 00
 1.155395 1  311             Rx   d 8 00 00 01 56 00 00 01 87
 1.155652 1  254             Rx   d 8 00 00 00 02 00 00 00 00
 1.157259 1  241             Rx   d 8 AA 00 00 00 00 00 00 08
 1.168198 1  261             Rx   d 8 01 29 00 1C 1E 00 00 00
 1.169193 1  251             Rx   d 8 00 00 00 00 00 00 00 00
 1.171199 1  252             Rx   d 8 00 00 00 02 00 00 00 00
 1.173193 1  253             Rx   d 8 00 00 00 00 00 00 00 00
 1.175147 1  221             Rx   d 8 00 00 00 00 00 00 00 00
 1.175397 1  311             Rx   d 8 00 00 01 56 00 00 01 87
 1.175658 1  254             Rx   d 8 00 00 00 02 00 00 00 00
 1.177247 1  241             Rx   d 8 AA 00 00 00 00 00 00 09
 1.179199 1  262             Rx   d 8 01 28 00 1C 1E 00 00 00
 1.189200 1  251             Rx   d 8 00 00 00 00 00 00 00 00
 1.190223 1  263             Rx   d 8 01 29 00 1C 1E 00 00 00
 1.191221 1  252             Rx   d 8 00 00 00 02 00 00 00 00
 1.193226 1  253             Rx   d 8 00 00 00 00 00 00 00 00
 1.195146 1  221             Rx   d 8 00 00 00 00 00 00 00 00
 1.195403 1  311             Rx   d 8 00 00 01 56 00 00 01 87
 1.195608 1  254             Rx   d 8 00 00 00 02 00 00 00 00
 1.197262 1  241             Rx   d 8 AA 00 00 00 00 00 00 0A
 1.201193 1  264             Rx   d 8 01 27 00 1C 1E 00 00 00
 1.209213 1  251             Rx   d 8 00 00 00 00 00 00 00 00
 1.211214 1  252             Rx   d 8 00 00 00 01 00 00 00 00
 1.213214 1  253             Rx   d 8 00 00 00 00 00 00 00 00
 1.215113 1  221             Rx   d 8 00 00 00 00 00 00 00 00
 1.215360 1  311             Rx   d 8 00 00 01 56 00 00 01 87
 1.215609 1  254             Rx   d 8 00 00 00 02 00 00 00 00
 1.217263 1  241             Rx   d 8 AA 00 00 00 00 00 00 0B
 1.229251 1  251             Rx   d 8 00 00 00 00 00 00 00 00
 1.231275 1  252             Rx   d 8 00 00 00 01 00 00 00 00
 1.233241 1  253             Rx   d 8 00 00 00 00 00 00 00 00
 1.235152 1  221             Rx   d 8 00 00 00 00 00 00 00 00
 1.235398 1  311             Rx   d 8 00 00 01 56 00 00 01 87
 1.235649 1  254             Rx   d 8 00 00 00 02 00 00 00 00
 1.237273 1  241             Rx   d 8 AA 00 00 00 00 00 00 0C
 1.249276 1  251             Rx   d 8 00 00 00 00 00 00 00 00
 1.251281 1  252             Rx   d 8 00 00 00 01 00 00 00 00
 1.253276 1  253             Rx   d 8 00 00 00 00 00 00 00 00
 1.255150 1  221             Rx   d 8 00 00 00 00 00 00 00 00
 1.255394 1  311             Rx   d 8 00 00 01 56 00 00 01 87
 1.255644 1  254             Rx   d 8 00 00 00 02 00 00 00 00
 1.257337 1  241             Rx   d 8 AA 00 00 00 00 00 00 0D
 1.268307 1  261             Rx   d 8 01 29 00 1C 1E 00 00 00
 1.269302 1  251             Rx   d 8 00 00 00 00 00 00 00 00
 1.271301 1  252             Rx   d 8 00 00 00 01 00 00 00 00
 1.273301 1  253             Rx   d 8 00 00 00 00 00 00 00 00
 1.275147 1  221             Rx   d 8 00 00 00 00 00 00 00 00
 1.275403 1  311             Rx   d 8 00 00 01 56 00 00 01 87
 1.275665 1  254             Rx   d 8 00 00 00 02 00 00 00 00
 1.277349 1  241             Rx   d 8 AA 00 00 00 00 00 00 0E
 1.279299 1  262             Rx   d 8 01 28 00 1C 1E 00 00 00
 1.287351 1  211             Rx   d 8 00 01 01 1E 00 00 00 00
 1.289322 1  251             Rx   d 8 00 00 00 00 00 00 00 00
 1.290328 1  263             Rx   d 8 01 29 00 1C 1E 00 00 00
 1.291325 1  252             Rx   d 8 00 00 00 01 00 00 00 00
 1.293324 1  253             Rx   d 8 00 00 00 00 00 00 00 00
 1.295161 1  221             Rx   d 8 00 00 00 00 00 00 00 00
 1.295401 1  311             Rx   d 8 00 00 01 56 00 00 01 87
 1.295649 1  254             Rx   d 8 00 00 00 02 00 00 00 00
 1.297380 1  241             Rx   d 8 AA 00 00 00 00 00 00 0F
 1.301326 1  264             Rx   d 8 01 27 00 1C 1E 00 00 00
 1.307403 1  231             Rx   d 8 00 00 00 02 5B 00 00 00
 1.309353 1  251             Rx   d 8 00 00 00 00 00 00 00 00
 1.311352 1  252             Rx   d 8 00 00 00 01 00 00 00 00
 1.313352 1  253             Rx   d 8 00 00 00 00 00 00 00 00
 1.315171 1  221             Rx   d 8 00 00 00 00 00 00 00 00
 1.315394 1  311             Rx   d 8 00 00 01 56 00 00 01 87
 1.315617 1  254             Rx   d 8 00 00 00 02 00 00 00 00
 1.317403 1  241             Rx   d 8 AA 00 00 00 00 00 00 10
 1.329356 1  251             Rx   d 8 00 00 00 00 00 00 00 00
 1.331352 1  252             Rx   d 8 00 00 00 01 00 00 00 00
 1.333384 1  253             Rx   d 8 00 00 00 00 00 00 00 00
 1.335150 1  221             Rx   d 8 00 00 00 00 00 00 00 00
 1.335400 1  311             Rx   d 8 00 00 01 56 00 00 01 87
 1.335671 1  254             Rx   d 8 00 00 00 02 00 00 00 00
 1.337399 1  241             Rx   d 8 AA 00 00 00 00 00 00 11
 1.349378 1  251             Rx   d 8 00 00 00 00 00 00 00 00
 1.351378 1  252             Rx   d 8 00 00 00 01 00 00 00 00
 1.353380 1  253             Rx   d 8 00 00 00 00 00 00 00 00
 1.355178 1  221             Rx   d 8 00 00 00 00 00 00 00 00
 1.355427 1  311             Rx   d 8 00 00 01 56 00 00 01 87
 1.355678 1  254             Rx   d 8 00 00 00 02 00 00 00 00
 1.357457 1  241             Rx   d 8 AA 00 00 00 00 00 00 12
 1.368408 1  261             Rx   d 8 01 29 00 1C 1E 00 00 00
 1.369401 1  251             Rx   d 8 00 00 00 00 00 00 00 00
 1.371407 1  252             Rx   d 8 00 00 00 01 00 00 00 00
 1.373417 1  253             Rx   d 8 00 00 00 00 00 00 00 00
 1.375179 1  221             Rx   d 8 00 00 00 00 00 00 00 00
 1.375390 1  311             Rx   d 8 00 00 01 56 00 00 01 87
 1.375674 1  254             Rx   d 8 00 00 00 02 00 00 00 00
 1.377455 1  241             Rx   d 8 AA 00 00 00 00 00 00 13
 1.379406 1  262             Rx   d 8 01 29 00 1C 1E 00 00 00
 1.389432 1  251             Rx   d 8 00 00 00 00 00 00 00 00
 1.390429 1  263             Rx   d 8 01 29 00 1C 1E 00 00 00
 1.391429 1  252             Rx   d 8 00 00 00 01 00 00 00 00
 1.393430 1  253             Rx   d 8 00 00 00 00 00 00 00 00
 1.395184 1  221             Rx   d 8 00 00 00 00 00 00 00 00
 1.395431 1  311             Rx   d 8 00 00 01 56 00 00 01 87
 1.395677 1  254             Rx   d 8 00 00 00 02 00 00 00 00
 1.397478 1  241             Rx   d 8 AA 00 00 00 00 00 00 14
 1.401427 1  264             Rx   d 8 01 27 00 1C 1E 00 00 00
 1.409450 1  251             Rx   d 8 00 00 00 00 00 00 00 00
 1.411456 1  252             Rx   d 8 00 00 00 01 00 00 00 00
 1.413453 1  253             Rx   d 8 00 00 00 00 00 00 00 00
 1.415183 1  221             Rx   d 8 00 00 00 00 00 00 00 00
 1.415426 1  311             Rx   d 8 00 00 01 56 00 00 01 87
 1.415676 1  254             Rx   d 8 00 00 00 02 00 00 00 00
 1.417505 1  241             Rx   d 8 AA 00 00 00 00 00 00 15
 1.429456 1  251             Rx   d 8 00 00 00 00 00 00 00 00
 1.431454 1  252             Rx   d 8 00 00 00 01 00 00 00 00
 1.433482 1  253             Rx   d 8 00 00 00 00 00 00 00 00
 1.435183 1  221             Rx   d 8 00 00 00 00 00 00 00 00
 1.435424 1  311             Rx   d 8 00 00 01 56 00 00 01 87
 1.435673 1  254             Rx   d 8 00 00 00 02 00 00 00 00
 1.437505 1  241             Rx   d 8 AA 00 00 00 00 00 00 16
 1.449481 1  251             Rx   d 8 00 00 00 00 00 00 00 00
 1.451481 1  252             Rx   d 8 00 00 00 01 00 00 00 00
 1.453481 1  253             Rx   d 8 00 00 00 00 00 00 00 00
 1.455180 1  221             Rx   d 8 00 00 00 00 00 00 00 00
 1.455425 1  311             Rx   d 8 00 00 01 56 00 00 01 87
 1.455671 1  254             Rx   d 8 00 00 00 02 00 00 00 00
 1.457530 1  241             Rx   d 8 AA 00 00 00 00 00 00 17
 1.468503 1  261             Rx   d 8 01 29 00 1C 1E 00 00 00
 1.469506 1  251             Rx   d 8 00 00 00 00 00 00 00 00
 1.471508 1  252             Rx   d 8 00 00 00 01 00 00 00 00
 1.473505 1  253             Rx   d 8 00 00 00 00 00 00 00 00
 1.475179 1  221             Rx   d 8 00 00 00 00 00 00 00 00
 1.475437 1  311             Rx   d 8 00 00 01 56 00 00 01 87
 1.475672 1  254             Rx   d 8 00 00 00 02 00 00 00 00
 1.477557 1  241             Rx   d 8 AA 00 00 00 00 00 00 18
 1.479514 1  262             Rx   d 8 01 28 00 1C 1E 00 00 00
 1.487582 1  211             Rx   d 8 00 01 01 1E 00 00 00 00
 1.489533 1  251             Rx   d 8 00 00 00 00 00 00 00 00
 1.490507 1  263             Rx   d 8 01 29 00 1C 1E 00 00 00
 1.491525 1  252             Rx   d 8 00 00 00 01 00 00 00 00
 1.493532 1  253             Rx   d 8 00 00 00 00 00 00 00 00
 1.495183 1  221             Rx   d 8 00 00 00 00 00 00 00 00
 1.495425 1  311             Rx   d 8 00 00 01 56 00 00 01 87
 1.495673 1  254             Rx   d 8 00 00 00 02 00 00 00 00
 1.497588 1  241             Rx   d 8 AA 00 00 00 00 00 00 19
 1.501533 1  264             Rx   d 8 01 27 00 1C 1E 00 00 00
 1.509534 1  251             Rx   d 8 00 00 00 00 00 00 00 00
 1.511534 1  252             Rx   d 8 00 00 00 01 00 00 00 00
 1.513557 1  253             Rx   d 8 00 00 00 00 00 00 00 00
 1.515185 1  221             Rx   d 8 00 00 00 00 00 00 00 00
 1.515429 1  311             Rx   d 8 00 00 01 56 00 00 01 87
 1.515677 1  254             Rx   d 8 00 00 00 02 00 00 00 00
 1.517559 1  241             Rx   d 8 AA 00 00 00 00 00 00 1A
 1.529549 1  251             Rx   d 8 00 00 00 00 00 00 00 00
 1.531559 1  252             Rx   d 8 00 00 00 01 00 00 00 00
 1.533553 1  253             Rx   d 8 00 00 00 00 00 00 00 00
 1.535206 1  221             Rx   d 8 00 00 00 00 00 00 00 00
 1.535426 1  311             Rx   d 8 00 00 01 56 00 00 01 87
 1.535676 1  254             Rx   d 8 00 00 00 02 00 00 00 00
 1.537641 1  241             Rx   d 8 AA 00 00 00 00 00 00 1B
 1.549582 1  251             Rx   d 8 00 00 00 00 00 00 00 00
 1.551577 1  252             Rx   d 8 00 00 00 02 00 00 00 00
 1.553585 1  253             Rx   d 8 00 00 00 00 00 00 00 00
 1.555181 1  221             Rx   d 8 00 00 00 00 00 00 00 00
 1.555434 1  311             Rx   d 8 00 00 01 56 00 00 01 87
 1.555678 1  254             Rx   d 8 00 00 00 02 00 00 00 00
 1.557614 1  241             Rx   d 8 AA 00 00 00 00 00 00 1C
 1.568610 1  261             Rx   d 8 01 29 00 1C 1E 00 00 00
 1.569612 1  251             Rx   d 8 00 00 00 00 00 00 00 00
 1.571609 1  252             Rx   d 8 00 00 00 02 00 00 00 00
 1.573609 1  253             Rx   d 8 00 00 00 00 00 00 00 00
 1.575207 1  221             Rx   d 8 00 00 00 00 00 00 00 00
 1.575434 1  311             Rx   d 8 00 00 01 56 00 00 01 87
 1.575678 1  254             Rx   d 8 00 00 00 02 00 00 00 00
 1.577661 1  241             Rx   d 8 AA 00 00 00 00 00 00 1D
 1.579613 1  262             Rx   d 8 01 28 00 1C 1E 00 00 00
 1.589634 1  251             Rx   d 8 00 00 00 00 00 00 00 00
 1.590632 1  263             Rx   d 8 01 29 00 1C 1E 00 00 00
 1.591635 1  252             Rx   d 8 00 00 00 02 00 00 00 00
 1.593634 1  253             Rx   d 8 00 00 00 00 00 00 00 00
 1.595209 1  221             Rx   d 8 00 00 00 00 00 00 00 00
 1.595454 1  311             Rx   d 8 00 00 01 56 00 00 01 87
 1.595705 1  254             Rx   d 8 00 00 00 02 00 00 00 00
 1.597683 1  241             Rx   d 8 AA 00 00 00 00 00 00 1E
 1.601636 1  264             Rx   d 8 01 27 00 1C 1E 00 00 00
 1.609633 1  251             Rx   d 8 00 00 00 00 00 00 00 00
 1.611661 1  252             Rx   d 8 00 00 00 01 00 00 00 00
 1.613631 1  253             Rx   d 8 00 00 00 00 00 00 00 00
 1.615211 1  221             Rx   d 8 00 00 00 00 00 00 00 00
 1.615455 1  311             Rx   d 8 00 00 01 56 00 00 01 87
 1.615705 1  254             Rx   d 8 00 00 00 02 00 00 00 00
 1.617708 1  241             Rx   d 8 AA 00 00 00 00 00 00 1F
 1.629627 1  251             Rx   d 8 00 00 00 00 00 00 00 00
 1.631657 1  252             Rx   d 8 00 00 00 01 00 00 00 00
 1.633659 1  253             Rx   d 8 00 00 00 00 00 00 00 00
 1.635201 1  221             Rx   d 8 00 00 00 00 00 00 00 00
 1.635454 1  311             Rx   d 8 00 00 01 56 00 00 01 87
 1.635697 1  254             Rx   d 8 00 00 00 02 00 00 00 00
 1.637740 1  241             Rx   d 8 AA 00 00 00 00 00 00 20
 1.649678 1  251             Rx   d 8 00 00 00 00 00 00 00 00
 1.651678 1  252             Rx   d 8 00 00 00 01 00 00 00 00
 1.653681 1  253             Rx   d 8 00 00 00 00 00 00 00 00
 1.655252 1  221             Rx   d 8 00 00 00 00 00 00 00 00
 1.655462 1  311             Rx   d 8 00 00 01 56 00 00 01 87
 1.655707 1  254             Rx   d 8 00 00 00 02 00 00 00 00
 1.657758 1  241             Rx   d 8 AA 00 00 00 00 00 00 21
 1.668711 1  261             Rx   d 8 01 29 00 1C 1E 00 00 00
 1.669717 1  251             Rx   d 8 00 00 00 00 00 00 00 00
 1.671712 1  252             Rx   d 8 00 00 00 01 00 00 00 00
 1.673708 1  253             Rx   d 8 00 00 00 00 00 00 00 00
 1.675206 1  221             Rx   d 8 00 00 00 00 00 00 00 00
 1.675467 1  311             Rx   d 8 00 00 01 56 00 00 01 87
 1.675705 1  254             Rx   d 8 00 00 00 02 00 00 00 00
 1.677760 1  241             Rx   d 8 AA 00 00 00 00 00 00 22
 1.679709 1  262             Rx   d 8 01 28 00 1C 1E 00 00 00
 1.687765 1  211             Rx   d 8 00 01 01 1E 00 00 00 00
 1.689734 1  251             Rx   d 8 00 00 00 00 00 00 00 00
 1.690714 1  263             Rx   d 8 01 29 00 1C 1E 00 00 00
 1.691736 1  252             Rx   d 8 00 00 00 01 00 00 00 00
 1.693734 1  253             Rx   d 8 00 00 00 00 00 00 00 00
 1.695208 1  221             Rx   d 8 00 00 00 00 00 00 00 00
 1.695481 1  311             Rx   d 8 00 00 01 56 00 00 01 87
 1.695756 1  254             Rx   d 8 00 00 00 02 00 00 00 00
 1.697715 1  241             Rx   d 8 AA 00 00 00 00 00 00 23
 1.701703 1  264             Rx   d 8 01 27 00 1C 1E 00 00 00
 1.709698 1  251             Rx   d 8 00 00 00 00 00 00 00 00
 1.711725 1  252             Rx   d 8 00 00 00 01 00 00 00 00
 1.713727 1  253             Rx   d 8 00 00 00 00 00 00 00 00
 1.715175 1  221             Rx   d 8 00 00 00 00 00 00 00 00
 1.715422 1  311             Rx   d 8 00 00 01 56 00 00 01 87
 1.715720 1  254             Rx   d 8 00 00 00 02 00 00 00 00
 1.717726 1  241             Rx   d 8 AA 00 00 00 00 00 00 24
 1.729745 1  251             Rx   d 8 00 00 00 00 00 00 00 00
 1.731762 1  252             Rx   d 8 00 00 00 01 00 00 00 00
 1.733762 1  253             Rx   d 8 00 00 00 00 00 00 00 00
 1.735213 1  221             Rx   d 8 00 00 00 00 00 00 00 00
 1.735433 1  311             Rx   d 8 00 00 01 56 00 00 01 87
 1.735784 1  254             Rx   d 8 00 00 00 02 00 00 00 00
 1.737800 1  241             Rx   d 8 AA 00 00 00 00 00 00 25
 1.749790 1  251             Rx   d 8 00 00 00 00 00 00 00 00
 1.751788 1  252             Rx   d 8 00 00 00 01 00 00 00 00
 1.753788 1  253             Rx   d 8 00 00 00 00 00 00 00 00
 1.755212 1  221             Rx   d 8 00 00 00 00 00 00 00 00
 1.755459 1  311             Rx   d 8 00 00 01 56 00 00 01 87
 1.755784 1  254             Rx   d 8 00 00 00 02 00 00 00 00
 1.757836 1  241             Rx   d 8 AA 00 00 00 00 00 00 26
 1.768795 1  261             Rx   d 8 01 29 00 1C 1E 00 00 00
 1.769815 1  251             Rx   d 8 00 00 00 00 00 00 00 00
 1.771813 1  252             Rx   d 8 00 00 00 01 00 00 00 00
 1.773817 1  253             Rx   d 8 00 00 00 00 00 00 00 00
 1.775214 1  221             Rx   d 8 00 00 00 00 00 00 00 00
 1.775454 1  311             Rx   d 8 00 00 01 56 00 00 01 87
 1.775805 1  254             Rx   d 8 00 00 00 02 00 00 00 00
 1.777865 1  241             Rx   d 8 AA 00 00 00 00 00 00 27
 1.779813 1  262             Rx   d 8 01 28 00 1C 1E 00 00 00
 1.789818 1  251             Rx   d 8 00 00 00 00 00 00 00 00
 1.790835 1  263             Rx   d 8 01 29 00 1C 1E 00 00 00
 1.791834 1  252             Rx   d 8 00 00 00 01 00 00 00 00
 1.793837 1  253             Rx   d 8 00 00 00 00 00 00 00 00
 1.795206 1  221             Rx   d 8 00 00 00 00 00 00 00 00
 1.795452 1  311             Rx   d 8 00 00 01 56 00 00 01 87
 1.795832 1  254             Rx   d 8 00 00 00 02 00 00 00 00
 1.797860 1  241             Rx   d 8 AA 00 00 00 00 00 00 28
 1.801840 1  264             Rx   d 8 01 27 00 1C 1E 00 00 00
 1.807911 1  231             Rx   d 8 00 00 00 02 47 00 00 00
 1.809860 1  251             Rx   d 8 00 00 00 00 00 00 00 00
 1.811866 1  252             Rx   d 8 00 00 00 01 00 00 00 00
 1.813869 1  253             Rx   d 8 00 00 00 00 00 00 00 00
 1.815209 1  221             Rx   d 8 00 00 00 00 00 00 00 00
 1.815482 1  311             Rx   d 8 00 00 01 56 00 00 01 87
 1.815856 1  254             Rx   d 8 00 00 00 02 00 00 00 00
 1.817886 1  241             Rx   d 8 AA 00 00 00 00 00 00 29
 1.829865 1  251             Rx   d 8 00 00 00 00 00 00 00 00
 1.831861 1  252             Rx   d 8 00 00 00 01 00 00 00 00
 1.833882 1  253             Rx   d 8 00 00 00 00 00 00 00 00
 1.835204 1  221             Rx   d 8 00 00 00 00 00 00 00 00
 1.835452 1  311             Rx   d 8 00 00 01 56 00 00 01 87
 1.835878 1  254             Rx   d 8 00 00 00 02 00 00 00 00
 1.837937 1  241             Rx   d 8 AA 00 00 00 00 00 00 2A
 1.849885 1  251             Rx   d 8 00 00 00 00 00 00 00 00
 1.851880 1  252             Rx   d 8 00 00 00 01 00 00 00 00
 1.853882 1  253             Rx   d 8 00 00 00 00 00 00 00 00
 1.855233 1  221             Rx   d 8 00 00 00 00 00 00 00 00
 1.855480 1  311             Rx   d 8 00 00 01 56 00 00 01 87
 1.855878 1  254             Rx   d 8 00 00 00 02 00 00 00 00
 1.857960 1  241             Rx   d 8 AA 00 00 00 00 00 00 2B
 1.868897 1  261             Rx   d 8 01 29 00 1C 1E 00 00 00
 1.869926 1  251             Rx   d 8 00 00 00 00 00 00 00 00
 1.871911 1  252             Rx   d 8 00 00 00 01 00 00 00 00
 1.873914 1  253             Rx   d 8 00 00 00 00 00 00 00 00
 1.875235 1  221             Rx   d 8 00 00 00 00 00 00 00 00
 1.875484 1  311             Rx   d 8 00 00 01 56 00 00 01 87
 1.875909 1  254             Rx   d 8 00 00 00 02 00 00 00 00
 1.877969 1  241             Rx   d 8 AA 00 00 00 00 00 00 2C
 1.879911 1  262             Rx   d 8 01 28 00 1C 1E 00 00 00
 1.887969 1  211             Rx   d 8 00 01 01 1E 00 00 00 00
 1.889884 1  251             Rx   d 8 00 00 00 00 00 00 00 00
 1.890937 1  263             Rx   d 8 01 29 00 1C 1E 00 00 00
 1.891940 1  252             Rx   d 8 00 00 00 01 00 00 00 00
 1.893936 1  253             Rx   d 8 00 00 00 00 00 00 00 00
 1.895240 1  221             Rx   d 8 00 00 00 00 00 00 00 00
 1.895486 1  311             Rx   d 8 00 00 01 56 00 00 01 87
 1.895935 1  254             Rx   d 8 00 00 00 02 00 00 00 00
 1.897987 1  241             Rx   d 8 AA 00 00 00 00 00 00 2D
 1.901938 1  264             Rx   d 8 01 27 00 1C 1E 00 00 00
 1.909936 1  251             Rx   d 8 00 00 00 00 00 00 00 00
 1.911964 1  252             Rx   d 8 00 00 00 01 00 00 00 00
 1.913962 1  253             Rx   d 8 00 00 00 00 00 00 00 00
 1.915237 1  221             Rx   d 8 00 00 00 00 00 00 00 00
 1.915484 1  311             Rx   d 8 00 00 01 56 00 00 01 87
 1.915958 1  254             Rx   d 8 00 00 00 02 00 00 00 00
 1.917962 1  241             Rx   d 8 AA 00 00 00 00 00 00 2E
 1.929972 1  251             Rx   d 8 00 00 00 00 00 00 00 00
 1.931967 1  252             Rx   d 8 00 00 00 01 00 00 00 00
 1.933992 1  253             Rx   d 8 00 00 00 00 00 00 00 00
 1.935233 1  221             Rx   d 8 00 00 00 00 00 00 00 00
 1.935481 1  311             Rx   d 8 00 00 01 56 00 00 01 87
 1.935986 1  254             Rx   d 8 00 00 00 02 00 00 00 00
 1.937961 1  241             Rx   d 8 AA 00 00 00 00 00 00 2F
 1.949988 1  251             Rx   d 8 00 00 00 00 00 00 00 00
 1.951992 1  252             Rx   d 8 00 00 00 01 00 00 00 00
 1.953985 1  253             Rx   d 8 00 00 00 00 00 00 00 00
 1.955234 1  221             Rx   d 8 00 00 00 00 00 00 00 00
 1.955485 1  311             Rx   d 8 00 00 01 56 00 00 01 87
 1.956007 1  254             Rx   d 8 00 00 00 02 00 00 00 00
 1.958048 1  241             Rx   d 8 AA 00 00 00 00 00 00 30
 1.969013 1  261             Rx   d 8 01 29 00 1C 1E 00 00 00
 1.970011 1  251             Rx   d 8 00 00 00 00 00 00 00 00
 1.972010 1  252             Rx   d 8 00 00 00 01 00 00 00 00
 1.974019 1  253             Rx   d 8 00 00 00 00 00 00 00 00
 1.975237 1  221             Rx   d 8 00 00 00 00 00 00 00 00
 1.975484 1  311             Rx   d 8 00 00 01 56 00 00 01 87
 1.976007 1  254             Rx   d 8 00 00 00 02 00 00 00 00
 1.978062 1  241             Rx   d 8 AA 00 00 00 00 00 00 31
 1.980011 1  262             Rx   d 8 01 29 00 1C 1E 00 00 00
 1.990021 1  251             Rx   d 8 00 00 00 00 00 00 00 00
 1.991020 1  263             Rx   d 8 01 29 00 1C 1E 00 00 00
 1.992037 1  252             Rx   d 8 00 00 00 01 00 00 00 00
 1.994047 1  253             Rx   d 8 00 00 00 00 00 00 00 00
 1.995243 1  221             Rx   d 8 00 00 00 00 00 00 00 00
 1.995491 1  311             Rx   d 8 00 00 01 56 00 00 01 87
 1.996040 1  254             Rx   d 8 00 00 00 02 00 00 00 00
 1.998094 1  241             Rx   d 8 AA 00 00 00 00 00 00 32
 2.002046 1  264             Rx   d 8 01 27 00 1C 1E 00 00 00
 2.010041 1  251             Rx   d 8 00 00 00 00 00 00 00 00
 2.012069 1  252             Rx   d 8 00 00 00 01 00 00 00 00
 2.014067 1  253             Rx   d 8 00 00 00 00 00 00 00 00
 2.015243 1  221             Rx   d 8 00 00 00 00 00 00 00 00
 2.015491 1  311             Rx   d 8 00 00 01 56 00 00 01 87
 2.016066 1  254             Rx   d 8 00 00 00 02 00 00 00 00
 2.018095 1  241             Rx   d 8 AA 00 00 00 00 00 00 33
 2.030069 1  251             Rx   d 8 00 00 00 00 00 00 00 00
 2.032074 1  252             Rx   d 8 00 00 00 01 00 00 00 00
 2.034072 1  253             Rx   d 8 00 00 00 00 00 00 00 00
 2.035237 1  221             Rx   d 8 00 00 00 00 00 00 00 00
 2.035485 1  311             Rx   d 8 00 00 01 56 00 00 01 87
 2.036084 1  254             Rx   d 8 00 00 00 02 00 00 00 00
 2.038164 1  241             Rx   d 8 AA 00 00 00 00 00 00 34
 2.050093 1  251             Rx   d 8 00 00 00 00 00 00 00 00
 2.052095 1  252             Rx   d 8 00 00 00 01 00 00 00 00
 2.054090 1  253             Rx   d 8 00 00 00 00 00 00 00 00
 2.055243 1  221             Rx   d 8 00 00 00 00 00 00 00 00
 2.055488 1  311             Rx   d 8 00 00 01 56 00 00 01 87
 2.056087 1  254             Rx   d 8 00 00 00 02 00 00 00 00
 2.058178 1  241             Rx   d 8 AA 00 00 00 00 00 00 35
 2.069161 1  261             Rx   d 8 01 29 00 1C 1E 00 00 00
 2.070109 1  251             Rx   d 8 00 00 00 00 00 00 00 00
 2.072110 1  252             Rx   d 8 00 00 00 01 00 00 00 00
 2.074160 1  253             Rx   d 8 00 00 00 00 00 00 00 00
 2.075236 1  221             Rx   d 8 00 00 00 00 00 00 00 00
 2.075484 1  311             Rx   d 8 00 00 01 56 00 00 01 87
 2.076112 1  254             Rx   d 8 00 00 00 02 00 00 00 00
 2.078162 1  241             Rx   d 8 AA 00 00 00 00 00 00 36
 2.080164 1  262             Rx   d 8 01 28 00 1C 1E 00 00 00
 2.088160 1  211             Rx   d 8 00 01 01 1E 00 00 00 00
 2.090176 1  251             Rx   d 8 00 00 00 00 00 00 00 00
 2.091167 1  263             Rx   d 8 01 29 00 1C 1E 00 00 00
 2.092167 1  252             Rx   d 8 00 00 00 01 00 00 00 00
 2.094170 1  253             Rx   d 8 00 00 00 00 00 00 00 00
 2.095270 1  221             Rx   d 8 00 00 00 00 00 00 00 00
 2.095493 1  311             Rx   d 8 00 00 01 56 00 00 01 87
 2.096171 1  254             Rx   d 8 00 00 00 02 00 00 00 00
 2.098222 1  241             Rx   d 8 AA 00 00 00 00 00 00 37
 2.102169 1  264             Rx   d 8 01 27 00 1C 1E 00 00 00
 2.110168 1  251             Rx   d 8 00 00 00 00 00 00 00 00
 2.112165 1  252             Rx   d 8 00 00 00 01 00 00 00 00
 2.114166 1  253             Rx   d 8 00 00 00 00 00 00 00 00
 2.115266 1  221             Rx   d 8 00 00 00 00 00 00 00 00
 2.115459 1  311             Rx   d 8 00 00 01 56 00 00 01 87
 2.116165 1  254             Rx   d 8 00 00 00 02 00 00 00 00
 2.118192 1  241             Rx   d 8 AA 00 00 00 00 00 00 38
 2.130168 1  251             Rx   d 8 00 00 00 00 00 00 00 00
 2.132155 1  252             Rx   d 8 00 00 00 01 00 00 00 00
 2.134160 1  253             Rx   d 8 00 00 00 00 00 00 00 00
 2.135263 1  221             Rx   d 8 00 00 00 00 00 00 00 00
 2.135510 1  311             Rx   d 8 00 00 01 56 00 00 01 87
 2.136188 1  254             Rx   d 8 00 00 00 02 00 00 00 00
 2.138213 1  241             Rx   d 8 AA 00 00 00 00 00 00 39
 2.150189 1  251             Rx   d 8 00 00 00 00 00 00 00 00
 2.152189 1  252             Rx   d 8 00 00 00 01 00 00 00 00
 2.154194 1  253             Rx   d 8 00 00 00 00 00 00 00 00
 2.155277 1  221             Rx   d 8 00 00 00 00 00 00 00 00
 2.155515 1  311             Rx   d 8 00 00 01 56 00 00 01 87
 2.156188 1  254             Rx   d 8 00 00 00 02 00 00 00 00
 2.158264 1  241             Rx   d 8 AA 00 00 00 00 00 00 3A
 2.169191 1  261             Rx   d 8 01 29 00 1C 1E 00 00 00
 2.170214 1  251             Rx   d 8 00 00 00 00 00 00 00 00
 2.172214 1  252             Rx   d 8 00 00 00 01 00 00 00 00
 2.174213 1  253             Rx   d 8 00 00 00 00 00 00 00 00
 2.175259 1  221             Rx   d 8 00 00 00 00 00 00 00 00
 2.175513 1  311             Rx   d 8 00 00 01 56 00 00 01 87
 2.176218 1  254             Rx   d 8 00 00 00 02 00 00 00 00
 2.178269 1  241             Rx   d 8 AA 00 00 00 00 00 00 3B
 2.180215 1  262             Rx   d 8 01 28 00 1C 1E 00 00 00
 2.190242 1  251             Rx   d 8 00 00 00 00 00 00 00 00
 2.191250 1  263             Rx   d 8 01 29 00 1C 1E 00 00 00
 2.192254 1  252             Rx   d 8 00 00 00 01 00 00 00 00
 2.194214 1  253             Rx   d 8 00 00 00 00 00 00 00 00
 2.195261 1  221             Rx   d 8 00 00 00 00 00 00 00 00
 2.195507 1  311             Rx   d 8 00 00 01 56 00 00 01 87
 2.196217 1  254             Rx   d 8 00 00 00 02 00 00 00 00
 2.198300 1  241             Rx   d 8 AA 00 00 00 00 00 00 3C
 2.202216 1  264             Rx   d 8 01 27 00 1C 1E 00 00 00
 2.210238 1  251             Rx   d 8 00 00 00 00 00 00 00 00
 2.212212 1  252             Rx   d 8 00 00 00 01 00 00 00 00
 2.214212 1  253             Rx   d 8 00 00 00 00 00 00 00 00
 2.215236 1  221             Rx   d 8 00 00 00 00 00 00 00 00
 2.215486 1  311             Rx   d 8 00 00 01 56 00 00 01 87
 2.216269 1  254             Rx   d 8 00 00 00 02 00 00 00 00
 2.218261 1  241             Rx   d 8 AA 00 00 00 00 00 00 3D
 2.230266 1  251             Rx   d 8 00 00 00 00 00 00 00 00
 2.232272 1  252             Rx   d 8 00 00 00 01 00 00 00 00
 2.234267 1  253             Rx   d 8 00 00 00 00 00 00 00 00
 2.235290 1  221             Rx   d 8 00 00 00 00 00 00 00 00
 2.235518 1  311             Rx   d 8 00 00 01 56 00 00 01 87
 2.236276 1  254             Rx   d 8 00 00 00 02 00 00 00 00
 2.238340 1  241             Rx   d 8 AA 00 00 00 00 00 00 3E
 2.250292 1  251             Rx   d 8 00 00 00 00 00 00 00 00
 2.252275 1  252             Rx   d 8 00 00 00 01 00 00 00 00
 2.254291 1  253             Rx   d 8 00 00 00 00 00 00 00 00
 2.255267 1  221             Rx   d 8 00 00 00 00 00 00 00 00
 2.255512 1  311             Rx   d 8 00 00 01 56 00 00 01 87
 2.256275 1  254             Rx   d 8 00 00 00 02 00 00 00 00
 2.258346 1  241             Rx   d 8 AA 00 00 00 00 00 00 3F
 2.269297 1  261             Rx   d 8 01 29 00 1C 1E 00 00 00
 2.270316 1  251             Rx   d 8 00 00 00 00 00 00 00 00
 2.272290 1  252             Rx   d 8 00 00 00 01 00 00 00 00
 2.274315 1  253             Rx   d 8 00 00 00 00 00 00 00 00
 2.275266 1  221             Rx   d 8 00 00 00 00 00 00 00 00
 2.275513 1  311             Rx   d 8 00 00 01 56 00 00 01 87
 2.276327 1  254             Rx   d 8 00 00 00 02 00 00 00 00
 2.278341 1  241             Rx   d 8 AA 00 00 00 00 00 00 40
 2.280325 1  262             Rx   d 8 01 28 00 1C 1E 00 00 00
 2.288373 1  211             Rx   d 8 00 01 01 1E 00 00 00 00
 2.290341 1  251             Rx   d 8 00 00 00 00 00 00 00 00
 2.291317 1  263             Rx   d 8 01 29 00 1C 1E 00 00 00
 2.292347 1  252             Rx   d 8 00 00 00 01 00 00 00 00
 2.294344 1  253             Rx   d 8 00 00 00 00 00 00 00 00
 2.295240 1  221             Rx   d 8 00 00 00 00 00 00 00 00
 2.295515 1  311             Rx   d 8 00 00 01 56 00 00 01 87
 2.296345 1  254             Rx   d 8 00 00 00 02 00 00 00 00
 2.298368 1  241             Rx   d 8 AA 00 00 00 00 00 00 41
 2.302347 1  264             Rx   d 8 01 28 00 1C 1E 00 00 00
 2.308418 1  231             Rx   d 8 00 00 00 02 33 00 00 00
 2.310351 1  251             Rx   d 8 00 00 00 00 00 00 00 00
 2.312342 1  252             Rx   d 8 00 00 00 01 00 00 00 00
 2.314349 1  253             Rx   d 8 00 00 00 00 00 00 00 00
 2.315294 1  221             Rx   d 8 00 00 00 00 00 00 00 00
 2.315516 1  311             Rx   d 8 00 00 01 56 00 00 01 87
 2.316401 1  254             Rx   d 8 00 00 00 02 00 00 00 00
 2.318417 1  241             Rx   d 8 AA 00 00 00 00 00 00 42
 2.330375 1  251             Rx   d 8 00 00 00 00 00 00 00 00
 2.332369 1  252             Rx   d 8 00 00 00 01 00 00 00 00
 2.334368 1  253             Rx   d 8 00 00 00 00 00 00 00 00
 2.335298 1  221             Rx   d 8 00 00 00 00 00 00 00 00
 2.335528 1  311             Rx   d 8 00 00 01 56 00 00 01 87
 2.336373 1  254             Rx   d 8 00 00 00 02 00 00 00 00
 2.338391 1  241             Rx   d 8 AA 00 00 00 00 00 00 43
 2.350404 1  251             Rx   d 8 00 00 00 00 00 00 00 00
 2.352403 1  252             Rx   d 8 00 00 00 01 00 00 00 00
 2.354403 1  253             Rx   d 8 00 00 00 00 00 00 00 00
 2.355280 1  221             Rx   d 8 00 00 00 00 00 00 00 00
 2.355535 1  311             Rx   d 8 00 00 01 56 00 00 01 87
 2.356401 1  254             Rx   d 8 00 00 00 02 00 00 00 00
 2.358480 1  241             Rx   d 8 AA 00 00 00 00 00 00 44
 2.369407 1  261             Rx   d 8 01 29 00 1C 1E 00 00 00
 2.370430 1  251             Rx   d 8 00 00 00 00 00 00 00 00
 2.372423 1  252             Rx   d 8 00 00 00 01 00 00 00 00
 2.374414 1  253             Rx   d 8 00 00 00 00 00 00 00 00
 2.375303 1  221             Rx   d 8 00 00 00 00 00 00 00 00
 2.375523 1  311             Rx   d 8 00 00 01 56 00 00 01 87
 2.376427 1  254             Rx   d 8 00 00 00 02 00 00 00 00
 2.378475 1  241             Rx   d 8 AA 00 00 00 00 00 00 45
 2.380422 1  262             Rx   d 8 01 28 00 1C 1E 00 00 00
 2.390429 1  251             Rx   d 8 00 00 00 00 00 00 00 00
 2.391431 1  263             Rx   d 8 01 29 00 1C 1E 00 00 00
 2.392454 1  252             Rx   d 8 00 00 00 01 00 00 00 00
 2.394452 1  253             Rx   d 8 00 00 00 00 00 00 00 00
 2.395305 1  221             Rx   d 8 00 00 00 00 00 00 00 00
 2.395527 1  311             Rx   d 8 00 00 01 56 00 00 01 87
 2.396455 1  254             Rx   d 8 00 00 00 02 00 00 00 00
 2.398513 1  241             Rx   d 8 AA 00 00 00 00 00 00 46
 2.402447 1  264             Rx   d 8 01 27 00 1C 1E 00 00 00
 2.410454 1  251             Rx   d 8 00 00 00 00 00 00 00 00
 2.412449 1  252             Rx   d 8 00 00 00 01 00 00 00 00
 2.414475 1  253             Rx   d 8 00 00 00 00 00 00 00 00
 2.415299 1  221             Rx   d 8 00 00 00 00 00 00 00 00
 2.415522 1  311             Rx   d 8 00 00 01 56 00 00 01 87
 2.416417 1  254             Rx   d 8 00 00 00 02 00 00 00 00
 2.418525 1  241             Rx   d 8 AA 00 00 00 00 00 00 47
 2.430482 1  251             Rx   d 8 00 00 00 00 00 00 00 00
 2.432504 1  252             Rx   d 8 00 00 00 01 00 00 00 00
 2.434479 1  253             Rx   d 8 00 00 00 00 00 00 00 00
 2.435304 1  221             Rx   d 8 00 00 00 00 00 00 00 00
 2.435552 1  311             Rx   d 8 00 00 01 56 00 00 01 87
 2.436476 1  254             Rx   d 8 00 00 00 02 00 00 00 00
 2.438550 1  241             Rx   d 8 AA 00 00 00 00 00 00 48
 2.450512 1  251             Rx   d 8 00 00 00 00 00 00 00 00
 2.452502 1  252             Rx   d 8 00 00 00 01 00 00 00 00
 2.454503 1  253             Rx   d 8 00 00 00 00 00 00 00 00
 2.455299 1  221             Rx   d 8 00 00 00 00 00 00 00 00
 2.455551 1  311             Rx   d 8 00 00 01 56 00 00 01 87
 2.456501 1  254             Rx   d 8 00 00 00 02 00 00 00 00
 2.458553 1  241             Rx   d 8 AA 00 00 00 00 00 00 49
 2.469498 1  261             Rx   d 8 01 29 00 1C 1E 00 00 00
 2.470527 1  251             Rx   d 8 00 00 00 00 00 00 00 00
 2.472525 1  252             Rx   d 8 00 00 00 01 00 00 00 00
 2.474557 1  253             Rx   d 8 00 00 00 00 00 00 00 00
 2.475295 1  221             Rx   d 8 00 00 00 00 00 00 00 00
 2.475543 1  311             Rx   d 8 00 00 01 56 00 00 01 87
 2.476531 1  254             Rx   d 8 00 00 00 02 00 00 00 00
 2.478571 1  241             Rx   d 8 AA 00 00 00 00 00 00 4A
 2.480523 1  262             Rx   d 8 01 28 00 1C 1E 00 00 00
 2.488603 1  211             Rx   d 8 00 01 01 1E 00 00 00 00
 2.490525 1  251             Rx   d 8 00 00 00 00 00 00 00 00
 2.491530 1  263             Rx   d 8 01 29 00 1C 1E 00 00 00
 2.492553 1  252             Rx   d 8 00 00 00 01 00 00 00 00
 2.494560 1  253             Rx   d 8 00 00 00 00 00 00 00 00
 2.495302 1  221             Rx   d 8 00 00 00 00 00 00 00 00
 2.495553 1  311             Rx   d 8 00 00 01 56 00 00 01 87
 2.496549 1  254             Rx   d 8 00 00 00 02 00 00 00 00
 2.498602 1  241             Rx   d 8 AA 00 00 00 00 00 00 4B
 2.502553 1  264             Rx   d 8 01 27 00 1C 1E 00 00 00
 2.510550 1  251             Rx   d 8 00 00 00 00 00 00 00 00
 2.512577 1  252             Rx   d 8 00 00 00 01 00 00 00 00
 2.514578 1  253             Rx   d 8 00 00 00 00 00 00 00 00
 2.515297 1  221             Rx   d 8 00 00 00 00 00 00 00 00
 2.515546 1  311             Rx   d 8 00 00 01 56 00 00 01 87
 2.516576 1  254             Rx   d 8 00 00 00 02 00 00 00 00
 2.518623 1  241             Rx   d 8 AA 00 00 00 00 00 00 4C
 2.530548 1  251             Rx   d 8 00 00 00 00 00 00 00 00
 2.532546 1  252             Rx   d 8 00 00 00 01 00 00 00 00
 2.534577 1  253             Rx   d 8 00 00 00 00 00 00 00 00
 2.535300 1  221             Rx   d 8 00 00 00 00 00 00 00 00
 2.535544 1  311             Rx   d 8 00 00 01 56 00 00 01 87
 2.536574 1  254             Rx   d 8 00 00 00 02 00 00 00 00
 2.538649 1  241             Rx   d 8 AA 00 00 00 00 00 00 4D
 2.550599 1  251             Rx   d 8 00 00 00 00 00 00 00 00
 2.552601 1  252             Rx   d 8 00 00 00 01 00 00 00 00
 2.554598 1  253             Rx   d 8 00 00 00 00 00 00 00 00
 2.555297 1  221             Rx   d 8 00 00 00 00 00 00 00 00
 2.555544 1  311             Rx   d 8 00 00 01 56 00 00 01 87
 2.556596 1  254             Rx   d 8 00 00 00 02 00 00 00 00
 2.558598 1  241             Rx   d 8 AA 00 00 00 00 00 00 4E
 2.569627 1  261             Rx   d 8 01 29 00 1C 1E 00 00 00
 2.570626 1  251             Rx   d 8 00 00 00 00 00 00 00 00
 2.572623 1  252             Rx   d 8 00 00 00 01 00 00 00 00
 2.574630 1  253             Rx   d 8 00 00 00 00 00 00 00 00
 2.575297 1  221             Rx   d 8 00 00 00 00 00 00 00 00
 2.575546 1  311             Rx   d 8 00 00 01 56 00 00 01 87
 2.576623 1  254             Rx   d 8 00 00 00 02 00 00 00 00
 2.578674 1  241             Rx   d 8 AA 00 00 00 00 00 00 4F
 2.580627 1  262             Rx   d 8 01 28 00 1C 1E 00 00 00
 2.590625 1  251             Rx   d 8 00 00 00 00 00 00 00 00
 2.591649 1  263             Rx   d 8 01 29 00 1C 1E 00 00 00
 2.592649 1  252             Rx   d 8 00 00 00 01 00 00 00 00
 2.594652 1  253             Rx   d 8 00 00 00 00 00 00 00 00
 2.595282 1  221             Rx   d 8 00 00 00 00 00 00 00 00
 2.595549 1  311             Rx   d 8 00 00 01 56 00 00 01 87
 2.596651 1  254             Rx   d 8 00 00 00 02 00 00 00 00
 2.610659 1  251             Rx   d 8 00 00 00 00 00 00 00 00
 2.612652 1  252             Rx   d 8 00 00 00 01 00 00 00 00
 2.614634 1  253             Rx   d 8 00 00 00 00 00 00 00 00
 2.615324 1  221             Rx   d 8 00 00 00 00 00 00 00 00
 2.615547 1  311             Rx   d 8 00 00 01 56 00 00 01 87
 2.616679 1  254             Rx   d 8 00 00 00 02 00 00 00 00
 2.618705 1  241             Rx   d 8 AA 00 00 00 00 00 00 51
 2.630678 1  251             Rx   d 8 00 00 00 00 00 00 00 00
 2.632675 1  252             Rx   d 8 00 00 00 01 00 00 00 00
 2.650700 1  251             Rx   d 8 00 00 00 00 00 00 00 00
 2.690751 1  251             Rx   d 8 00 00 00 00 00 00 00 00
 2.691752 1  263             Rx   d 8 01 29 00 1C 1E 00 00 00
 2.750803 1  251             Rx   d 8 00 00 00 00 00 00 00 00
 2.752805 1  252             Rx   d 8 00 00 00 01 00 00 00 00
 2.754809 1  253             Rx   d 8 00 00 00 00 00 00 00 00
 2.755335 1  221             Rx   d 8 00 00 00 00 00 00 00 00
 2.790835 1  251             Rx   d 8 00 00 00 00 00 00 00 00
 2.888954 1  211             Rx   d 8 00 01 01 1E 00 00 00 00
 2.890904 1  251             Rx   d 8 00 00 00 00 00 00 00 00
 2.991037 1  251             Rx   d 8 00 00 00 00 00 00 00 00
 3.031088 1  251             Rx   d 8 00 00 00 00 00 00 00 00
 3.103162 1  264             Rx   d 8 01 27 00 1C 1E 00 00 00
 3.111189 1  251             Rx   d 8 00 00 00 00 00 00 00 00
 3.151213 1  251             Rx   d 8 00 00 00 00 00 00 00 00
 3.191212 1  251             Rx   d 8 00 00 00 00 00 00 00 00
 3.211241 1  251             Rx   d 8 00 00 00 00 00 00 00 00
 3.289364 1  211             Rx   d 8 00 01 01 1E 00 00 00 00
 3.291312 1  251             Rx   d 8 00 00 00 00 00 00 00 00
 3.292314 1  263             Rx   d 8 01 29 00 1C 1E 00 00 00
 3.293313 1  252             Rx   d 8 00 00 00 01 00 00 00 00
 3.295337 1  253             Rx   d 8 00 00 00 00 00 00 00 00
 3.295584 1  221             Rx   d 8 00 00 00 00 00 00 00 00
 3.295809 1  311             Rx   d 8 00 00 01 56 00 00 01 87
 3.297337 1  254             Rx   d 8 00 00 00 02 00 00 00 00
 3.299387 1  241             Rx   d 8 AA 00 00 00 00 00 00 73
 3.303377 1  264             Rx   d 8 01 27 00 1C 1E 00 00 00
 3.309374 1  231             Rx   d 8 00 00 00 02 0B 00 00 00
 3.311369 1  251             Rx   d 8 00 00 00 00 00 00 00 00
 3.313374 1  252             Rx   d 8 00 00 00 01 00 00 00 00
 3.315399 1  221             Rx   d 8 00 00 00 00 00 00 00 00
 3.315650 1  311             Rx   d 8 00 00 01 56 00 00 01 87
 3.315899 1  253             Rx   d 8 00 00 00 00 00 00 00 00
 3.317396 1  254             Rx   d 8 00 00 00 02 00 00 00 00
 3.319423 1  241             Rx   d 8 AA 00 00 00 00 00 00 74
 3.331372 1  251             Rx   d 8 00 00 00 00 00 00 00 00
 3.333394 1  252             Rx   d 8 00 00 00 01 00 00 00 00
 3.335422 1  221             Rx   d 8 00 00 00 00 00 00 00 00
 3.335648 1  311             Rx   d 8 00 00 01 56 00 00 01 87
 3.335887 1  253             Rx   d 8 00 00 00 00 00 00 00 00
 3.337369 1  254             Rx   d 8 00 00 00 02 00 00 00 00
 3.339487 1  241             Rx   d 8 AA 00 00 00 00 00 00 75
 3.351418 1  251             Rx   d 8 00 00 00 00 00 00 00 00
 3.353424 1  252             Rx   d 8 00 00 00 01 00 00 00 00
 3.355410 1  221             Rx   d 8 00 00 00 00 00 00 00 00
 3.355623 1  311             Rx   d 8 00 00 01 56 00 00 01 87
 3.355891 1  253             Rx   d 8 00 00 00 00 00 00 00 00
 3.357433 1  254             Rx   d 8 00 00 00 02 00 00 00 00
 3.359470 1  241             Rx   d 8 AA 00 00 00 00 00 00 76
 3.370419 1  261             Rx   d 8 01 29 00 1C 1E 00 00 00
 3.371448 1  251             Rx   d 8 00 00 00 00 00 00 00 00
 3.373445 1  252             Rx   d 8 00 00 00 01 00 00 00 00
 3.375392 1  221             Rx   d 8 00 00 00 00 00 00 00 00
 3.375643 1  311             Rx   d 8 00 00 01 56 00 00 01 87
 3.375891 1  253             Rx   d 8 00 00 00 00 00 00 00 00
 3.377442 1  254             Rx   d 8 00 00 00 02 00 00 00 00
 3.379493 1  241             Rx   d 8 AA 00 00 00 00 00 00 77
 3.381444 1  262             Rx   d 8 01 28 00 1C 1E 00 00 00
 3.391445 1  251             Rx   d 8 00 00 00 00 00 00 00 00
 3.392445 1  263             Rx   d 8 01 29 00 1C 1E 00 00 00
 3.393482 1  252             Rx   d 8 00 00 00 01 00 00 00 00
 3.395425 1  221             Rx   d 8 00 00 00 00 00 00 00 00
 3.395643 1  311             Rx   d 8 00 00 01 56 00 00 01 87
 3.395916 1  253             Rx   d 8 00 00 00 00 00 00 00 00
 3.397452 1  254             Rx   d 8 00 00 00 02 00 00 00 00
 3.399497 1  241             Rx   d 8 AA 00 00 00 00 00 00 78
 3.403440 1  264             Rx   d 8 01 27 00 1C 1E 00 00 00
 3.411442 1  251             Rx   d 8 00 00 00 00 00 00 00 00
 3.413441 1  252             Rx   d 8 00 00 00 01 00 00 00 00
 3.415389 1  221             Rx   d 8 00 00 00 00 00 00 00 00
 3.415614 1  311             Rx   d 8 00 00 01 56 00 00 01 87
 3.415861 1  253             Rx   d 8 00 00 00 00 00 00 00 00
 3.417440 1  254             Rx   d 8 00 00 00 02 00 00 00 00
 3.419491 1  241             Rx   d 8 AA 00 00 00 00 00 00 79
 3.431509 1  251             Rx   d 8 00 00 00 00 00 00 00 00
 3.433493 1  252             Rx   d 8 00 00 00 01 00 00 00 00
 3.435421 1  221             Rx   d 8 00 00 00 00 00 00 00 00
 3.435670 1  311             Rx   d 8 00 00 01 56 00 00 01 87
 3.435890 1  253             Rx   d 8 00 00 00 00 00 00 00 00
 3.437496 1  254             Rx   d 8 00 00 00 02 00 00 00 00
 3.439570 1  241             Rx   d 8 AA 00 00 00 00 00 00 7A
 3.451493 1  251             Rx   d 8 00 00 00 00 00 00 00 00
 3.453492 1  252             Rx   d 8 00 00 00 01 00 00 00 00
 3.455391 1  221             Rx   d 8 00 00 00 00 00 00 00 00
 3.455639 1  311             Rx   d 8 00 00 01 56 00 00 01 87
 3.455886 1  253             Rx   d 8 00 00 00 00 00 00 00 00
 3.457491 1  254             Rx   d 8 00 00 00 02 00 00 00 00
 3.459567 1  241             Rx   d 8 AA 00 00 00 00 00 00 7B
 3.470527 1  261             Rx   d 8 01 2A 00 1C 1E 00 00 00
 3.471545 1  251             Rx   d 8 00 00 00 00 00 00 00 00
 3.473521 1  252             Rx   d 8 00 00 00 01 00 00 00 00
 3.475420 1  221             Rx   d 8 00 00 00 00 00 00 00 00
 3.475667 1  311             Rx   d 8 00 00 01 56 00 00 01 87
 3.475915 1  253             Rx   d 8 00 00 00 00 00 00 00 00
 3.477547 1  254             Rx   d 8 00 00 00 02 00 00 00 00
 3.479595 1  241             Rx   d 8 AA 00 00 00 00 00 00 7C
 3.481547 1  262             Rx   d 8 01 29 00 1C 1E 00 00 00
 3.489598 1  211             Rx   d 8 00 01 01 1E 00 00 00 00
 3.491547 1  251             Rx   d 8 00 00 00 00 00 00 00 00
 3.492546 1  263             Rx   d 8 01 29 00 1C 1E 00 00 00
 3.493570 1  252             Rx   d 8 00 00 00 01 00 00 00 00
 3.495394 1  221             Rx   d 8 00 00 00 00 00 00 00 00
 3.495671 1  311             Rx   d 8 00 00 01 56 00 00 01 87
 3.495917 1  253             Rx   d 8 00 00 00 00 00 00 00 00
 3.497573 1  254             Rx   d 8 00 00 00 02 00 00 00 00
 3.499570 1  241             Rx   d 8 AA 00 00 00 00 00 00 7D
 3.503571 1  264             Rx   d 8 01 27 00 1C 1E 00 00 00
 3.511576 1  251             Rx   d 8 00 00 00 00 00 00 00 00
 3.513569 1  252             Rx   d 8 00 00 00 01 00 00 00 00
 3.515450 1  221             Rx   d 8 00 00 00 00 00 00 00 00
 3.515672 1  311             Rx   d 8 00 00 01 56 00 00 01 87
 3.515919 1  253             Rx   d 8 00 00 00 00 00 00 00 00
 3.517570 1  254             Rx   d 8 00 00 00 02 00 00 00 00
 3.519615 1  241             Rx   d 8 AA 00 00 00 00 00 00 7E
 3.531602 1  251             Rx   d 8 00 00 00 00 00 00 00 00
 3.533602 1  252             Rx   d 8 00 00 00 01 00 00 00 00
 3.535403 1  221             Rx   d 8 00 00 00 00 00 00 00 00
 3.535670 1  311             Rx   d 8 00 00 01 56 00 00 01 87
 3.535891 1  253             Rx   d 8 00 00 00 00 00 00 00 00
 3.537600 1  254             Rx   d 8 00 00 00 02 00 00 00 00
 3.539598 1  241             Rx   d 8 AA 00 00 00 00 00 00 7F
 3.551632 1  251             Rx   d 8 00 00 00 00 00 00 00 00
 3.553624 1  252             Rx   d 8 00 00 00 01 00 00 00 00
 3.555426 1  221             Rx   d 8 00 00 00 00 00 00 00 00
 3.555673 1  311             Rx   d 8 00 00 01 56 00 00 01 87
 3.555918 1  253             Rx   d 8 00 00 00 00 00 00 00 00
 3.557618 1  254             Rx   d 8 00 00 00 02 00 00 00 00
 3.559627 1  241             Rx   d 8 AA 00 00 00 00 00 00 80
 3.570630 1  261             Rx   d 8 01 29 00 1C 1E 00 00 00
 3.571631 1  251             Rx   d 8 00 00 00 00 00 00 00 00
 3.573652 1  252             Rx   d 8 00 00 00 01 00 00 00 00
 3.575421 1  221             Rx   d 8 00 00 00 00 00 00 00 00
 3.575673 1  311             Rx   d 8 00 00 01 56 00 00 01 87
 3.575918 1  253             Rx   d 8 00 00 00 00 00 00 00 00
 3.577649 1  254             Rx   d 8 00 00 00 02 00 00 00 00
 3.579673 1  241             Rx   d 8 AA 00 00 00 00 00 00 81
 3.581646 1  262             Rx   d 8 01 28 00 1C 1E 00 00 00
 3.591650 1  251             Rx   d 8 00 00 00 00 00 00 00 00
 3.592654 1  263             Rx   d 8 01 29 00 1C 1E 00 00 00
 3.593675 1  252             Rx   d 8 00 00 00 01 00 00 00 00
 3.595426 1  221             Rx   d 8 00 00 00 00 00 00 00 00
 3.595679 1  311             Rx   d 8 00 00 01 56 00 00 01 87
 3.595923 1  253             Rx   d 8 00 00 00 00 00 00 00 00
 3.597651 1  254             Rx   d 8 00 00 00 02 00 00 00 00
 3.599676 1  241             Rx   d 8 AA 00 00 00 00 00 00 82
 3.603679 1  264             Rx   d 8 01 27 00 1C 1E 00 00 00
 3.611676 1  251             Rx   d 8 00 00 00 00 00 00 00 00
 3.613674 1  252             Rx   d 8 00 00 00 02 00 00 00 00
 3.615426 1  221             Rx   d 8 00 00 00 00 00 00 00 00
 3.615672 1  311             Rx   d 8 00 00 01 56 00 00 01 87
 3.615925 1  253             Rx   d 8 00 00 00 00 00 00 00 00
 3.617672 1  254             Rx   d 8 00 00 00 02 00 00 00 00
 3.619726 1  241             Rx   d 8 AA 00 00 00 00 00 00 83
 3.631687 1  251             Rx   d 8 00 00 00 00 00 00 00 00
 3.633700 1  252             Rx   d 8 00 00 00 02 00 00 00 00
 3.635422 1  221             Rx   d 8 00 00 00 00 00 00 00 00
 3.635672 1  311             Rx   d 8 00 00 01 56 00 00 01 87
 3.635919 1  253             Rx   d 8 00 00 00 00 00 00 00 00
 3.637705 1  254             Rx   d 8 00 00 00 02 00 00 00 00
 3.639899 1  241             Rx   d 8 AA 00 00 00 00 00 00 84
 3.651704 1  251             Rx   d 8 00 00 00 00 00 00 00 00
 3.653730 1  252             Rx   d 8 00 00 00 01 00 00 00 00
 3.655437 1  221             Rx   d 8 00 00 00 00 00 00 00 00
 3.655674 1  311             Rx   d 8 00 00 01 56 00 00 01 87
 3.655931 1  253             Rx   d 8 00 00 00 00 00 00 00 00
 3.657727 1  254             Rx   d 8 00 00 00 02 00 00 00 00
 3.659775 1  241             Rx   d 8 AA 00 00 00 00 00 00 85
 3.670728 1  261             Rx   d 8 01 29 00 1C 1E 00 00 00
 3.671712 1  251             Rx   d 8 00 00 00 00 00 00 00 00
 3.673750 1  252             Rx   d 8 00 00 00 01 00 00 00 00
 3.675450 1  221             Rx   d 8 00 00 00 00 00 00 00 00
 3.675676 1  311             Rx   d 8 00 00 01 56 00 00 01 87
 3.675923 1  253             Rx   d 8 00 00 00 00 00 00 00 00
 3.677750 1  254             Rx   d 8 00 00 00 02 00 00 00 00
 3.679724 1  241             Rx   d 8 AA 00 00 00 00 00 00 86
 3.681749 1  262             Rx   d 8 01 28 00 1C 1E 00 00 00
 3.689778 1  211             Rx   d 8 00 01 01 1E 00 00 00 00
 3.691750 1  251             Rx   d 8 00 00 00 00 00 00 00 00
 3.692750 1  263             Rx   d 8 01 29 00 1C 1E 00 00 00
 3.693785 1  252             Rx   d 8 00 00 00 01 00 00 00 00
 3.695440 1  221             Rx   d 8 00 00 00 00 00 00 00 00
 3.695672 1  311             Rx   d 8 00 00 01 56 00 00 01 87
 3.695953 1  253             Rx   d 8 00 00 00 00 00 00 00 00
 3.697757 1  254             Rx   d 8 00 00 00 02 00 00 00 00
 3.699801 1  241             Rx   d 8 AA 00 00 00 00 00 00 87
 3.703748 1  264             Rx   d 8 01 27 00 1C 1E 00 00 00
 3.711750 1  251             Rx   d 8 00 00 00 00 00 00 00 00
 3.713753 1  252             Rx   d 8 00 00 00 01 00 00 00 00
 3.715423 1  221             Rx   d 8 00 00 00 00 00 00 00 00
 3.715670 1  311             Rx   d 8 00 00 01 56 00 00 01 87
 3.715917 1  253             Rx   d 8 00 00 00 00 00 00 00 00
 3.717746 1  254             Rx   d 8 00 00 00 02 00 00 00 00
 3.719829 1  241             Rx   d 8 AA 00 00 00 00 00 00 88
 3.731803 1  251             Rx   d 8 00 00 00 00 00 00 00 00
 3.733802 1  252             Rx   d 8 00 00 00 01 00 00 00 00
 3.735454 1  221             Rx   d 8 00 00 00 00 00 00 00 00
 3.735699 1  311             Rx   d 8 00 00 01 56 00 00 01 87
 3.735922 1  253             Rx   d 8 00 00 00 00 00 00 00 00
 3.737807 1  254             Rx   d 8 00 00 00 02 00 00 00 00
 3.739854 1  241             Rx   d 8 AA 00 00 00 00 00 00 89
 3.751829 1  251             Rx   d 8 00 00 00 00 00 00 00 00
 3.753800 1  252             Rx   d 8 00 00 00 01 00 00 00 00
 3.755451 1  221             Rx   d 8 00 00 00 00 00 00 00 00
 3.755698 1  311             Rx   d 8 00 00 01 56 00 00 01 87
 3.755947 1  253             Rx   d 8 00 00 00 00 00 00 00 00
 3.757826 1  254             Rx   d 8 00 00 00 02 00 00 00 00
 3.759877 1  241             Rx   d 8 AA 00 00 00 00 00 00 8A
 3.770831 1  261             Rx   d 8 01 29 00 1C 1E 00 00 00
 3.771829 1  251             Rx   d 8 00 00 00 00 00 00 00 00
 3.773855 1  252             Rx   d 8 00 00 00 01 00 00 00 00
 3.775453 1  221             Rx   d 8 00 00 00 00 00 00 00 00
 3.775700 1  311             Rx   d 8 00 00 01 56 00 00 01 87
 3.775950 1  253             Rx   d 8 00 00 00 00 00 00 00 00
 3.777852 1  254             Rx   d 8 00 00 00 02 00 00 00 00
 3.779904 1  241             Rx   d 8 AA 00 00 00 00 00 00 8B
 3.781852 1  262             Rx   d 8 01 28 00 1C 1E 00 00 00
 3.791860 1  251             Rx   d 8 00 00 00 00 00 00 00 00
 3.792871 1  263             Rx   d 8 01 29 00 1C 1E 00 00 00
 3.793859 1  252             Rx   d 8 00 00 00 01 00 00 00 00
 3.795458 1  221             Rx   d 8 00 00 00 00 00 00 00 00
 3.795710 1  311             Rx   d 8 00 00 01 56 00 00 01 87
 3.795947 1  253             Rx   d 8 00 00 00 00 00 00 00 00
 3.797881 1  254             Rx   d 8 00 00 00 02 00 00 00 00
 3.799913 1  241             Rx   d 8 AA 00 00 00 00 00 00 8C
 3.803885 1  264             Rx   d 8 01 27 00 1C 1E 00 00 00
 3.809962 1  231             Rx   d 8 00 00 00 02 09 00 00 00
 3.811889 1  251             Rx   d 8 00 00 00 00 00 00 00 00
 3.813887 1  252             Rx   d 8 00 00 00 01 00 00 00 00
 3.815466 1  221             Rx   d 8 00 00 00 00 00 00 00 00
 3.815705 1  311             Rx   d 8 00 00 01 56 00 00 01 87
 3.815953 1  253             Rx   d 8 00 00 00 00 00 00 00 00
 3.817885 1  254             Rx   d 8 00 00 00 02 00 00 00 00
 3.819941 1  241             Rx   d 8 AA 00 00 00 00 00 00 8D
 3.831928 1  251             Rx   d 8 00 00 00 00 00 00 00 00
 3.833915 1  252             Rx   d 8 00 00 00 01 00 00 00 00
 3.835464 1  221             Rx   d 8 00 00 00 00 00 00 00 00
 3.835712 1  311             Rx   d 8 00 00 01 56 00 00 01 87
 3.835959 1  253             Rx   d 8 00 00 00 00 00 00 00 00
 3.837914 1  254             Rx   d 8 00 00 00 02 00 00 00 00
 3.839967 1  241             Rx   d 8 AA 00 00 00 00 00 00 8E
 3.851937 1  251             Rx   d 8 00 00 00 00 00 00 00 00
 3.853935 1  252             Rx   d 8 00 00 00 01 00 00 00 00
 3.855458 1  221             Rx   d 8 00 00 00 00 00 00 00 00
 3.855705 1  311             Rx   d 8 00 00 01 56 00 00 01 87
 3.855957 1  253             Rx   d 8 00 00 00 00 00 00 00 00
 3.857939 1  254             Rx   d 8 00 00 00 02 00 00 00 00
 3.859980 1  241             Rx   d 8 AA 00 00 00 00 00 00 8F
 3.870934 1  261             Rx   d 8 01 29 00 1C 1E 00 00 00
 3.871935 1  251             Rx   d 8 00 00 00 00 00 00 00 00
 3.873958 1  252             Rx   d 8 00 00 00 01 00 00 00 00
 3.875456 1  221             Rx   d 8 00 00 00 00 00 00 00 00
 3.875706 1  311             Rx   d 8 00 00 01 56 00 00 01 87
 3.875951 1  253             Rx   d 8 00 00 00 00 00 00 00 00
 3.877953 1  254             Rx   d 8 00 00 00 02 00 00 00 00
 3.880013 1  241             Rx   d 8 AA 00 00 00 00 00 00 90
 3.881955 1  262             Rx   d 8 01 28 00 1C 1E 00 00 00
 3.889987 1  211             Rx   d 8 00 01 01 1E 00 00 00 00
 3.891968 1  251             Rx   d 8 00 00 00 00 00 00 00 00
 3.892965 1  263             Rx   d 8 01 29 00 1C 1E 00 00 00
 3.893963 1  252             Rx   d 8 00 00 00 01 00 00 00 00
 3.895468 1  221             Rx   d 8 00 00 00 00 00 00 00 00
 3.895712 1  311             Rx   d 8 00 00 01 56 00 00 01 87
 3.895962 1  253             Rx   d 8 00 00 00 00 00 00 00 00
 3.897974 1  254             Rx   d 8 00 00 00 02 00 00 00 00
 3.900023 1  241             Rx   d 8 AA 00 00 00 00 00 00 91
 3.903989 1  264             Rx   d 8 01 27 00 1C 1E 00 00 00
 3.911988 1  251             Rx   d 8 00 00 00 00 00 00 00 00
 3.913985 1  252             Rx   d 8 00 00 00 01 00 00 00 00
 3.915454 1  221             Rx   d 8 00 00 00 00 00 00 00 00
 3.915703 1  311             Rx   d 8 00 00 01 56 00 00 01 87
 3.916003 1  253             Rx   d 8 00 00 00 00 00 00 00 00
 3.917985 1  254             Rx   d 8 00 00 00 02 00 00 00 00
 3.919990 1  241             Rx   d 8 AA 00 00 00 00 00 00 92
 3.931981 1  251             Rx   d 8 00 00 00 00 00 00 00 00
 3.934005 1  252             Rx   d 8 00 00 00 01 00 00 00 00
 3.935455 1  221             Rx   d 8 00 00 00 00 00 00 00 00
 3.935708 1  311             Rx   d 8 00 00 01 56 00 00 01 87
 3.936002 1  253             Rx   d 8 00 00 00 00 00 00 00 00
 3.938007 1  254             Rx   d 8 00 00 00 02 00 00 00 00
 3.940032 1  241             Rx   d 8 AA 00 00 00 00 00 00 93
 3.952008 1  251             Rx   d 8 00 00 00 00 00 00 00 00
 3.954039 1  252             Rx   d 8 00 00 00 01 00 00 00 00
 3.955482 1  221             Rx   d 8 00 00 00 00 00 00 00 00
 3.955708 1  311             Rx   d 8 00 00 01 56 00 00 01 87
 3.956028 1  253             Rx   d 8 00 00 00 00 00 00 00 00
 3.958035 1  254             Rx   d 8 00 00 00 02 00 00 00 00
 3.960088 1  241             Rx   d 8 AA 00 00 00 00 00 00 94
 3.971039 1  261             Rx   d 8 01 29 00 1C 1E 00 00 00
 3.972039 1  251             Rx   d 8 00 00 00 00 00 00 00 00
 3.974064 1  252             Rx   d 8 00 00 00 01 00 00 00 00
 3.975487 1  221             Rx   d 8 00 00 00 00 00 00 00 00
 3.975734 1  311             Rx   d 8 00 00 01 56 00 00 01 87
 3.976056 1  253             Rx   d 8 00 00 00 00 00 00 00 00
 3.978060 1  254             Rx   d 8 00 00 00 02 00 00 00 00
 3.980058 1  241             Rx   d 8 AA 00 00 00 00 00 00 95
 3.982058 1  262             Rx   d 8 01 28 00 1C 1E 00 00 00
 3.992063 1  251             Rx   d 8 00 00 00 00 00 00 00 00
 3.993068 1  263             Rx   d 8 01 29 00 1C 1E 00 00 00
 3.994060 1  252             Rx   d 8 00 00 00 01 00 00 00 00
 3.995490 1  221             Rx   d 8 00 00 00 00 00 00 00 00
 3.995713 1  311             Rx   d 8 00 00 01 56 00 00 01 87
 3.996061 1  253             Rx   d 8 00 00 00 00 00 00 00 00
 3.998057 1  254             Rx   d 8 00 00 00 02 00 00 00 00
 4.000058 1  241             Rx   d 8 AA 00 00 00 00 00 00 96
 4.004087 1  264             Rx   d 8 01 27 00 1C 1E 00 00 00
 4.012091 1  251             Rx   d 8 00 00 00 00 00 00 00 00
 4.014085 1  252             Rx   d 8 00 00 00 01 00 00 00 00
 4.015486 1  221             Rx   d 8 00 00 00 00 00 00 00 00
 4.015731 1  311             Rx   d 8 00 00 01 56 00 00 01 87
 4.016054 1  253             Rx   d 8 00 00 00 00 00 00 00 00
 4.018088 1  254             Rx   d 8 00 00 00 02 00 00 00 00
 4.020138 1  241             Rx   d 8 AA 00 00 00 00 00 00 97
 4.032110 1  251             Rx   d 8 00 00 00 00 00 00 00 00
 4.034109 1  252             Rx   d 8 00 00 00 01 00 00 00 00
 4.035491 1  221             Rx   d 8 00 00 00 00 00 00 00 00
 4.035735 1  311             Rx   d 8 00 00 01 56 00 00 01 87
 4.036108 1  253             Rx   d 8 00 00 00 00 00 00 00 00
 4.038082 1  254             Rx   d 8 00 00 00 02 00 00 00 00
 4.040108 1  241             Rx   d 8 AA 00 00 00 00 00 00 98
 4.052111 1  251             Rx   d 8 00 00 00 00 00 00 00 00
 4.054137 1  252             Rx   d 8 00 00 00 01 00 00 00 00
 4.055483 1  221             Rx   d 8 00 00 00 00 00 00 00 00
 4.055732 1  311             Rx   d 8 00 00 01 56 00 00 01 87
 4.056131 1  253             Rx   d 8 00 00 00 00 00 00 00 00
 4.058120 1  254             Rx   d 8 00 00 00 02 00 00 00 00
 4.060208 1  241             Rx   d 8 AA 00 00 00 00 00 00 99
 4.071137 1  261             Rx   d 8 01 29 00 1C 1E 00 00 00
 4.072144 1  251             Rx   d 8 00 00 00 00 00 00 00 00
 4.074208 1  252             Rx   d 8 00 00 00 01 00 00 00 00
 4.075489 1  221             Rx   d 8 00 00 00 00 00 00 00 00
 4.075738 1  311             Rx   d 8 00 00 01 56 00 00 01 87
 4.076164 1  253             Rx   d 8 00 00 00 00 00 00 00 00
 4.078215 1  254             Rx   d 8 00 00 00 02 00 00 00 00
 4.080209 1  241             Rx   d 8 AA 00 00 00 00 00 00 9A
 4.082136 1  262             Rx   d 8 01 28 00 1C 1E 00 00 00
 4.090217 1  211             Rx   d 8 00 01 01 1E 00 00 00 00
 4.092213 1  251             Rx   d 8 00 00 00 00 00 00 00 00
 4.093162 1  263             Rx   d 8 01 29 00 1C 1E 00 00 00
 4.094210 1  252             Rx   d 8 00 00 00 01 00 00 00 00
 4.095459 1  221             Rx   d 8 00 00 00 00 00 00 00 00
 4.095706 1  311             Rx   d 8 00 00 01 56 00 00 01 87
 4.096132 1  253             Rx   d 8 00 00 00 00 00 00 00 00
 4.098184 1  254             Rx   d 8 00 00 00 02 00 00 00 00
 4.100187 1  241             Rx   d 8 AA 00 00 00 00 00 00 9B
 4.104185 1  264             Rx   d 8 01 27 00 1C 1E 00 00 00
 4.112186 1  251             Rx   d 8 00 00 00 00 00 00 00 00
 4.114183 1  252             Rx   d 8 00 00 00 01 00 00 00 00
 4.115457 1  221             Rx   d 8 00 00 00 00 00 00 00 00
 4.115706 1  311             Rx   d 8 00 00 01 56 00 00 01 87
 4.116182 1  253             Rx   d 8 00 00 00 00 00 00 00 00
 4.118185 1  254             Rx   d 8 00 00 00 02 00 00 00 00
 4.120208 1  241             Rx   d 8 AA 00 00 00 00 00 00 9C
 4.132200 1  251             Rx   d 8 00 00 00 00 00 00 00 00
 4.134183 1  252             Rx   d 8 00 00 00 01 00 00 00 00
 4.135460 1  221             Rx   d 8 00 00 00 00 00 00 00 00
 4.135707 1  311             Rx   d 8 00 00 01 56 00 00 01 87
 4.136183 1  253             Rx   d 8 00 00 00 00 00 00 00 00
 4.138182 1  254             Rx   d 8 00 00 00 02 00 00 00 00
 4.140250 1  241             Rx   d 8 AA 00 00 00 00 00 00 9D
 4.152210 1  251             Rx   d 8 00 00 00 00 00 00 00 00
 4.154212 1  252             Rx   d 8 00 00 00 01 00 00 00 00
 4.155479 1  221             Rx   d 8 00 00 00 00 00 00 00 00
 4.155708 1  311             Rx   d 8 00 00 01 56 00 00 01 87
 4.156210 1  253             Rx   d 8 00 00 00 00 00 00 00 00
 4.158210 1  254             Rx   d 8 00 00 00 02 00 00 00 00
 4.160285 1  241             Rx   d 8 AA 00 00 00 00 00 00 9E
 4.171212 1  261             Rx   d 8 01 29 00 1C 1E 00 00 00
 4.172244 1  251             Rx   d 8 00 00 00 00 00 00 00 00
 4.174235 1  252             Rx   d 8 00 00 00 01 00 00 00 00
 4.175464 1  221             Rx   d 8 00 00 00 00 00 00 00 00
 4.175710 1  311             Rx   d 8 00 00 01 56 00 00 01 87
 4.176211 1  253             Rx   d 8 00 00 00 00 00 00 00 00
 4.178235 1  254             Rx   d 8 00 00 00 02 00 00 00 00
 4.180284 1  241             Rx   d 8 AA 00 00 00 00 00 00 9F
 4.182234 1  262             Rx   d 8 01 28 00 1C 1E 00 00 00
 4.192241 1  251             Rx   d 8 00 00 00 00 00 00 00 00
 4.193236 1  263             Rx   d 8 01 29 00 1C 1E 00 00 00
 4.194236 1  252             Rx   d 8 00 00 00 01 00 00 00 00
 4.195544 1  221             Rx   d 8 00 00 00 00 00 00 00 00
 4.195726 1  311             Rx   d 8 00 00 01 56 00 00 01 87
 4.196303 1  253             Rx   d 8 00 00 00 00 00 00 00 00
 4.198264 1  254             Rx   d 8 00 00 00 02 00 00 00 00
 4.200287 1  241             Rx   d 8 AA 00 00 00 00 00 00 A0
 4.204260 1  264             Rx   d 8 01 27 00 1C 1E 00 00 00
 4.212294 1  251             Rx   d 8 00 00 00 00 00 00 00 00
 4.214261 1  252             Rx   d 8 00 00 00 01 00 00 00 00
 4.215486 1  221             Rx   d 8 00 00 00 00 00 00 00 00
 4.215733 1  311             Rx   d 8 00 00 01 56 00 00 01 87
 4.216260 1  253             Rx   d 8 00 00 00 00 00 00 00 00
 4.218260 1  254             Rx   d 8 00 00 00 03 00 00 00 00
 4.220312 1  241             Rx   d 8 AA 00 00 00 00 00 00 A1
 4.232289 1  251             Rx   d 8 00 00 00 00 00 00 00 00
 4.234288 1  252             Rx   d 8 00 00 00 01 00 00 00 00
 4.235488 1  221             Rx   d 8 00 00 00 00 00 00 00 00
 4.235736 1  311             Rx   d 8 00 00 01 56 00 00 01 87
 4.236287 1  253             Rx   d 8 00 00 00 00 00 00 00 00
 4.238286 1  254             Rx   d 8 00 00 00 03 00 00 00 00
 4.240341 1  241             Rx   d 8 AA 00 00 00 00 00 00 A2
 4.252314 1  251             Rx   d 8 00 00 00 00 00 00 00 00
 4.254313 1  252             Rx   d 8 00 00 00 02 00 00 00 00
 4.255489 1  221             Rx   d 8 00 00 00 00 00 00 00 00
 4.255736 1  311             Rx   d 8 00 00 01 56 00 00 01 87
 4.256313 1  253             Rx   d 8 00 00 00 00 00 00 00 00
 4.258313 1  254             Rx   d 8 00 00 00 02 00 00 00 00
 4.260389 1  241             Rx   d 8 AA 00 00 00 00 00 00 A3
 4.271315 1  261             Rx   d 8 01 29 00 1C 1E 00 00 00
 4.272314 1  251             Rx   d 8 00 00 00 00 00 00 00 00
 4.274312 1  252             Rx   d 8 00 00 00 02 00 00 00 00
 4.275489 1  221             Rx   d 8 00 00 00 00 00 00 00 00
 4.275737 1  311             Rx   d 8 00 00 01 56 00 00 01 87
 4.276338 1  253             Rx   d 8 00 00 00 00 00 00 00 00
 4.278339 1  254             Rx   d 8 00 00 00 02 00 00 00 00
 4.280391 1  241             Rx   d 8 AA 00 00 00 00 00 00 A4
 4.282340 1  262             Rx   d 8 01 28 00 1C 1E 00 00 00
 4.290366 1  211             Rx   d 8 00 01 01 1E 00 00 00 00
 4.292341 1  251             Rx   d 8 00 00 00 00 00 00 00 00
 4.293338 1  263             Rx   d 8 01 29 00 1C 1E 00 00 00
 4.294363 1  252             Rx   d 8 00 00 00 02 00 00 00 00
 4.295489 1  221             Rx   d 8 00 00 00 00 00 00 00 00
 4.295739 1  311             Rx   d 8 00 00 01 56 00 00 01 87
 4.296363 1  253             Rx   d 8 00 00 00 00 00 00 00 00
 4.298340 1  254             Rx   d 8 00 00 00 02 00 00 00 00
 4.300389 1  241             Rx   d 8 AA 00 00 00 00 00 00 A5
 4.304365 1  264             Rx   d 8 01 27 00 1C 1E 00 00 00
 4.310421 1  231             Rx   d 8 00 00 00 02 1D 00 00 00
 4.312366 1  251             Rx   d 8 00 00 00 00 00 00 00 00
 4.314365 1  252             Rx   d 8 00 00 00 01 00 00 00 00
 4.315490 1  221             Rx   d 8 00 00 00 00 00 00 00 00
 4.315739 1  311             Rx   d 8 00 00 01 56 00 00 01 87
 4.316364 1  253             Rx   d 8 00 00 00 00 00 00 00 00
 4.318374 1  254             Rx   d 8 00 00 00 02 00 00 00 00
 4.320364 1  241             Rx   d 8 AA 00 00 00 00 00 00 A6
 4.332392 1  251             Rx   d 8 00 00 00 00 00 00 00 00
 4.334390 1  252             Rx   d 8 00 00 00 01 00 00 00 00
 4.335489 1  221             Rx   d 8 00 00 00 00 00 00 00 00
 4.335738 1  311             Rx   d 8 00 00 01 56 00 00 01 87
 4.336392 1  253             Rx   d 8 00 00 00 00 00 00 00 00
 4.338390 1  254             Rx   d 8 00 00 00 02 00 00 00 00
 4.340440 1  241             Rx   d 8 AA 00 00 00 00 00 00 A7
 4.352392 1  251             Rx   d 8 00 00 00 00 00 00 00 00
 4.354417 1  252             Rx   d 8 00 00 00 01 00 00 00 00
 4.355490 1  221             Rx   d 8 00 00 00 00 00 00 00 00
 4.355738 1  311             Rx   d 8 00 00 01 56 00 00 01 87
 4.356415 1  253             Rx   d 8 00 00 00 00 00 00 00 00
 4.358416 1  254             Rx   d 8 00 00 00 02 00 00 00 00
 4.360511 1  241             Rx   d 8 AA 00 00 00 00 00 00 A8
 4.371418 1  261             Rx   d 8 01 29 00 1C 1E 00 00 00
 4.372416 1  251             Rx   d 8 00 00 00 00 00 00 00 00
 4.374418 1  252             Rx   d 8 00 00 00 01 00 00 00 00
 4.375490 1  221             Rx   d 8 00 00 00 00 00 00 00 00
 4.375739 1  311             Rx   d 8 00 00 01 56 00 00 01 87
 4.376442 1  253             Rx   d 8 00 00 00 00 00 00 00 00
 4.378441 1  254             Rx   d 8 00 00 00 02 00 00 00 00
 4.380494 1  241             Rx   d 8 AA 00 00 00 00 00 00 A9
 4.382443 1  262             Rx   d 8 01 28 00 1C 1E 00 00 00
 4.392445 1  251             Rx   d 8 00 00 00 00 00 00 00 00
 4.393442 1  263             Rx   d 8 01 29 00 1C 1E 00 00 00
 4.394441 1  252             Rx   d 8 00 00 00 01 00 00 00 00
 4.395490 1  221             Rx   d 8 00 00 00 00 00 00 00 00
 4.395738 1  311             Rx   d 8 00 00 01 56 00 00 01 87
 4.396442 1  253             Rx   d 8 00 00 00 00 00 00 00 00
 4.398467 1  254             Rx   d 8 00 00 00 02 00 00 00 00
 4.400517 1  241             Rx   d 8 AA 00 00 00 00 00 00 AA
 4.404469 1  264             Rx   d 8 01 27 00 1C 1E 00 00 00
 4.412470 1  251             Rx   d 8 00 00 00 00 00 00 00 00
 4.414468 1  252             Rx   d 8 00 00 00 01 00 00 00 00
 4.415494 1  221             Rx   d 8 00 00 00 00 00 00 00 00
 4.415738 1  311             Rx   d 8 00 00 01 56 00 00 01 87
 4.416467 1  253             Rx   d 8 00 00 00 00 00 00 00 00
 4.418468 1  254             Rx   d 8 00 00 00 02 00 00 00 00
 4.420518 1  241             Rx   d 8 AA 00 00 00 00 00 00 AB
 4.432494 1  251             Rx   d 8 00 00 00 00 00 00 00 00
 4.434495 1  252             Rx   d 8 00 00 00 01 00 00 00 00
 4.435517 1  221             Rx   d 8 00 00 00 00 00 00 00 00
 4.435766 1  311             Rx   d 8 00 00 01 56 00 00 01 87
 4.436494 1  253             Rx   d 8 00 00 00 00 00 00 00 00
 4.438492 1  254             Rx   d 8 00 00 00 02 00 00 00 00
 4.440543 1  241             Rx   d 8 AA 00 00 00 00 00 00 AC
 4.452497 1  251             Rx   d 8 00 00 00 00 00 00 00 00
 4.454521 1  252             Rx   d 8 00 00 00 01 00 00 00 00
 4.455520 1  221             Rx   d 8 00 00 00 00 00 00 00 00
 4.455768 1  311             Rx   d 8 00 00 01 56 00 00 01 87
 4.456519 1  253             Rx   d 8 00 00 00 00 00 00 00 00
 4.458520 1  254             Rx   d 8 00 00 00 02 00 00 00 00
 4.460572 1  241             Rx   d 8 AA 00 00 00 00 00 00 AD
 4.471522 1  261             Rx   d 8 01 29 00 1C 1E 00 00 00
 4.472521 1  251             Rx   d 8 00 00 00 00 00 00 00 00
 4.474522 1  252             Rx   d 8 00 00 00 01 00 00 00 00
 4.475518 1  221             Rx   d 8 00 00 00 00 00 00 00 00
 4.475743 1  311             Rx   d 8 00 00 01 56 00 00 01 87
 4.476519 1  253             Rx   d 8 00 00 00 00 00 00 00 00
 4.478544 1  254             Rx   d 8 00 00 00 02 00 00 00 00
 4.480571 1  241             Rx   d 8 AA 00 00 00 00 00 00 AE
 4.482545 1  262             Rx   d 8 01 29 00 1C 1E 00 00 00
 4.490596 1  211             Rx   d 8 00 01 01 1E 00 00 00 00
 4.492548 1  251             Rx   d 8 00 00 00 00 00 00 00 00
 4.493544 1  263             Rx   d 8 01 29 00 1C 1E 00 00 00
 4.494546 1  252             Rx   d 8 00 00 00 01 00 00 00 00
 4.495520 1  221             Rx   d 8 00 00 00 00 00 00 00 00
 4.495769 1  311             Rx   d 8 00 00 01 56 00 00 01 87
 4.496545 1  253             Rx   d 8 00 00 00 00 00 00 00 00
 4.498545 1  254             Rx   d 8 00 00 00 02 00 00 00 00
 4.500597 1  241             Rx   d 8 AA 00 00 00 00 00 00 AF
 4.504546 1  264             Rx   d 8 01 28 00 1C 1E 00 00 00
 4.512573 1  251             Rx   d 8 00 00 00 00 00 00 00 00
 4.514571 1  252             Rx   d 8 00 00 00 01 00 00 00 00
 4.515526 1  221             Rx   d 8 00 00 00 00 00 00 00 00
 4.515766 1  311             Rx   d 8 00 00 01 56 00 00 01 87
 4.516568 1  253             Rx   d 8 00 00 00 00 00 00 00 00
 4.518567 1  254             Rx   d 8 00 00 00 02 00 00 00 00
 4.520694 1  241             Rx   d 8 AA 00 00 00 00 00 00 B0
 4.532595 1  251             Rx   d 8 00 00 00 00 00 00 00 00
 4.534598 1  252             Rx   d 8 00 00 00 01 00 00 00 00
 4.535526 1  221             Rx   d 8 00 00 00 00 00 00 00 00
 4.535772 1  311             Rx   d 8 00 00 01 56 00 00 01 87
 4.536612 1  253             Rx   d 8 00 00 00 00 00 00 00 00
 4.538599 1  254             Rx   d 8 00 00 00 02 00 00 00 00
 4.540649 1  241             Rx   d 8 AA 00 00 00 00 00 00 B1
 4.552599 1  251             Rx   d 8 00 00 00 00 00 00 00 00
 4.554658 1  252             Rx   d 8 00 00 00 01 00 00 00 00
 4.555540 1  221             Rx   d 8 00 00 00 00 00 00 00 00
 4.555773 1  311             Rx   d 8 00 00 01 56 00 00 01 87
 4.556657 1  253             Rx   d 8 00 00 00 00 00 00 00 00
 4.558626 1  254             Rx   d 8 00 00 00 02 00 00 00 00
 4.560723 1  241             Rx   d 8 AA 00 00 00 00 00 00 B2
 4.571668 1  261             Rx   d 8 01 29 00 1C 1E 00 00 00
 4.572654 1  251             Rx   d 8 00 00 00 00 00 00 00 00
 4.574670 1  252             Rx   d 8 00 00 00 01 00 00 00 00
 4.575538 1  221             Rx   d 8 00 00 00 00 00 00 00 00
 4.575768 1  311             Rx   d 8 00 00 01 56 00 00 01 87
 4.576648 1  253             Rx   d 8 00 00 00 00 00 00 00 00
 4.578672 1  254             Rx   d 8 00 00 00 02 00 00 00 00
 4.580672 1  241             Rx   d 8 AA 00 00 00 00 00 00 B3
 4.582647 1  262             Rx   d 8 01 28 00 1C 1E 00 00 00
 4.592685 1  251             Rx   d 8 00 00 00 00 00 00 00 00
 4.593681 1  263             Rx   d 8 01 29 00 1C 1E 00 00 00
 4.594677 1  252             Rx   d 8 00 00 00 01 00 00 00 00
 4.595548 1  221             Rx   d 8 00 00 00 00 00 00 00 00
 4.595798 1  311             Rx   d 8 00 00 01 56 00 00 01 87
 4.596684 1  253             Rx   d 8 00 00 00 00 00 00 00 00
 4.598699 1  254             Rx   d 8 00 00 00 02 00 00 00 00
 4.600695 1  241             Rx   d 8 AA 00 00 00 00 00 00 B4
 4.604699 1  264             Rx   d 8 01 27 00 1C 1E 00 00 00
 4.612724 1  251             Rx   d 8 00 00 00 00 00 00 00 00
 4.614689 1  252             Rx   d 8 00 00 00 01 00 00 00 00
 4.615546 1  221             Rx   d 8 00 00 00 00 00 00 00 00
 4.615773 1  311             Rx   d 8 00 00 01 56 00 00 01 87
 4.616673 1  253             Rx   d 8 00 00 00 00 00 00 00 00
 4.618671 1  254             Rx   d 8 00 00 00 02 00 00 00 00
 4.620721 1  241             Rx   d 8 AA 00 00 00 00 00 00 B5
 4.632699 1  251             Rx   d 8 00 00 00 00 00 00 00 00
 4.634698 1  252             Rx   d 8 00 00 00 01 00 00 00 00
 4.635521 1  221             Rx   d 8 00 00 00 00 00 00 00 00
 4.635769 1  311             Rx   d 8 00 00 01 56 00 00 01 87
 4.636696 1  253             Rx   d 8 00 00 00 00 00 00 00 00
 4.638721 1  254             Rx   d 8 00 00 00 02 00 00 00 00
 4.640767 1  241             Rx   d 8 AA 00 00 00 00 00 00 B6
 4.652726 1  251             Rx   d 8 00 00 00 00 00 00 00 00
 4.654728 1  252             Rx   d 8 00 00 00 01 00 00 00 00
 4.655536 1  221             Rx   d 8 00 00 00 00 00 00 00 00
 4.655783 1  311             Rx   d 8 00 00 01 56 00 00 01 87
 4.656711 1  253             Rx   d 8 00 00 00 00 00 00 00 00
 4.658736 1  254             Rx   d 8 00 00 00 02 00 00 00 00
 4.660826 1  241             Rx   d 8 AA 00 00 00 00 00 00 B7
 4.671731 1  261             Rx   d 8 01 29 00 1C 1E 00 00 00
 4.672739 1  251             Rx   d 8 00 00 00 00 00 00 00 00
 4.674767 1  252             Rx   d 8 00 00 00 01 00 00 00 00
 4.675534 1  221             Rx   d 8 00 00 00 00 00 00 00 00
 4.675772 1  311             Rx   d 8 00 00 01 56 00 00 01 87
 4.676723 1  253             Rx   d 8 00 00 00 00 00 00 00 00
