date Fri Nov 03 11:52:45.951 AM 2023
base hex  timestamps absolute
internal events logged
Begin Triggerblock Fri Nov 03 11:52:45.921 AM 2023
 0.000000 Start of measurement
 0.000000 1  251             Rx   d 8 00 00 00 00 00 00 00 00
 0.000997 1  263             Rx   d 8 01 28 00 1C 1E 00 00 00
 0.001992 1  252             Rx   d 8 00 00 00 01 00 00 00 00
 0.003948 1  253             Rx   d 8 00 00 00 00 00 00 00 00
 0.005982 1  254             Rx   d 8 00 00 00 02 00 00 00 00
 0.008023 1  241             Rx   d 8 A6 06 00 00 00 00 00 24
 0.010970 1  221             Rx   d 8 00 00 00 00 00 00 00 00
 0.011241 1  311             Rx   d 8 00 00 47 D6 00 00 4E 6B
 0.011973 1  264             Rx   d 8 01 26 00 1C 1E 00 00 00
 0.019983 1  251             Rx   d 8 00 00 00 00 00 00 00 00
 0.022010 1  252             Rx   d 8 00 00 00 01 00 00 00 00
 0.023975 1  253             Rx   d 8 00 00 00 00 00 00 00 00
 0.025989 1  254             Rx   d 8 00 00 00 02 00 00 00 00
 0.028025 1  241             Rx   d 8 A6 06 00 00 00 00 00 25
 0.030971 1  221             Rx   d 8 00 00 00 00 00 00 00 00
 0.031190 1  311             Rx   d 8 00 00 47 D6 00 00 4E 6B
 0.040001 1  251             Rx   d 8 00 00 00 00 00 00 00 00
 0.041996 1  252             Rx   d 8 00 00 00 01 00 00 00 00
 0.044023 1  253             Rx   d 8 00 00 00 00 00 00 00 00
 0.045996 1  254             Rx   d 8 00 00 00 02 00 00 00 00
 0.048029 1  241             Rx   d 8 A6 06 00 00 00 00 00 26
 0.050987 1  221             Rx   d 8 00 00 00 00 00 00 00 00
 0.051252 1  311             Rx   d 8 00 00 47 D6 00 00 4E 6B
 0.060033 1  251             Rx   d 8 00 00 00 00 00 00 00 00
 0.062140 1  252             Rx   d 8 00 00 00 01 00 00 00 00
 0.064017 1  253             Rx   d 8 00 00 00 00 00 00 00 00
 0.066027 1  254             Rx   d 8 00 00 00 02 00 00 00 00
 0.068122 1  241             Rx   d 8 A6 06 00 00 00 00 00 27
 0.070966 1  221             Rx   d 8 00 00 00 00 00 00 00 00
 0.071226 1  311             Rx   d 8 00 00 47 D6 00 00 4E 6B
 0.079027 1  261             Rx   d 8 01 29 00 1C 1E 00 00 00
 0.080049 1  251             Rx   d 8 00 00 00 00 00 00 00 00
 0.082048 1  252             Rx   d 8 00 00 00 01 00 00 00 00
 0.084128 1  253             Rx   d 8 00 00 00 00 00 00 00 00
 0.086053 1  254             Rx   d 8 00 00 00 02 00 00 00 00
 0.088103 1  241             Rx   d 8 A6 06 00 00 00 00 00 28
 0.090055 1  262             Rx   d 8 01 27 00 1C 1E 00 00 00
 0.090978 1  221             Rx   d 8 00 00 00 00 00 00 00 00
 0.091256 1  311             Rx   d 8 00 00 47 D6 00 00 4E 6B
 0.098077 1  211             Rx   d 8 02 03 01 1D 00 04 00 00
 0.100121 1  251             Rx   d 8 00 00 00 00 00 00 00 00
 0.101090 1  263             Rx   d 8 01 28 00 1C 1E 00 00 00
 0.102108 1  252             Rx   d 8 00 00 00 01 00 00 00 00
 0.104179 1  253             Rx   d 8 00 00 00 00 00 00 00 00
 0.106083 1  254             Rx   d 8 00 00 00 02 00 00 00 00
 0.108107 1  241             Rx   d 8 A6 06 00 00 00 00 00 29
 0.110973 1  221             Rx   d 8 00 00 00 00 00 00 00 00
 0.111248 1  311             Rx   d 8 00 00 47 D6 00 00 4E 6B
 0.112050 1  264             Rx   d 8 01 27 00 1C 1E 00 00 00
 0.120080 1  251             Rx   d 8 00 00 00 00 00 00 00 00
 0.122101 1  252             Rx   d 8 00 00 00 01 00 00 00 00
 0.124075 1  253             Rx   d 8 00 00 00 00 00 00 00 00
 0.126101 1  254             Rx   d 8 00 00 00 02 00 00 00 00
 0.128123 1  241             Rx   d 8 A6 06 00 00 00 00 00 2A
 0.130981 1  221             Rx   d 8 00 00 00 00 00 00 00 00
 0.131252 1  311             Rx   d 8 00 00 47 D6 00 00 4E 6B
 0.140154 1  251             Rx   d 8 00 00 00 00 00 00 00 00
 0.142163 1  252             Rx   d 8 00 00 00 01 00 00 00 00
 0.144218 1  253             Rx   d 8 00 00 00 00 00 00 00 00
 0.146245 1  254             Rx   d 8 00 00 00 02 00 00 00 00
 0.148190 1  241             Rx   d 8 A6 06 00 00 00 00 00 2B
 0.150985 1  221             Rx   d 8 00 00 00 00 00 00 00 00
 0.151259 1  311             Rx   d 8 00 00 47 D6 00 00 4E 6B
 0.160130 1  251             Rx   d 8 00 00 00 00 00 00 00 00
 0.162127 1  252             Rx   d 8 00 00 00 01 00 00 00 00
 0.164128 1  253             Rx   d 8 00 00 00 00 00 00 00 00
 0.166100 1  254             Rx   d 8 00 00 00 02 00 00 00 00
 0.168180 1  241             Rx   d 8 A6 06 00 00 00 00 00 2C
 0.171001 1  221             Rx   d 8 00 00 00 00 00 00 00 00
 0.171252 1  311             Rx   d 8 00 00 47 D6 00 00 4E 6B
 0.179127 1  261             Rx   d 8 01 29 00 1C 1E 00 00 00
 0.180155 1  251             Rx   d 8 00 00 00 00 00 00 00 00
 0.182219 1  252             Rx   d 8 00 00 00 01 00 00 00 00
 0.184263 1  253             Rx   d 8 00 00 00 00 00 00 00 00
 0.186192 1  254             Rx   d 8 00 00 00 02 00 00 00 00
 0.188239 1  241             Rx   d 8 A6 06 00 00 00 00 00 2D
 0.190156 1  262             Rx   d 8 01 27 00 1C 1E 00 00 00
 0.191007 1  221             Rx   d 8 00 00 00 00 00 00 00 00
 0.191259 1  311             Rx   d 8 00 00 47 D6 00 00 4E 6B
 0.200145 1  251             Rx   d 8 00 00 00 00 00 00 00 00
 0.201178 1  263             Rx   d 8 01 28 00 1C 1E 00 00 00
 0.202162 1  252             Rx   d 8 00 00 00 01 00 00 00 00
 0.204178 1  253             Rx   d 8 00 00 00 00 00 00 00 00
 0.206177 1  254             Rx   d 8 00 00 00 02 00 00 00 00
 0.208256 1  241             Rx   d 8 A6 06 00 00 00 00 00 2E
 0.211020 1  221             Rx   d 8 00 00 00 00 00 00 00 00
 0.211256 1  311             Rx   d 8 00 00 47 D6 00 00 4E 6B
 0.212179 1  264             Rx   d 8 01 27 00 1C 1E 00 00 00
 0.218256 1  231             Rx   d 8 00 02 54 02 30 00 00 00
 0.220180 1  251             Rx   d 8 00 00 00 00 00 00 00 00
 0.222205 1  252             Rx   d 8 00 00 00 01 00 00 00 00
 0.224268 1  253             Rx   d 8 00 00 00 00 00 00 00 00
 0.226262 1  254             Rx   d 8 00 00 00 02 00 00 00 00
 0.228370 1  241             Rx   d 8 A6 06 00 00 00 00 00 2F
 0.231128 1  221             Rx   d 8 00 00 00 00 00 00 00 00
 0.231314 1  311             Rx   d 8 00 00 47 D6 00 00 4E 6B
 0.240222 1  251             Rx   d 8 00 00 00 00 00 00 00 00
 0.242209 1  252             Rx   d 8 00 00 00 01 00 00 00 00
 0.244226 1  253             Rx   d 8 00 00 00 00 00 00 00 00
 0.246270 1  254             Rx   d 8 00 00 00 02 00 00 00 00
 0.248338 1  241             Rx   d 8 A6 06 00 00 00 00 00 30
 0.251051 1  221             Rx   d 8 00 00 00 00 00 00 00 00
 0.251571 1  311             Rx   d 8 00 00 47 D6 00 00 4E 6B
 0.260265 1  251             Rx   d 8 00 00 00 00 00 00 00 00
 0.262321 1  252             Rx   d 8 00 00 00 01 00 00 00 00
 0.264261 1  253             Rx   d 8 00 00 00 00 00 00 00 00
 0.266228 1  254             Rx   d 8 00 00 00 02 00 00 00 00
 0.268291 1  241             Rx   d 8 A6 06 00 00 00 00 00 31
 0.271061 1  221             Rx   d 8 00 00 00 00 00 00 00 00
 0.271265 1  311             Rx   d 8 00 00 47 D6 00 00 4E 6B
 0.279263 1  261             Rx   d 8 01 29 00 1C 1E 00 00 00
 0.280262 1  251             Rx   d 8 00 00 00 00 00 00 00 00
 0.282257 1  252             Rx   d 8 00 00 00 01 00 00 00 00
 0.284257 1  253             Rx   d 8 00 00 00 00 00 00 00 00
 0.286257 1  254             Rx   d 8 00 00 00 02 00 00 00 00
 0.288342 1  241             Rx   d 8 A6 06 00 00 00 00 00 32
 0.290316 1  262             Rx   d 8 01 27 00 1C 1E 00 00 00
 0.291063 1  221             Rx   d 8 00 00 00 00 00 00 00 00
 0.291227 1  311             Rx   d 8 00 00 47 D6 00 00 4E 6B
 0.298313 1  211             Rx   d 8 02 03 01 1D 00 04 00 00
 0.300294 1  251             Rx   d 8 00 00 00 00 00 00 00 00
 0.301291 1  263             Rx   d 8 01 28 00 1C 1E 00 00 00
 0.302256 1  252             Rx   d 8 00 00 00 01 00 00 00 00
 0.304299 1  253             Rx   d 8 00 00 00 00 00 00 00 00
 0.306280 1  254             Rx   d 8 00 00 00 02 00 00 00 00
 0.308329 1  241             Rx   d 8 A6 06 00 00 00 00 00 33
 0.311061 1  221             Rx   d 8 00 00 00 00 00 00 00 00
 0.311260 1  311             Rx   d 8 00 00 47 D6 00 00 4E 6B
 0.312357 1  264             Rx   d 8 01 26 00 1C 1E 00 00 00
 0.320291 1  251             Rx   d 8 00 00 00 00 00 00 00 00
 0.322283 1  252             Rx   d 8 00 00 00 01 00 00 00 00
 0.324314 1  253             Rx   d 8 00 00 00 00 00 00 00 00
 0.326311 1  254             Rx   d 8 00 00 00 02 00 00 00 00
 0.328357 1  241             Rx   d 8 A6 06 00 00 00 00 00 34
 0.331084 1  221             Rx   d 8 00 00 00 00 00 00 00 00
 0.331258 1  311             Rx   d 8 00 00 47 D6 00 00 4E 6B
 0.340320 1  251             Rx   d 8 00 00 00 00 00 00 00 00
 0.342308 1  252             Rx   d 8 00 00 00 01 00 00 00 00
 0.344318 1  253             Rx   d 8 00 00 00 00 00 00 00 00
 0.346339 1  254             Rx   d 8 00 00 00 02 00 00 00 00
 0.348366 1  241             Rx   d 8 A6 06 00 00 00 00 00 35
 0.351012 1  221             Rx   d 8 00 00 00 00 00 00 00 00
 0.351231 1  311             Rx   d 8 00 00 47 D6 00 00 4E 6B
 0.360371 1  251             Rx   d 8 00 00 00 00 00 00 00 00
 0.362343 1  252             Rx   d 8 00 00 00 01 00 00 00 00
 0.364339 1  253             Rx   d 8 00 00 00 00 00 00 00 00
 0.366375 1  254             Rx   d 8 00 00 00 02 00 00 00 00
 0.368366 1  241             Rx   d 8 A6 06 00 00 00 00 00 36
 0.370986 1  221             Rx   d 8 00 00 00 00 00 00 00 00
 0.371230 1  311             Rx   d 8 00 00 47 D6 00 00 4E 6B
 0.379367 1  261             Rx   d 8 01 29 00 1C 1E 00 00 00
 0.380358 1  251             Rx   d 8 00 00 00 00 00 00 00 00
 0.382357 1  252             Rx   d 8 00 00 00 01 00 00 00 00
 0.384436 1  253             Rx   d 8 00 00 00 00 00 00 00 00
 0.386362 1  254             Rx   d 8 00 00 00 02 00 00 00 00
 0.388360 1  241             Rx   d 8 A6 06 00 00 00 00 00 37
 0.390362 1  262             Rx   d 8 01 27 00 1C 1E 00 00 00
 0.391041 1  221             Rx   d 8 00 00 00 00 00 00 00 00
 0.391263 1  311             Rx   d 8 00 00 47 D6 00 00 4E 6B
 0.400666 1  251             Rx   d 8 00 00 00 00 00 00 00 00
 0.401482 1  263             Rx   d 8 01 28 00 1C 1E 00 00 00
 0.402432 1  252             Rx   d 8 00 00 00 01 00 00 00 00
 0.404396 1  253             Rx   d 8 00 00 00 00 00 00 00 00
 0.406391 1  254             Rx   d 8 00 00 00 02 00 00 00 00
 0.408474 1  241             Rx   d 8 A6 06 00 00 00 00 00 38
 0.410998 1  221             Rx   d 8 00 00 00 00 00 00 00 00
 0.411238 1  311             Rx   d 8 00 00 47 D6 00 00 4E 6B
 0.412384 1  264             Rx   d 8 01 27 00 1C 1E 00 00 00
 0.420383 1  251             Rx   d 8 00 00 00 00 00 00 00 00
 0.422409 1  252             Rx   d 8 00 00 00 01 00 00 00 00
 0.424388 1  253             Rx   d 8 00 00 00 00 00 00 00 00
 0.426389 1  254             Rx   d 8 00 00 00 02 00 00 00 00
 0.428414 1  241             Rx   d 8 A6 06 00 00 00 00 00 39
 0.431037 1  221             Rx   d 8 00 00 00 00 00 00 00 00
 0.431262 1  311             Rx   d 8 00 00 47 D6 00 00 4E 6B
 0.440462 1  251             Rx   d 8 00 00 00 00 00 00 00 00
 0.442531 1  252             Rx   d 8 00 00 00 01 00 00 00 00
 0.444526 1  253             Rx   d 8 00 00 00 00 00 00 00 00
 0.446496 1  254             Rx   d 8 00 00 00 02 00 00 00 00
 0.448466 1  241             Rx   d 8 A6 06 00 00 00 00 00 3A
 0.451042 1  221             Rx   d 8 00 00 00 00 00 00 00 00
 0.451267 1  311             Rx   d 8 00 00 47 D6 00 00 4E 6B
 0.460497 1  251             Rx   d 8 00 00 00 00 00 00 00 00
 0.462495 1  252             Rx   d 8 00 00 00 01 00 00 00 00
 0.464558 1  253             Rx   d 8 00 00 00 00 00 00 00 00
 0.466418 1  254             Rx   d 8 00 00 00 02 00 00 00 00
 0.468410 1  241             Rx   d 8 A6 06 00 00 00 00 00 3B
 0.471040 1  221             Rx   d 8 00 00 00 00 00 00 00 00
 0.471263 1  311             Rx   d 8 00 00 47 D6 00 00 4E 6B
 0.479480 1  261             Rx   d 8 01 29 00 1C 1E 00 00 00
 0.480518 1  251             Rx   d 8 00 00 00 00 00 00 00 00
 0.482546 1  252             Rx   d 8 00 00 00 01 00 00 00 00
 0.484488 1  253             Rx   d 8 00 00 00 00 00 00 00 00
 0.486472 1  254             Rx   d 8 00 00 00 02 00 00 00 00
 0.488518 1  241             Rx   d 8 A6 06 00 00 00 00 00 3C
 0.490468 1  262             Rx   d 8 01 27 00 1C 1E 00 00 00
 0.491017 1  221             Rx   d 8 00 00 00 00 00 00 00 00
 0.491273 1  311             Rx   d 8 00 00 47 D6 00 00 4E 6B
 0.498517 1  211             Rx   d 8 02 03 01 1D 00 04 00 00
 0.500552 1  251             Rx   d 8 00 00 00 00 00 00 00 00
 0.501523 1  263             Rx   d 8 01 28 00 1C 1E 00 00 00
 0.502546 1  252             Rx   d 8 00 00 00 01 00 00 00 00
 0.504547 1  253             Rx   d 8 00 00 00 00 00 00 00 00
 0.506498 1  254             Rx   d 8 00 00 00 02 00 00 00 00
 0.508562 1  241             Rx   d 8 A6 06 00 00 00 00 00 3D
 0.511051 1  221             Rx   d 8 00 00 00 00 00 00 00 00
 0.511269 1  311             Rx   d 8 00 00 47 D6 00 00 4E 6B
 0.512496 1  264             Rx   d 8 01 26 00 1C 1E 00 00 00
 0.520496 1  251             Rx   d 8 00 00 00 00 00 00 00 00
 0.522549 1  252             Rx   d 8 00 00 00 01 00 00 00 00
 0.524553 1  253             Rx   d 8 00 00 00 00 00 00 00 00
 0.526496 1  254             Rx   d 8 00 00 00 02 00 00 00 00
 0.528597 1  241             Rx   d 8 A6 06 00 00 00 00 00 3E
 0.531047 1  221             Rx   d 8 00 00 00 00 00 00 00 00
 0.531271 1  311             Rx   d 8 00 00 47 D6 00 00 4E 6B
 0.540520 1  251             Rx   d 8 00 00 00 00 00 00 00 00
 0.542517 1  252             Rx   d 8 00 00 00 01 00 00 00 00
 0.544523 1  253             Rx   d 8 00 00 00 00 00 00 00 00
 0.546518 1  254             Rx   d 8 00 00 00 02 00 00 00 00
 0.548571 1  241             Rx   d 8 A6 06 00 00 00 00 00 3F
 0.551046 1  221             Rx   d 8 00 00 00 00 00 00 00 00
 0.551263 1  311             Rx   d 8 00 00 47 D6 00 00 4E 6B
 0.560548 1  251             Rx   d 8 00 00 00 00 00 00 00 00
 0.562548 1  252             Rx   d 8 00 00 00 01 00 00 00 00
 0.564603 1  253             Rx   d 8 00 00 00 00 00 00 00 00
 0.566516 1  254             Rx   d 8 00 00 00 02 00 00 00 00
 0.568616 1  241             Rx   d 8 A6 06 00 00 00 00 00 40
 0.571104 1  221             Rx   d 8 00 00 00 00 00 00 00 00
 0.571259 1  311             Rx   d 8 00 00 47 D6 00 00 4E 6B
 0.579571 1  261             Rx   d 8 01 29 00 1C 1E 00 00 00
 0.580572 1  251             Rx   d 8 00 00 00 00 00 00 00 00
 0.582574 1  252             Rx   d 8 00 00 00 01 00 00 00 00
 0.584566 1  253             Rx   d 8 00 00 00 00 00 00 00 00
 0.586633 1  254             Rx   d 8 00 00 00 02 00 00 00 00
 0.588584 1  241             Rx   d 8 A6 06 00 00 00 00 00 41
 0.590572 1  262             Rx   d 8 01 27 00 1C 1E 00 00 00
 0.591009 1  221             Rx   d 8 00 00 00 00 00 00 00 00
 0.591260 1  311             Rx   d 8 00 00 47 D6 00 00 4E 6B
 0.592341 1  421             Tx   d 1 01
 0.600566 1  251             Rx   d 8 00 00 00 00 00 00 00 00
 0.601565 1  263             Rx   d 8 01 28 00 1C 1E 00 00 00
 0.602588 1  252             Rx   d 8 00 00 00 01 00 00 00 00
 0.604589 1  253             Rx   d 8 00 00 00 00 00 00 00 00
 0.606605 1  254             Rx   d 8 00 00 00 02 00 00 00 00
 0.608652 1  241             Rx   d 8 A6 06 00 00 00 00 00 42
 0.611048 1  221             Rx   d 8 00 00 00 00 00 00 00 00
 0.611290 1  311             Rx   d 8 00 00 47 D6 00 00 4E 6B
 0.612590 1  264             Rx   d 8 01 26 00 1C 1E 00 00 00
 0.620617 1  251             Rx   d 8 00 00 00 00 00 00 00 00
 0.622600 1  252             Rx   d 8 00 00 00 01 00 00 00 00
 0.624642 1  253             Rx   d 8 00 00 00 00 00 00 00 00
 0.626618 1  254             Rx   d 8 00 00 00 02 00 00 00 00
 0.628641 1  241             Rx   d 8 A6 06 00 00 00 00 00 43
 0.631048 1  221             Rx   d 8 00 00 00 00 00 00 00 00
 0.631289 1  311             Rx   d 8 00 00 47 D6 00 00 4E 6B
 0.640618 1  251             Rx   d 8 00 00 00 00 00 00 00 00
 0.642616 1  252             Rx   d 8 00 00 00 01 00 00 00 00
 0.644623 1  253             Rx   d 8 00 00 00 00 00 00 00 00
 0.646643 1  254             Rx   d 8 00 00 00 02 00 00 00 00
 0.648693 1  241             Rx   d 8 A6 06 00 00 00 00 00 44
 0.651099 1  221             Rx   d 8 00 00 00 00 00 00 00 00
 0.651290 1  311             Rx   d 8 00 00 47 D6 00 00 4E 6B
 0.660650 1  251             Rx   d 8 00 00 00 00 00 00 00 00
 0.662652 1  252             Rx   d 8 00 00 00 01 00 00 00 00
 0.664650 1  253             Rx   d 8 00 00 00 00 00 00 00 00
 0.666807 1  254             Rx   d 8 00 00 00 02 00 00 00 00
 0.668725 1  241             Rx   d 8 A6 06 00 00 00 00 00 45
 0.671050 1  221             Rx   d 8 00 00 00 00 00 00 00 00
 0.671296 1  311             Rx   d 8 00 00 47 D6 00 00 4E 6B
 0.679670 1  261             Rx   d 8 01 29 00 1C 1E 00 00 00
 0.680666 1  251             Rx   d 8 00 00 00 00 00 00 00 00
 0.682677 1  252             Rx   d 8 00 00 00 01 00 00 00 00
 0.684683 1  253             Rx   d 8 00 00 00 00 00 00 00 00
 0.686674 1  254             Rx   d 8 00 00 00 02 00 00 00 00
 0.688721 1  241             Rx   d 8 A6 06 00 00 00 00 00 46
 0.690669 1  262             Rx   d 8 01 27 00 1C 1E 00 00 00
 0.691067 1  221             Rx   d 8 00 00 00 00 00 00 00 00
 0.691298 1  311             Rx   d 8 00 00 47 D6 00 00 4E 6B
 0.698693 1  211             Rx   d 8 02 03 01 1D 00 04 00 00
 0.700676 1  251             Rx   d 8 00 00 00 00 00 00 00 00
 0.701640 1  263             Rx   d 8 01 28 00 1C 1E 00 00 00
 0.702664 1  252             Rx   d 8 00 00 00 01 00 00 00 00
 0.704664 1  253             Rx   d 8 00 00 00 00 00 00 00 00
 0.706665 1  254             Rx   d 8 00 00 00 02 00 00 00 00
 0.708688 1  241             Rx   d 8 A6 06 00 00 00 00 00 47
 0.711076 1  221             Rx   d 8 00 00 00 00 00 00 00 00
 0.711264 1  311             Rx   d 8 00 00 47 D6 00 00 4E 6B
 0.712698 1  264             Rx   d 8 01 27 00 1C 1E 00 00 00
 0.718769 1  231             Rx   d 8 00 02 61 02 44 00 00 00
 0.720693 1  251             Rx   d 8 00 00 00 00 00 00 00 00
 0.722699 1  252             Rx   d 8 00 00 00 01 00 00 00 00
 0.724699 1  253             Rx   d 8 00 00 00 00 00 00 00 00
 0.726722 1  254             Rx   d 8 00 00 00 02 00 00 00 00
 0.728754 1  241             Rx   d 8 A6 06 00 00 00 00 00 48
 0.731070 1  221             Rx   d 8 00 00 00 00 00 00 00 00
 0.731287 1  311             Rx   d 8 00 00 47 D6 00 00 4E 6B
 0.740840 1  251             Rx   d 8 00 00 00 00 00 00 00 00
 0.742747 1  252             Rx   d 8 00 00 00 01 00 00 00 00
 0.744723 1  253             Rx   d 8 00 00 00 00 00 00 00 00
 0.746747 1  254             Rx   d 8 00 00 00 02 00 00 00 00
 0.748770 1  241             Rx   d 8 A6 06 00 00 00 00 00 49
 0.751074 1  221             Rx   d 8 00 00 00 00 00 00 00 00
 0.751311 1  311             Rx   d 8 00 00 47 D6 00 00 4E 6B
 0.760793 1  251             Rx   d 8 00 00 00 00 00 00 00 00
 0.762778 1  252             Rx   d 8 00 00 00 01 00 00 00 00
 0.764759 1  253             Rx   d 8 00 00 00 00 00 00 00 00
 0.766748 1  254             Rx   d 8 00 00 00 02 00 00 00 00
 0.768825 1  241             Rx   d 8 A6 06 00 00 00 00 00 4A
 0.771072 1  221             Rx   d 8 00 00 00 00 00 00 00 00
 0.771268 1  311             Rx   d 8 00 00 47 D6 00 00 4E 6B
 0.779807 1  261             Rx   d 8 01 29 00 1C 1E 00 00 00
 0.780830 1  251             Rx   d 8 00 00 00 00 00 00 00 00
 0.782832 1  252             Rx   d 8 00 00 00 01 00 00 00 00
 0.784775 1  253             Rx   d 8 00 00 00 00 00 00 00 00
 0.786774 1  254             Rx   d 8 00 00 00 02 00 00 00 00
 0.788800 1  241             Rx   d 8 A6 06 00 00 00 00 00 4B
 0.790772 1  262             Rx   d 8 01 27 00 1C 1E 00 00 00
 0.791069 1  221             Rx   d 8 00 00 00 00 00 00 00 00
 0.791299 1  311             Rx   d 8 00 00 47 D6 00 00 4E 6B
 0.800808 1  251             Rx   d 8 00 00 00 00 00 00 00 00
 0.801744 1  263             Rx   d 8 01 28 00 1C 1E 00 00 00
 0.802802 1  252             Rx   d 8 00 00 00 01 00 00 00 00
 0.804771 1  253             Rx   d 8 00 00 00 00 00 00 00 00
 0.806767 1  254             Rx   d 8 00 00 00 02 00 00 00 00
 0.808845 1  241             Rx   d 8 A6 06 00 00 00 00 00 4C
 0.811070 1  221             Rx   d 8 00 00 00 00 00 00 00 00
 0.811282 1  311             Rx   d 8 00 00 47 D6 00 00 4E 6B
 0.812769 1  264             Rx   d 8 01 26 00 1C 1E 00 00 00
 0.820790 1  251             Rx   d 8 00 00 00 00 00 00 00 00
 0.822807 1  252             Rx   d 8 00 00 00 01 00 00 00 00
 0.824800 1  253             Rx   d 8 00 00 00 00 00 00 00 00
 0.826794 1  254             Rx   d 8 00 00 00 02 00 00 00 00
 0.828817 1  241             Rx   d 8 A6 06 00 00 00 00 00 4D
 0.831048 1  221             Rx   d 8 00 00 00 00 00 00 00 00
 0.831294 1  311             Rx   d 8 00 00 47 D6 00 00 4E 6B
 0.840825 1  251             Rx   d 8 00 00 00 00 00 00 00 00
 0.842799 1  252             Rx   d 8 00 00 00 01 00 00 00 00
 0.844810 1  253             Rx   d 8 00 00 00 00 00 00 00 00
 0.846795 1  254             Rx   d 8 00 00 00 02 00 00 00 00
 0.848819 1  241             Rx   d 8 A6 06 00 00 00 00 00 4E
 0.851061 1  221             Rx   d 8 00 00 00 00 00 00 00 00
 0.851373 1  311             Rx   d 8 00 00 47 D6 00 00 4E 6B
 0.860851 1  251             Rx   d 8 00 00 00 00 00 00 00 00
 0.862852 1  252             Rx   d 8 00 00 00 01 00 00 00 00
 0.864856 1  253             Rx   d 8 00 00 00 00 00 00 00 00
 0.866847 1  254             Rx   d 8 00 00 00 02 00 00 00 00
 0.868848 1  241             Rx   d 8 A6 06 00 00 00 00 00 4F
 0.871065 1  221             Rx   d 8 00 00 00 00 00 00 00 00
 0.871299 1  311             Rx   d 8 00 00 47 D6 00 00 4E 6B
 0.879874 1  261             Rx   d 8 01 29 00 1C 1E 00 00 00
 0.880872 1  251             Rx   d 8 00 00 00 00 00 00 00 00
 0.882875 1  252             Rx   d 8 00 00 00 01 00 00 00 00
 0.884910 1  253             Rx   d 8 00 00 00 00 00 00 00 00
 0.886877 1  254             Rx   d 8 00 00 00 02 00 00 00 00
 0.888905 1  241             Rx   d 8 A6 06 00 00 00 00 00 50
 0.890874 1  262             Rx   d 8 01 27 00 1C 1E 00 00 00
 0.891121 1  221             Rx   d 8 00 00 00 00 00 00 00 00
 0.891346 1  311             Rx   d 8 00 00 47 D6 00 00 4E 6B
 0.898966 1  211             Rx   d 8 02 03 01 1D 00 04 00 00
 0.900910 1  251             Rx   d 8 00 00 00 00 00 00 00 00
 0.901878 1  263             Rx   d 8 01 28 00 1C 1E 00 00 00
 0.902898 1  252             Rx   d 8 00 00 00 01 00 00 00 00
 0.904899 1  253             Rx   d 8 00 00 00 00 00 00 00 00
 0.906903 1  254             Rx   d 8 00 00 00 02 00 00 00 00
 0.908929 1  241             Rx   d 8 A6 06 00 00 00 00 00 51
 0.911069 1  221             Rx   d 8 00 00 00 00 00 00 00 00
 0.911302 1  311             Rx   d 8 00 00 47 D6 00 00 4E 6B
 0.912881 1  264             Rx   d 8 01 26 00 1C 1E 00 00 00
 0.920908 1  251             Rx   d 8 00 00 00 00 00 00 00 00
 0.922904 1  252             Rx   d 8 00 00 00 01 00 00 00 00
 0.924903 1  253             Rx   d 8 00 00 00 00 00 00 00 00
 0.926927 1  254             Rx   d 8 00 00 00 02 00 00 00 00
 0.928962 1  241             Rx   d 8 A6 06 00 00 00 00 00 52
 0.931079 1  221             Rx   d 8 00 00 00 00 00 00 00 00
 0.931331 1  311             Rx   d 8 00 00 47 D6 00 00 4E 6B
 0.940929 1  251             Rx   d 8 00 00 00 00 00 00 00 00
 0.942958 1  252             Rx   d 8 00 00 00 01 00 00 00 00
 0.944933 1  253             Rx   d 8 00 00 00 00 00 00 00 00
 0.946955 1  254             Rx   d 8 00 00 00 02 00 00 00 00
 0.949005 1  241             Rx   d 8 A6 06 00 00 00 00 00 53
 0.951082 1  221             Rx   d 8 00 00 00 00 00 00 00 00
 0.951352 1  311             Rx   d 8 00 00 47 D6 00 00 4E 6B
 0.960962 1  251             Rx   d 8 00 00 00 00 00 00 00 00
 0.962955 1  252             Rx   d 8 00 00 00 01 00 00 00 00
 0.964961 1  253             Rx   d 8 00 00 00 00 00 00 00 00
 0.966958 1  254             Rx   d 8 00 00 00 02 00 00 00 00
 0.969027 1  241             Rx   d 8 A6 06 00 00 00 00 00 54
 0.971113 1  221             Rx   d 8 00 00 00 00 00 00 00 00
 0.971341 1  311             Rx   d 8 00 00 47 D6 00 00 4E 6B
 0.979959 1  261             Rx   d 8 01 29 00 1C 1E 00 00 00
 0.980961 1  251             Rx   d 8 00 00 00 00 00 00 00 00
 0.982981 1  252             Rx   d 8 00 00 00 01 00 00 00 00
 0.984984 1  253             Rx   d 8 00 00 00 00 00 00 00 00
 0.986984 1  254             Rx   d 8 00 00 00 02 00 00 00 00
 0.989011 1  241             Rx   d 8 A6 06 00 00 00 00 00 55
 0.990990 1  262             Rx   d 8 01 27 00 1C 1E 00 00 00
 0.991220 1  221             Rx   d 8 00 00 00 00 00 00 00 00
 0.991460 1  311             Rx   d 8 00 00 47 D6 00 00 4E 6B
 1.000988 1  251             Rx   d 8 00 00 00 00 00 00 00 00
 1.001985 1  263             Rx   d 8 01 28 00 1C 1E 00 00 00
 1.002974 1  252             Rx   d 8 00 00 00 01 00 00 00 00
 1.005010 1  253             Rx   d 8 00 00 00 00 00 00 00 00
 1.006975 1  254             Rx   d 8 00 00 00 02 00 00 00 00
 1.008999 1  241             Rx   d 8 A6 06 00 00 00 00 00 56
 1.011074 1  221             Rx   d 8 00 00 00 00 00 00 00 00
 1.011298 1  311             Rx   d 8 00 00 47 D6 00 00 4E 6B
 1.012974 1  264             Rx   d 8 01 26 00 1C 1E 00 00 00
 1.021006 1  251             Rx   d 8 00 00 00 00 00 00 00 00
 1.023001 1  252             Rx   d 8 00 00 00 01 00 00 00 00
 1.025025 1  253             Rx   d 8 00 00 00 00 00 00 00 00
 1.026975 1  254             Rx   d 8 00 00 00 02 00 00 00 00
 1.029024 1  241             Rx   d 8 A6 06 00 00 00 00 00 57
 1.031076 1  221             Rx   d 8 00 00 00 00 00 00 00 00
 1.031298 1  311             Rx   d 8 00 00 47 D6 00 00 4E 6B
 1.041039 1  251             Rx   d 8 00 00 00 00 00 00 00 00
 1.043038 1  252             Rx   d 8 00 00 00 01 00 00 00 00
 1.045038 1  253             Rx   d 8 00 00 00 00 00 00 00 00
 1.047000 1  254             Rx   d 8 00 00 00 02 00 00 00 00
 1.049095 1  241             Rx   d 8 A6 06 00 00 00 00 00 58
 1.051110 1  221             Rx   d 8 00 00 00 00 00 00 00 00
 1.051336 1  311             Rx   d 8 00 00 47 D6 00 00 4E 6B
 1.061063 1  251             Rx   d 8 00 00 00 00 00 00 00 00
 1.063066 1  252             Rx   d 8 00 00 00 01 00 00 00 00
 1.065054 1  253             Rx   d 8 00 00 00 00 00 00 00 00
 1.067066 1  254             Rx   d 8 00 00 00 02 00 00 00 00
 1.069060 1  241             Rx   d 8 A6 06 00 00 00 00 00 59
 1.071114 1  221             Rx   d 8 00 00 00 00 00 00 00 00
 1.071339 1  311             Rx   d 8 00 00 47 D6 00 00 4E 6B
 1.080060 1  261             Rx   d 8 01 29 00 1C 1E 00 00 00
 1.081086 1  251             Rx   d 8 00 00 00 00 00 00 00 00
 1.083098 1  252             Rx   d 8 00 00 00 01 00 00 00 00
 1.085089 1  253             Rx   d 8 00 00 00 00 00 00 00 00
 1.087090 1  254             Rx   d 8 00 00 00 02 00 00 00 00
 1.089150 1  241             Rx   d 8 A6 06 00 00 00 00 00 5A
 1.091109 1  221             Rx   d 8 00 00 00 00 00 00 00 00
 1.091358 1  311             Rx   d 8 00 00 47 D6 00 00 4E 6B
 1.091582 1  262             Rx   d 8 01 27 00 1C 1E 00 00 00
 1.099139 1  211             Rx   d 8 02 03 01 1D 00 04 00 00
 1.101117 1  251             Rx   d 8 00 00 00 00 00 00 00 00
 1.102089 1  263             Rx   d 8 01 28 00 1C 1E 00 00 00
 1.103089 1  252             Rx   d 8 00 00 00 01 00 00 00 00
 1.105084 1  253             Rx   d 8 00 00 00 00 00 00 00 00
 1.107087 1  254             Rx   d 8 00 00 00 02 00 00 00 00
 1.109148 1  241             Rx   d 8 A6 06 00 00 00 00 00 5B
 1.111134 1  221             Rx   d 8 00 00 00 00 00 00 00 00
 1.111357 1  311             Rx   d 8 00 00 47 D6 00 00 4E 6B
 1.113116 1  264             Rx   d 8 01 26 00 1C 1E 00 00 00
 1.121112 1  251             Rx   d 8 00 00 00 00 00 00 00 00
 1.123143 1  252             Rx   d 8 00 00 00 01 00 00 00 00
 1.125103 1  253             Rx   d 8 00 00 00 00 00 00 00 00
 1.127117 1  254             Rx   d 8 00 00 00 02 00 00 00 00
 1.129164 1  241             Rx   d 8 A6 06 00 00 00 00 00 5C
 1.131138 1  221             Rx   d 8 00 00 00 00 00 00 00 00
 1.131329 1  311             Rx   d 8 00 00 47 D6 00 00 4E 6B
 1.141138 1  251             Rx   d 8 00 00 00 00 00 00 00 00
 1.143136 1  252             Rx   d 8 00 00 00 01 00 00 00 00
 1.145139 1  253             Rx   d 8 00 00 00 00 00 00 00 00
 1.147105 1  254             Rx   d 8 00 00 00 02 00 00 00 00
 1.149192 1  241             Rx   d 8 A6 06 00 00 00 00 00 5D
 1.151110 1  221             Rx   d 8 00 00 00 00 00 00 00 00
 1.151372 1  311             Rx   d 8 00 00 47 D6 00 00 4E 6B
 1.161142 1  251             Rx   d 8 00 00 00 00 00 00 00 00
 1.163166 1  252             Rx   d 8 00 00 00 01 00 00 00 00
 1.165154 1  253             Rx   d 8 00 00 00 00 00 00 00 00
 1.167164 1  254             Rx   d 8 00 00 00 02 00 00 00 00
 1.169284 1  241             Rx   d 8 A6 06 00 00 00 00 00 5E
 1.171116 1  221             Rx   d 8 00 00 00 00 00 00 00 00
 1.171335 1  311             Rx   d 8 00 00 47 D6 00 00 4E 6B
 1.180172 1  261             Rx   d 8 01 29 00 1C 1E 00 00 00
 1.181187 1  251             Rx   d 8 00 00 00 00 00 00 00 00
 1.183192 1  252             Rx   d 8 00 00 00 01 00 00 00 00
 1.185193 1  253             Rx   d 8 00 00 00 00 00 00 00 00
 1.187179 1  254             Rx   d 8 00 00 00 02 00 00 00 00
 1.189290 1  241             Rx   d 8 A6 06 00 00 00 00 00 5F
 1.191115 1  221             Rx   d 8 00 00 00 00 00 00 00 00
 1.191373 1  311             Rx   d 8 00 00 47 D6 00 00 4E 6B
 1.191612 1  262             Rx   d 8 01 27 00 1C 1E 00 00 00
 1.201190 1  251             Rx   d 8 00 00 00 00 00 00 00 00
 1.202212 1  263             Rx   d 8 01 28 00 1C 1E 00 00 00
 1.203196 1  252             Rx   d 8 00 00 00 01 00 00 00 00
 1.205193 1  253             Rx   d 8 00 00 00 00 00 00 00 00
 1.207217 1  254             Rx   d 8 00 00 00 02 00 00 00 00
 1.209298 1  241             Rx   d 8 A6 06 00 00 00 00 00 60
 1.211114 1  221             Rx   d 8 00 00 00 00 00 00 00 00
 1.211378 1  311             Rx   d 8 00 00 47 D6 00 00 4E 6B
 1.213216 1  264             Rx   d 8 01 26 00 1C 1E 00 00 00
 1.219286 1  231             Rx   d 8 00 02 4D 02 58 00 00 00
 1.221211 1  251             Rx   d 8 00 00 00 00 00 00 00 00
 1.223222 1  252             Rx   d 8 00 00 00 01 00 00 00 00
 1.225207 1  253             Rx   d 8 00 00 00 00 00 00 00 00
 1.227217 1  254             Rx   d 8 00 00 00 02 00 00 00 00
 1.229290 1  241             Rx   d 8 A6 06 00 00 00 00 00 61
 1.231114 1  221             Rx   d 8 00 00 00 00 00 00 00 00
 1.231363 1  311             Rx   d 8 00 00 47 D6 00 00 4E 6B
 1.241297 1  251             Rx   d 8 00 00 00 00 00 00 00 00
 1.243293 1  252             Rx   d 8 00 00 00 01 00 00 00 00
 1.245278 1  253             Rx   d 8 00 00 00 00 00 00 00 00
 1.247290 1  254             Rx   d 8 00 00 00 02 00 00 00 00
 1.249315 1  241             Rx   d 8 A6 06 00 00 00 00 00 62
 1.251115 1  221             Rx   d 8 00 00 00 00 00 00 00 00
 1.251365 1  311             Rx   d 8 00 00 47 D6 00 00 4E 6B
 1.261293 1  251             Rx   d 8 00 00 00 00 00 00 00 00
 1.263292 1  252             Rx   d 8 00 00 00 01 00 00 00 00
 1.265291 1  253             Rx   d 8 00 00 00 00 00 00 00 00
 1.267293 1  254             Rx   d 8 00 00 00 02 00 00 00 00
 1.269341 1  241             Rx   d 8 A6 06 00 00 00 00 00 63
 1.271156 1  221             Rx   d 8 00 00 00 00 00 00 00 00
 1.271361 1  311             Rx   d 8 00 00 47 D6 00 00 4E 6B
 1.280288 1  261             Rx   d 8 01 29 00 1C 1E 00 00 00
 1.281280 1  251             Rx   d 8 00 00 00 00 00 00 00 00
 1.283287 1  252             Rx   d 8 00 00 00 01 00 00 00 00
 1.285289 1  253             Rx   d 8 00 00 00 00 00 00 00 00
 1.287277 1  254             Rx   d 8 00 00 00 02 00 00 00 00
 1.289315 1  241             Rx   d 8 A6 06 00 00 00 00 00 64
 1.291143 1  221             Rx   d 8 00 00 00 00 00 00 00 00
 1.291334 1  311             Rx   d 8 00 00 47 D6 00 00 4E 6B
 1.291610 1  262             Rx   d 8 01 27 00 1C 1E 00 00 00
 1.299344 1  211             Rx   d 8 02 03 01 1D 00 04 00 00
 1.301263 1  251             Rx   d 8 00 00 00 00 00 00 00 00
 1.302263 1  263             Rx   d 8 01 27 00 1C 1E 00 00 00
 1.303315 1  252             Rx   d 8 00 00 00 01 00 00 00 00
 1.305264 1  253             Rx   d 8 00 00 00 00 00 00 00 00
 1.307332 1  254             Rx   d 8 00 00 00 02 00 00 00 00
 1.309345 1  241             Rx   d 8 A6 06 00 00 00 00 00 65
 1.311146 1  221             Rx   d 8 00 00 00 00 00 00 00 00
 1.311338 1  311             Rx   d 8 00 00 47 D6 00 00 4E 6B
 1.313321 1  264             Rx   d 8 01 26 00 1C 1E 00 00 00
 1.321321 1  251             Rx   d 8 00 00 00 00 00 00 00 00
 1.323380 1  252             Rx   d 8 00 00 00 01 00 00 00 00
 1.325337 1  253             Rx   d 8 00 00 00 00 00 00 00 00
 1.327310 1  254             Rx   d 8 00 00 00 02 00 00 00 00
 1.329368 1  241             Rx   d 8 A6 06 00 00 00 00 00 66
 1.331128 1  221             Rx   d 8 00 00 00 00 00 00 00 00
 1.331372 1  311             Rx   d 8 00 00 47 D6 00 00 4E 6B
 1.341342 1  251             Rx   d 8 00 00 00 00 00 00 00 00
 1.343360 1  252             Rx   d 8 00 00 00 01 00 00 00 00
 1.345353 1  253             Rx   d 8 00 00 00 00 00 00 00 00
 1.347311 1  254             Rx   d 8 00 00 00 02 00 00 00 00
 1.349362 1  241             Rx   d 8 A6 06 00 00 00 00 00 67
 1.351119 1  221             Rx   d 8 00 00 00 00 00 00 00 00
 1.351337 1  311             Rx   d 8 00 00 47 D6 00 00 4E 6B
 1.361339 1  251             Rx   d 8 00 00 00 00 00 00 00 00
 1.363334 1  252             Rx   d 8 00 00 00 01 00 00 00 00
 1.365334 1  253             Rx   d 8 00 00 00 00 00 00 00 00
 1.367337 1  254             Rx   d 8 00 00 00 02 00 00 00 00
 1.369417 1  241             Rx   d 8 A6 06 00 00 00 00 00 68
 1.371114 1  221             Rx   d 8 00 00 00 00 00 00 00 00
 1.371359 1  311             Rx   d 8 00 00 47 D6 00 00 4E 6B
 1.380337 1  261             Rx   d 8 01 29 00 1C 1E 00 00 00
 1.381340 1  251             Rx   d 8 00 00 00 00 00 00 00 00
 1.383360 1  252             Rx   d 8 00 00 00 01 00 00 00 00
 1.385366 1  253             Rx   d 8 00 00 00 00 00 00 00 00
 1.387362 1  254             Rx   d 8 00 00 00 02 00 00 00 00
 1.389413 1  241             Rx   d 8 A6 06 00 00 00 00 00 69
 1.391112 1  221             Rx   d 8 00 00 00 00 00 00 00 00
 1.391338 1  311             Rx   d 8 00 00 47 D6 00 00 4E 6B
 1.391585 1  262             Rx   d 8 01 27 00 1C 1E 00 00 00
 1.401363 1  251             Rx   d 8 00 00 00 00 00 00 00 00
 1.402362 1  263             Rx   d 8 01 28 00 1C 1E 00 00 00
 1.403386 1  252             Rx   d 8 00 00 00 01 00 00 00 00
 1.405362 1  253             Rx   d 8 00 00 00 00 00 00 00 00
 1.407386 1  254             Rx   d 8 00 00 00 02 00 00 00 00
 1.409412 1  241             Rx   d 8 A6 06 00 00 00 00 00 6A
 1.411126 1  221             Rx   d 8 00 00 00 00 00 00 00 00
 1.411367 1  311             Rx   d 8 00 00 47 D6 00 00 4E 6B
 1.413391 1  264             Rx   d 8 01 26 00 1C 1E 00 00 00
 1.421387 1  251             Rx   d 8 00 00 00 00 00 00 00 00
 1.423387 1  252             Rx   d 8 00 00 00 01 00 00 00 00
 1.425386 1  253             Rx   d 8 00 00 00 00 00 00 00 00
 1.427388 1  254             Rx   d 8 00 00 00 02 00 00 00 00
 1.429437 1  241             Rx   d 8 A6 06 00 00 00 00 00 6B
 1.431113 1  221             Rx   d 8 00 00 00 00 00 00 00 00
 1.431361 1  311             Rx   d 8 00 00 47 D6 00 00 4E 6B
 1.441412 1  251             Rx   d 8 00 00 00 00 00 00 00 00
 1.443412 1  252             Rx   d 8 00 00 00 01 00 00 00 00
 1.445426 1  253             Rx   d 8 00 00 00 00 00 00 00 00
 1.447411 1  254             Rx   d 8 00 00 00 02 00 00 00 00
 1.449487 1  241             Rx   d 8 A6 06 00 00 00 00 00 6C
 1.451113 1  221             Rx   d 8 00 00 00 00 00 00 00 00
 1.451361 1  311             Rx   d 8 00 00 47 D6 00 00 4E 6B
 1.461441 1  251             Rx   d 8 00 00 00 00 00 00 00 00
 1.463437 1  252             Rx   d 8 00 00 00 01 00 00 00 00
 1.465437 1  253             Rx   d 8 00 00 00 00 00 00 00 00
 1.467437 1  254             Rx   d 8 00 00 00 02 00 00 00 00
 1.469488 1  241             Rx   d 8 A6 06 00 00 00 00 00 6D
 1.471115 1  221             Rx   d 8 00 00 00 00 00 00 00 00
 1.471362 1  311             Rx   d 8 00 00 47 D6 00 00 4E 6B
 1.480441 1  261             Rx   d 8 01 29 00 1C 1E 00 00 00
 1.481439 1  251             Rx   d 8 00 00 00 00 00 00 00 00
 1.483439 1  252             Rx   d 8 00 00 00 01 00 00 00 00
 1.485461 1  253             Rx   d 8 00 00 00 00 00 00 00 00
 1.487467 1  254             Rx   d 8 00 00 00 02 00 00 00 00
 1.489488 1  241             Rx   d 8 A6 06 00 00 00 00 00 6E
 1.491114 1  221             Rx   d 8 00 00 00 00 00 00 00 00
 1.491363 1  311             Rx   d 8 00 00 47 D6 00 00 4E 6B
 1.491610 1  262             Rx   d 8 01 27 00 1C 1E 00 00 00
 1.499514 1  211             Rx   d 8 02 03 01 1D 00 04 00 00
 1.501463 1  251             Rx   d 8 00 00 00 00 00 00 00 00
 1.502463 1  263             Rx   d 8 01 28 00 1C 1E 00 00 00
 1.503503 1  252             Rx   d 8 00 00 00 01 00 00 00 00
 1.505488 1  253             Rx   d 8 00 00 00 00 00 00 00 00
 1.507490 1  254             Rx   d 8 00 00 00 02 00 00 00 00
 1.509539 1  241             Rx   d 8 A6 06 00 00 00 00 00 6F
 1.511140 1  221             Rx   d 8 00 00 00 00 00 00 00 00
 1.511364 1  311             Rx   d 8 00 00 47 D6 00 00 4E 6B
 1.513489 1  264             Rx   d 8 01 26 00 1C 1E 00 00 00
 1.521489 1  251             Rx   d 8 00 00 00 00 00 00 00 00
 1.523491 1  252             Rx   d 8 00 00 00 01 00 00 00 00
 1.525569 1  253             Rx   d 8 00 00 00 00 00 00 00 00
 1.527490 1  254             Rx   d 8 00 00 00 02 00 00 00 00
 1.529566 1  241             Rx   d 8 A6 06 00 00 00 00 00 70
 1.531170 1  221             Rx   d 8 00 00 00 00 00 00 00 00
 1.531391 1  311             Rx   d 8 00 00 47 D6 00 00 4E 6B
 1.541546 1  251             Rx   d 8 00 00 00 00 00 00 00 00
 1.543545 1  252             Rx   d 8 00 00 00 01 00 00 00 00
 1.545562 1  253             Rx   d 8 00 00 00 00 00 00 00 00
 1.547545 1  254             Rx   d 8 00 00 00 02 00 00 00 00
 1.549571 1  241             Rx   d 8 A6 06 00 00 00 00 00 71
 1.551174 1  221             Rx   d 8 00 00 00 00 00 00 00 00
 1.551396 1  311             Rx   d 8 00 00 47 D6 00 00 4E 6B
 1.561571 1  251             Rx   d 8 00 00 00 00 00 00 00 00
 1.563576 1  252             Rx   d 8 00 00 00 01 00 00 00 00
 1.565576 1  253             Rx   d 8 00 00 00 00 00 00 00 00
 1.567576 1  254             Rx   d 8 00 00 00 02 00 00 00 00
 1.569626 1  241             Rx   d 8 A6 06 00 00 00 00 00 72
 1.571179 1  221             Rx   d 8 00 00 00 00 00 00 00 00
 1.571400 1  311             Rx   d 8 00 00 47 D6 00 00 4E 6B
 1.580575 1  261             Rx   d 8 01 29 00 1C 1E 00 00 00
 1.581578 1  251             Rx   d 8 00 00 00 00 00 00 00 00
 1.583602 1  252             Rx   d 8 00 00 00 01 00 00 00 00
 1.585602 1  253             Rx   d 8 00 00 00 00 00 00 00 00
 1.587602 1  254             Rx   d 8 00 00 00 02 00 00 00 00
 1.589634 1  241             Rx   d 8 A6 06 00 00 00 00 00 73
 1.591143 1  221             Rx   d 8 00 00 00 00 00 00 00 00
 1.591427 1  311             Rx   d 8 00 00 47 D6 00 00 4E 6B
 1.591649 1  262             Rx   d 8 01 27 00 1C 1E 00 00 00
 1.601605 1  251             Rx   d 8 00 00 00 00 00 00 00 00
 1.602602 1  263             Rx   d 8 01 28 00 1C 1E 00 00 00
 1.603575 1  252             Rx   d 8 00 00 00 01 00 00 00 00
 1.605605 1  253             Rx   d 8 00 00 00 00 00 00 00 00
 1.607603 1  254             Rx   d 8 00 00 00 02 00 00 00 00
 1.609653 1  241             Rx   d 8 A6 06 00 00 00 00 00 74
 1.611190 1  221             Rx   d 8 00 00 00 00 00 00 00 00
 1.611398 1  311             Rx   d 8 00 00 47 D6 00 00 4E 6B
 1.613622 1  264             Rx   d 8 01 26 00 1C 1E 00 00 00
 1.621633 1  251             Rx   d 8 00 00 00 00 00 00 00 00
 1.623633 1  252             Rx   d 8 00 00 00 01 00 00 00 00
 1.625612 1  253             Rx   d 8 00 00 00 00 00 00 00 00
 1.627627 1  254             Rx   d 8 00 00 00 02 00 00 00 00
 1.629671 1  241             Rx   d 8 A6 06 00 00 00 00 00 75
 1.631145 1  221             Rx   d 8 00 00 00 00 00 00 00 00
 1.631423 1  311             Rx   d 8 00 00 47 D6 00 00 4E 6B
 1.641646 1  251             Rx   d 8 00 00 00 00 00 00 00 00
 1.643651 1  252             Rx   d 8 00 00 00 01 00 00 00 00
 1.645652 1  253             Rx   d 8 00 00 00 00 00 00 00 00
 1.647655 1  254             Rx   d 8 00 00 00 02 00 00 00 00
 1.649703 1  241             Rx   d 8 A6 06 00 00 00 00 00 76
 1.651176 1  221             Rx   d 8 00 00 00 00 00 00 00 00
 1.651423 1  311             Rx   d 8 00 00 47 D6 00 00 4E 6B
 1.661647 1  251             Rx   d 8 00 00 00 00 00 00 00 00
 1.663683 1  252             Rx   d 8 00 00 00 01 00 00 00 00
 1.665679 1  253             Rx   d 8 00 00 00 00 00 00 00 00
 1.667690 1  254             Rx   d 8 00 00 00 02 00 00 00 00
 1.669761 1  241             Rx   d 8 A6 06 00 00 00 00 00 77
 1.671180 1  221             Rx   d 8 00 00 00 00 00 00 00 00
 1.671430 1  311             Rx   d 8 00 00 47 D6 00 00 4E 6B
 1.680668 1  261             Rx   d 8 01 29 00 1C 1E 00 00 00
 1.681661 1  251             Rx   d 8 00 00 00 00 00 00 00 00
 1.683702 1  252             Rx   d 8 00 00 00 01 00 00 00 00
 1.685708 1  253             Rx   d 8 00 00 00 00 00 00 00 00
 1.687671 1  254             Rx   d 8 00 00 00 02 00 00 00 00
 1.689718 1  241             Rx   d 8 A6 06 00 00 00 00 00 78
 1.691146 1  221             Rx   d 8 00 00 00 00 00 00 00 00
 1.691432 1  311             Rx   d 8 00 00 47 D6 00 00 4E 6B
 1.691705 1  262             Rx   d 8 01 27 00 1C 1E 00 00 00
 1.699732 1  211             Rx   d 8 02 03 01 1D 00 04 00 00
 1.701708 1  251             Rx   d 8 00 00 00 00 00 00 00 00
 1.702706 1  263             Rx   d 8 01 28 00 1C 1E 00 00 00
 1.703717 1  252             Rx   d 8 00 00 00 01 00 00 00 00
 1.705710 1  253             Rx   d 8 00 00 00 00 00 00 00 00
 1.707736 1  254             Rx   d 8 00 00 00 02 00 00 00 00
 1.709758 1  241             Rx   d 8 A6 06 00 00 00 00 00 79
 1.711179 1  221             Rx   d 8 00 00 00 00 00 00 00 00
 1.711430 1  311             Rx   d 8 00 00 47 D6 00 00 4E 6B
 1.713726 1  264             Rx   d 8 01 27 00 1C 1E 00 00 00
 1.719783 1  231             Rx   d 8 00 02 39 02 5D 00 00 00
 1.721731 1  251             Rx   d 8 00 00 00 00 00 00 00 00
 1.723732 1  252             Rx   d 8 00 00 00 01 00 00 00 00
 1.725729 1  253             Rx   d 8 00 00 00 00 00 00 00 00
 1.727737 1  254             Rx   d 8 00 00 00 02 00 00 00 00
 1.729777 1  241             Rx   d 8 A6 06 00 00 00 00 00 7A
 1.731183 1  221             Rx   d 8 00 00 00 00 00 00 00 00
 1.731440 1  311             Rx   d 8 00 00 47 D6 00 00 4E 6B
 1.741832 1  251             Rx   d 8 00 00 00 00 00 00 00 00
 1.743755 1  252             Rx   d 8 00 00 00 01 00 00 00 00
 1.745749 1  253             Rx   d 8 00 00 00 00 00 00 00 00
 1.747758 1  254             Rx   d 8 00 00 00 02 00 00 00 00
 1.749806 1  241             Rx   d 8 A6 06 00 00 00 00 00 7B
 1.751178 1  221             Rx   d 8 00 00 00 00 00 00 00 00
 1.751396 1  311             Rx   d 8 00 00 47 D6 00 00 4E 6B
 1.761777 1  251             Rx   d 8 00 00 00 00 00 00 00 00
 1.763792 1  252             Rx   d 8 00 00 00 01 00 00 00 00
 1.765782 1  253             Rx   d 8 00 00 00 00 00 00 00 00
 1.767781 1  254             Rx   d 8 00 00 00 02 00 00 00 00
 1.769860 1  241             Rx   d 8 A6 06 00 00 00 00 00 7C
 1.771209 1  221             Rx   d 8 00 00 00 00 00 00 00 00
 1.771434 1  311             Rx   d 8 00 00 47 D6 00 00 4E 6B
 1.780750 1  261             Rx   d 8 01 29 00 1C 1E 00 00 00
 1.781753 1  251             Rx   d 8 00 00 00 00 00 00 00 00
 1.783821 1  252             Rx   d 8 00 00 00 01 00 00 00 00
 1.785806 1  253             Rx   d 8 00 00 00 00 00 00 00 00
 1.787813 1  254             Rx   d 8 00 00 00 02 00 00 00 00
 1.789832 1  241             Rx   d 8 A6 06 00 00 00 00 00 7D
 1.791175 1  221             Rx   d 8 00 00 00 00 00 00 00 00
 1.791432 1  311             Rx   d 8 00 00 47 D6 00 00 4E 6B
 1.791807 1  262             Rx   d 8 01 27 00 1C 1E 00 00 00
 1.801811 1  251             Rx   d 8 00 00 00 00 00 00 00 00
 1.802812 1  263             Rx   d 8 01 28 00 1C 1E 00 00 00
 1.803821 1  252             Rx   d 8 00 00 00 01 00 00 00 00
 1.805798 1  253             Rx   d 8 00 00 00 00 00 00 00 00
 1.807829 1  254             Rx   d 8 00 00 00 02 00 00 00 00
 1.809861 1  241             Rx   d 8 A6 06 00 00 00 00 00 7E
 1.811205 1  221             Rx   d 8 00 00 00 00 00 00 00 00
 1.811430 1  311             Rx   d 8 00 00 47 D6 00 00 4E 6B
 1.813830 1  264             Rx   d 8 01 26 00 1C 1E 00 00 00
 1.821827 1  251             Rx   d 8 00 00 00 00 00 00 00 00
 1.823798 1  252             Rx   d 8 00 00 00 01 00 00 00 00
 1.825824 1  253             Rx   d 8 00 00 00 00 00 00 00 00
 1.827803 1  254             Rx   d 8 00 00 00 02 00 00 00 00
 1.829826 1  241             Rx   d 8 A6 06 00 00 00 00 00 7F
 1.831208 1  221             Rx   d 8 00 00 00 00 00 00 00 00
 1.831423 1  311             Rx   d 8 00 00 47 D6 00 00 4E 6B
 1.841987 1  251             Rx   d 8 00 00 00 00 00 00 00 00
 1.843873 1  252             Rx   d 8 00 00 00 01 00 00 00 00
 1.845852 1  253             Rx   d 8 00 00 00 00 00 00 00 00
 1.847852 1  254             Rx   d 8 00 00 00 02 00 00 00 00
 1.849876 1  241             Rx   d 8 A6 06 00 00 00 00 00 80
 1.851201 1  221             Rx   d 8 00 00 00 00 00 00 00 00
 1.851425 1  311             Rx   d 8 00 00 47 D6 00 00 4E 6B
 1.861886 1  251             Rx   d 8 00 00 00 00 00 00 00 00
 1.863884 1  252             Rx   d 8 00 00 00 01 00 00 00 00
 1.865884 1  253             Rx   d 8 00 00 00 00 00 00 00 00
 1.867888 1  254             Rx   d 8 00 00 00 02 00 00 00 00
 1.869928 1  241             Rx   d 8 A6 06 00 00 00 00 00 81
 1.871219 1  221             Rx   d 8 00 00 00 00 00 00 00 00
 1.871441 1  311             Rx   d 8 00 00 47 D6 00 00 4E 6B
 1.880885 1  261             Rx   d 8 01 29 00 1C 1E 00 00 00
 1.881881 1  251             Rx   d 8 00 00 00 00 00 00 00 00
 1.883908 1  252             Rx   d 8 00 00 00 01 00 00 00 00
 1.885907 1  253             Rx   d 8 00 00 00 00 00 00 00 00
 1.887912 1  254             Rx   d 8 00 00 00 02 00 00 00 00
 1.889959 1  241             Rx   d 8 A6 06 00 00 00 00 00 82
 1.891178 1  221             Rx   d 8 00 00 00 00 00 00 00 00
 1.891435 1  311             Rx   d 8 00 00 47 D6 00 00 4E 6B
 1.891909 1  262             Rx   d 8 01 27 00 1C 1E 00 00 00
 1.899938 1  211             Rx   d 8 02 03 01 1D 00 04 00 00
 1.901918 1  251             Rx   d 8 00 00 00 00 00 00 00 00
 1.902907 1  263             Rx   d 8 01 27 00 1C 1E 00 00 00
 1.903913 1  252             Rx   d 8 00 00 00 01 00 00 00 00
 1.905933 1  253             Rx   d 8 00 00 00 00 00 00 00 00
 1.907932 1  254             Rx   d 8 00 00 00 02 00 00 00 00
 1.909985 1  241             Rx   d 8 A6 06 00 00 00 00 00 83
 1.911206 1  221             Rx   d 8 00 00 00 00 00 00 00 00
 1.911466 1  311             Rx   d 8 00 00 47 D6 00 00 4E 6B
 1.913939 1  264             Rx   d 8 01 26 00 1C 1E 00 00 00
 1.921937 1  251             Rx   d 8 00 00 00 00 00 00 00 00
 1.923938 1  252             Rx   d 8 00 00 00 01 00 00 00 00
 1.925942 1  253             Rx   d 8 00 00 00 00 00 00 00 00
 1.927949 1  254             Rx   d 8 00 00 00 02 00 00 00 00
 1.929988 1  241             Rx   d 8 A6 06 00 00 00 00 00 84
 1.931217 1  221             Rx   d 8 00 00 00 00 00 00 00 00
 1.931467 1  311             Rx   d 8 00 00 47 D6 00 00 4E 6B
 1.941943 1  251             Rx   d 8 00 00 00 00 00 00 00 00
 1.943948 1  252             Rx   d 8 00 00 00 01 00 00 00 00
 1.945959 1  253             Rx   d 8 00 00 00 00 00 00 00 00
 1.947958 1  254             Rx   d 8 00 00 00 02 00 00 00 00
 1.950011 1  241             Rx   d 8 A6 06 00 00 00 00 00 85
 1.951204 1  221             Rx   d 8 00 00 00 00 00 00 00 00
 1.951460 1  311             Rx   d 8 00 00 47 D6 00 00 4E 6B
 1.961986 1  251             Rx   d 8 00 00 00 00 00 00 00 00
 1.963995 1  252             Rx   d 8 00 00 00 01 00 00 00 00
 1.965992 1  253             Rx   d 8 00 00 00 00 00 00 00 00
 1.967955 1  254             Rx   d 8 00 00 00 02 00 00 00 00
 1.970064 1  241             Rx   d 8 A6 06 00 00 00 00 00 86
 1.971213 1  221             Rx   d 8 00 00 00 00 00 00 00 00
 1.971466 1  311             Rx   d 8 00 00 47 D6 00 00 4E 6B
 1.980954 1  261             Rx   d 8 01 29 00 1C 1E 00 00 00
 1.981978 1  251             Rx   d 8 00 00 00 00 00 00 00 00
 1.983979 1  252             Rx   d 8 00 00 00 01 00 00 00 00
 1.986017 1  253             Rx   d 8 00 00 00 00 00 00 00 00
 1.988022 1  254             Rx   d 8 00 00 00 02 00 00 00 00
 1.990029 1  241             Rx   d 8 A6 06 00 00 00 00 00 87
 1.991182 1  221             Rx   d 8 00 00 00 00 00 00 00 00
 1.991427 1  311             Rx   d 8 00 00 47 D6 00 00 4E 6B
 1.992013 1  262             Rx   d 8 01 27 00 1C 1E 00 00 00
 2.002018 1  251             Rx   d 8 00 00 00 00 00 00 00 00
 2.003014 1  263             Rx   d 8 01 28 00 1C 1E 00 00 00
 2.004012 1  252             Rx   d 8 00 00 00 01 00 00 00 00
 2.006019 1  253             Rx   d 8 00 00 00 00 00 00 00 00
 2.008018 1  254             Rx   d 8 00 00 00 02 00 00 00 00
 2.010066 1  241             Rx   d 8 A6 06 00 00 00 00 00 88
 2.011218 1  221             Rx   d 8 00 00 00 00 00 00 00 00
 2.011477 1  311             Rx   d 8 00 00 47 D6 00 00 4E 6B
 2.014039 1  264             Rx   d 8 01 26 00 1C 1E 00 00 00
 2.022044 1  251             Rx   d 8 00 00 00 00 00 00 00 00
 2.024040 1  252             Rx   d 8 00 00 00 01 00 00 00 00
 2.026041 1  253             Rx   d 8 00 00 00 00 00 00 00 00
 2.028039 1  254             Rx   d 8 00 00 00 02 00 00 00 00
 2.030067 1  241             Rx   d 8 A6 06 00 00 00 00 00 89
 2.031217 1  221             Rx   d 8 00 00 00 00 00 00 00 00
 2.031465 1  311             Rx   d 8 00 00 47 D6 00 00 4E 6B
 2.042082 1  251             Rx   d 8 00 00 00 00 00 00 00 00
 2.044063 1  252             Rx   d 8 00 00 00 01 00 00 00 00
 2.046062 1  253             Rx   d 8 00 00 00 00 00 00 00 00
 2.048062 1  254             Rx   d 8 00 00 00 02 00 00 00 00
 2.050112 1  241             Rx   d 8 A6 06 00 00 00 00 00 8A
 2.051237 1  221             Rx   d 8 00 00 00 00 00 00 00 00
 2.051468 1  311             Rx   d 8 00 00 47 D6 00 00 4E 6B
 2.062095 1  251             Rx   d 8 00 00 00 00 00 00 00 00
 2.064094 1  252             Rx   d 8 00 00 00 01 00 00 00 00
 2.066094 1  253             Rx   d 8 00 00 00 00 00 00 00 00
 2.068092 1  254             Rx   d 8 00 00 00 02 00 00 00 00
 2.070167 1  241             Rx   d 8 A6 06 00 00 00 00 00 8B
 2.071242 1  221             Rx   d 8 00 00 00 00 00 00 00 00
 2.071470 1  311             Rx   d 8 00 00 47 D6 00 00 4E 6B
 2.081056 1  261             Rx   d 8 01 29 00 1C 1E 00 00 00
 2.082058 1  251             Rx   d 8 00 00 00 00 00 00 00 00
 2.084055 1  252             Rx   d 8 00 00 00 01 00 00 00 00
 2.086055 1  253             Rx   d 8 00 00 00 00 00 00 00 00
 2.088081 1  254             Rx   d 8 00 00 00 02 00 00 00 00
 2.090107 1  241             Rx   d 8 A6 06 00 00 00 00 00 8C
 2.091208 1  221             Rx   d 8 00 00 00 00 00 00 00 00
 2.091455 1  311             Rx   d 8 00 00 47 D6 00 00 4E 6B
 2.092080 1  262             Rx   d 8 01 27 00 1C 1E 00 00 00
 2.100142 1  211             Rx   d 8 02 03 01 1D 00 04 00 00
 2.102119 1  251             Rx   d 8 00 00 00 00 00 00 00 00
 2.103116 1  263             Rx   d 8 01 27 00 1C 1E 00 00 00
 2.104145 1  252             Rx   d 8 00 00 00 01 00 00 00 00
 2.106116 1  253             Rx   d 8 00 00 00 00 00 00 00 00
 2.108143 1  254             Rx   d 8 00 00 00 02 00 00 00 00
 2.110170 1  241             Rx   d 8 A6 06 00 00 00 00 00 8D
 2.111246 1  221             Rx   d 8 00 00 00 00 00 00 00 00
 2.111473 1  311             Rx   d 8 00 00 47 D6 00 00 4E 6B
 2.114122 1  264             Rx   d 8 01 26 00 1C 1E 00 00 00
 2.122159 1  251             Rx   d 8 00 00 00 00 00 00 00 00
 2.124113 1  252             Rx   d 8 00 00 00 01 00 00 00 00
 2.126144 1  253             Rx   d 8 00 00 00 00 00 00 00 00
 2.128146 1  254             Rx   d 8 00 00 00 02 00 00 00 00
 2.130195 1  241             Rx   d 8 A6 06 00 00 00 00 00 8E
 2.131257 1  221             Rx   d 8 00 00 00 00 00 00 00 00
 2.131470 1  311             Rx   d 8 00 00 47 D6 00 00 4E 6B
 2.142168 1  251             Rx   d 8 00 00 00 00 00 00 00 00
 2.144167 1  252             Rx   d 8 00 00 00 02 00 00 00 00
 2.146165 1  253             Rx   d 8 00 00 00 00 00 00 00 00
 2.148166 1  254             Rx   d 8 00 00 00 02 00 00 00 00
 2.150215 1  241             Rx   d 8 A6 06 00 00 00 00 00 8F
 2.151237 1  221             Rx   d 8 00 00 00 00 00 00 00 00
 2.151472 1  311             Rx   d 8 00 00 47 D6 00 00 4E 6B
 2.162196 1  251             Rx   d 8 00 00 00 00 00 00 00 00
 2.164197 1  252             Rx   d 8 00 00 00 02 00 00 00 00
 2.166192 1  253             Rx   d 8 00 00 00 00 00 00 00 00
 2.168196 1  254             Rx   d 8 00 00 00 02 00 00 00 00
 2.170247 1  241             Rx   d 8 A6 06 00 00 00 00 00 90
 2.171238 1  221             Rx   d 8 00 00 00 00 00 00 00 00
 2.171474 1  311             Rx   d 8 00 00 47 D6 00 00 4E 6B
 2.181162 1  261             Rx   d 8 01 29 00 1C 1E 00 00 00
 2.182194 1  251             Rx   d 8 00 00 00 00 00 00 00 00
 2.184217 1  252             Rx   d 8 00 00 00 01 00 00 00 00
 2.186216 1  253             Rx   d 8 00 00 00 00 00 00 00 00
 2.188216 1  254             Rx   d 8 00 00 00 02 00 00 00 00
 2.190241 1  241             Rx   d 8 A6 06 00 00 00 00 00 91
 2.191227 1  221             Rx   d 8 00 00 00 00 00 00 00 00
 2.191458 1  311             Rx   d 8 00 00 47 D6 00 00 4E 6B
 2.192231 1  262             Rx   d 8 01 27 00 1C 1E 00 00 00
 2.202224 1  251             Rx   d 8 00 00 00 00 00 00 00 00
 2.203223 1  263             Rx   d 8 01 27 00 1C 1E 00 00 00
 2.204224 1  252             Rx   d 8 00 00 00 01 00 00 00 00
 2.206224 1  253             Rx   d 8 00 00 00 00 00 00 00 00
 2.208230 1  254             Rx   d 8 00 00 00 02 00 00 00 00
 2.210322 1  241             Rx   d 8 A6 06 00 00 00 00 00 92
 2.211269 1  221             Rx   d 8 00 00 00 00 00 00 00 00
 2.211495 1  311             Rx   d 8 00 00 47 D6 00 00 4E 6B
 2.214248 1  264             Rx   d 8 01 26 00 1C 1E 00 00 00
 2.220322 1  231             Rx   d 8 00 02 25 02 49 00 00 00
 2.222248 1  251             Rx   d 8 00 00 00 00 00 00 00 00
 2.224248 1  252             Rx   d 8 00 00 00 01 00 00 00 00
 2.226257 1  253             Rx   d 8 00 00 00 00 00 00 00 00
 2.228247 1  254             Rx   d 8 00 00 00 02 00 00 00 00
 2.230247 1  241             Rx   d 8 A6 06 00 00 00 00 00 93
 2.231261 1  221             Rx   d 8 00 00 00 00 00 00 00 00
 2.231508 1  311             Rx   d 8 00 00 47 D6 00 00 4E 6B
 2.242335 1  251             Rx   d 8 00 00 00 00 00 00 00 00
 2.244317 1  252             Rx   d 8 00 00 00 01 00 00 00 00
 2.246320 1  253             Rx   d 8 00 00 00 00 00 00 00 00
 2.248317 1  254             Rx   d 8 00 00 00 02 00 00 00 00
 2.250316 1  241             Rx   d 8 A6 06 00 00 00 00 00 94
 2.251208 1  221             Rx   d 8 00 00 00 00 00 00 00 00
 2.251495 1  311             Rx   d 8 00 00 47 D6 00 00 4E 6B
 2.262326 1  251             Rx   d 8 00 00 00 00 00 00 00 00
 2.264323 1  252             Rx   d 8 00 00 00 01 00 00 00 00
 2.266322 1  253             Rx   d 8 00 00 00 00 00 00 00 00
 2.268323 1  254             Rx   d 8 00 00 00 02 00 00 00 00
 2.270371 1  241             Rx   d 8 A6 06 00 00 00 00 00 95
 2.271247 1  221             Rx   d 8 00 00 00 00 00 00 00 00
 2.271508 1  311             Rx   d 8 00 00 47 D6 00 00 4E 6B
 2.281323 1  261             Rx   d 8 01 29 00 1C 1E 00 00 00
 2.282329 1  251             Rx   d 8 00 00 00 00 00 00 00 00
 2.284324 1  252             Rx   d 8 00 00 00 01 00 00 00 00
 2.286322 1  253             Rx   d 8 00 00 00 00 00 00 00 00
 2.288322 1  254             Rx   d 8 00 00 00 02 00 00 00 00
 2.290348 1  241             Rx   d 8 A6 06 00 00 00 00 00 96
 2.291213 1  221             Rx   d 8 00 00 00 00 00 00 00 00
 2.291462 1  311             Rx   d 8 00 00 47 D6 00 00 4E 6B
 2.292320 1  262             Rx   d 8 01 27 00 1C 1E 00 00 00
 2.300341 1  211             Rx   d 8 02 03 01 1D 00 04 00 00
 2.302313 1  251             Rx   d 8 00 00 00 00 00 00 00 00
 2.303315 1  263             Rx   d 8 01 28 00 1C 1E 00 00 00
 2.304343 1  252             Rx   d 8 00 00 00 01 00 00 00 00
 2.306314 1  253             Rx   d 8 00 00 00 00 00 00 00 00
 2.308339 1  254             Rx   d 8 00 00 00 02 00 00 00 00
 2.310361 1  241             Rx   d 8 A6 06 00 00 00 00 00 97
 2.311264 1  221             Rx   d 8 00 00 00 00 00 00 00 00
 2.311488 1  311             Rx   d 8 00 00 47 D6 00 00 4E 6B
 2.314347 1  264             Rx   d 8 01 26 00 1C 1E 00 00 00
 2.322343 1  251             Rx   d 8 00 00 00 00 00 00 00 00
 2.324338 1  252             Rx   d 8 00 00 00 01 00 00 00 00
 2.326345 1  253             Rx   d 8 00 00 00 00 00 00 00 00
 2.328345 1  254             Rx   d 8 00 00 00 02 00 00 00 00
 2.330363 1  241             Rx   d 8 A6 06 00 00 00 00 00 98
 2.331317 1  221             Rx   d 8 00 00 00 00 00 00 00 00
 2.331490 1  311             Rx   d 8 00 00 47 D6 00 00 4E 6B
 2.342347 1  251             Rx   d 8 00 00 00 00 00 00 00 00
 2.344341 1  252             Rx   d 8 00 00 00 01 00 00 00 00
 2.346367 1  253             Rx   d 8 00 00 00 00 00 00 00 00
 2.348366 1  254             Rx   d 8 00 00 00 02 00 00 00 00
 2.350422 1  241             Rx   d 8 A6 06 00 00 00 00 00 99
 2.351261 1  221             Rx   d 8 00 00 00 00 00 00 00 00
 2.351491 1  311             Rx   d 8 00 00 47 D6 00 00 4E 6B
 2.362369 1  251             Rx   d 8 00 00 00 00 00 00 00 00
 2.364405 1  252             Rx   d 8 00 00 00 01 00 00 00 00
 2.366401 1  253             Rx   d 8 00 00 00 00 00 00 00 00
 2.368402 1  254             Rx   d 8 00 00 00 02 00 00 00 00
 2.370450 1  241             Rx   d 8 A6 06 00 00 00 00 00 9A
 2.371274 1  221             Rx   d 8 00 00 00 00 00 00 00 00
 2.371500 1  311             Rx   d 8 00 00 47 D6 00 00 4E 6B
 2.381403 1  261             Rx   d 8 01 29 00 1C 1E 00 00 00
 2.382395 1  251             Rx   d 8 00 00 00 00 00 00 00 00
 2.384427 1  252             Rx   d 8 00 00 00 01 00 00 00 00
 2.386394 1  253             Rx   d 8 00 00 00 00 00 00 00 00
 2.388425 1  254             Rx   d 8 00 00 00 02 00 00 00 00
 2.390453 1  241             Rx   d 8 A6 06 00 00 00 00 00 9B
 2.391241 1  221             Rx   d 8 00 00 00 00 00 00 00 00
 2.391489 1  311             Rx   d 8 00 00 47 D6 00 00 4E 6B
 2.392423 1  262             Rx   d 8 01 27 00 1C 1E 00 00 00
 2.402429 1  251             Rx   d 8 00 00 00 00 00 00 00 00
 2.403425 1  263             Rx   d 8 01 27 00 1C 1E 00 00 00
 2.404422 1  252             Rx   d 8 00 00 00 01 00 00 00 00
 2.406421 1  253             Rx   d 8 00 00 00 00 00 00 00 00
 2.408446 1  254             Rx   d 8 00 00 00 02 00 00 00 00
 2.410472 1  241             Rx   d 8 A6 06 00 00 00 00 00 9C
 2.411263 1  221             Rx   d 8 00 00 00 00 00 00 00 00
 2.411522 1  311             Rx   d 8 00 00 47 D6 00 00 4E 6B
 2.414447 1  264             Rx   d 8 01 26 00 1C 1E 00 00 00
 2.422446 1  251             Rx   d 8 00 00 00 00 00 00 00 00
 2.424416 1  252             Rx   d 8 00 00 00 01 00 00 00 00
 2.426447 1  253             Rx   d 8 00 00 00 00 00 00 00 00
 2.428447 1  254             Rx   d 8 00 00 00 02 00 00 00 00
 2.430471 1  241             Rx   d 8 A6 06 00 00 00 00 00 9D
 2.431271 1  221             Rx   d 8 00 00 00 00 00 00 00 00
 2.431524 1  311             Rx   d 8 00 00 47 D6 00 00 4E 6B
 2.442500 1  251             Rx   d 8 00 00 00 00 00 00 00 00
 2.444460 1  252             Rx   d 8 00 00 00 01 00 00 00 00
 2.446468 1  253             Rx   d 8 00 00 00 00 00 00 00 00
 2.448468 1  254             Rx   d 8 00 00 00 02 00 00 00 00
 2.450521 1  241             Rx   d 8 A6 06 00 00 00 00 00 9E
 2.451267 1  221             Rx   d 8 00 00 00 00 00 00 00 00
 2.451521 1  311             Rx   d 8 00 00 47 D6 00 00 4E 6B
 2.462498 1  251             Rx   d 8 00 00 00 00 00 00 00 00
 2.464498 1  252             Rx   d 8 00 00 00 01 00 00 00 00
 2.466504 1  253             Rx   d 8 00 00 00 00 00 00 00 00
 2.468507 1  254             Rx   d 8 00 00 00 02 00 00 00 00
 2.470551 1  241             Rx   d 8 A6 06 00 00 00 00 00 9F
 2.471279 1  221             Rx   d 8 00 00 00 00 00 00 00 00
 2.471530 1  311             Rx   d 8 00 00 47 D6 00 00 4E 6B
 2.481494 1  261             Rx   d 8 01 29 00 1C 1E 00 00 00
 2.482497 1  251             Rx   d 8 00 00 00 00 00 00 00 00
 2.484504 1  252             Rx   d 8 00 00 00 01 00 00 00 00
 2.486470 1  253             Rx   d 8 00 00 00 00 00 00 00 00
 2.488534 1  254             Rx   d 8 00 00 00 02 00 00 00 00
 2.490578 1  241             Rx   d 8 A6 06 00 00 00 00 00 A0
 2.491293 1  221             Rx   d 8 00 00 00 00 00 00 00 00
 2.491489 1  311             Rx   d 8 00 00 47 D6 00 00 4E 6B
 2.492532 1  262             Rx   d 8 01 27 00 1C 1E 00 00 00
 2.500551 1  211             Rx   d 8 02 03 01 1D 00 04 00 00
 2.502529 1  251             Rx   d 8 00 00 00 00 00 00 00 00
 2.503535 1  263             Rx   d 8 01 27 00 1C 1E 00 00 00
 2.504528 1  252             Rx   d 8 00 00 00 01 00 00 00 00
 2.506529 1  253             Rx   d 8 00 00 00 00 00 00 00 00
 2.508531 1  254             Rx   d 8 00 00 00 02 00 00 00 00
 2.510578 1  241             Rx   d 8 A6 06 00 00 00 00 00 A1
 2.511244 1  221             Rx   d 8 00 00 00 00 00 00 00 00
 2.511529 1  311             Rx   d 8 00 00 47 D6 00 00 4E 6B
 2.514523 1  264             Rx   d 8 01 26 00 1C 1E 00 00 00
 2.522554 1  251             Rx   d 8 00 00 00 00 00 00 00 00
 2.524518 1  252             Rx   d 8 00 00 00 01 00 00 00 00
 2.526551 1  253             Rx   d 8 00 00 00 00 00 00 00 00
 2.528550 1  254             Rx   d 8 00 00 00 02 00 00 00 00
 2.530600 1  241             Rx   d 8 A6 06 00 00 00 00 00 A2
 2.531327 1  221             Rx   d 8 00 00 00 00 00 00 00 00
 2.531522 1  311             Rx   d 8 00 00 47 D6 00 00 4E 6B
 2.542637 1  251             Rx   d 8 00 00 00 00 00 00 00 00
 2.544547 1  252             Rx   d 8 00 00 00 01 00 00 00 00
 2.546577 1  253             Rx   d 8 00 00 00 00 00 00 00 00
 2.548580 1  254             Rx   d 8 00 00 00 02 00 00 00 00
 2.550630 1  241             Rx   d 8 A6 06 00 00 00 00 00 A3
 2.551337 1  221             Rx   d 8 00 00 00 00 00 00 00 00
 2.551529 1  311             Rx   d 8 00 00 47 D6 00 00 4E 6B
 2.562578 1  251             Rx   d 8 00 00 00 00 00 00 00 00
 2.564583 1  252             Rx   d 8 00 00 00 01 00 00 00 00
 2.566601 1  253             Rx   d 8 00 00 00 00 00 00 00 00
 2.568605 1  254             Rx   d 8 00 00 00 02 00 00 00 00
 2.570626 1  241             Rx   d 8 A6 06 00 00 00 00 00 A4
 2.571338 1  221             Rx   d 8 00 00 00 00 00 00 00 00
 2.571524 1  311             Rx   d 8 00 00 47 D6 00 00 4E 6B
 2.581606 1  261             Rx   d 8 01 29 00 1C 1E 00 00 00
 2.582609 1  251             Rx   d 8 00 00 00 00 00 00 00 00
 2.584631 1  252             Rx   d 8 00 00 00 01 00 00 00 00
 2.586628 1  253             Rx   d 8 00 00 00 00 00 00 00 00
 2.588627 1  254             Rx   d 8 00 00 00 02 00 00 00 00
 2.590676 1  241             Rx   d 8 A6 06 00 00 00 00 00 A5
 2.591295 1  221             Rx   d 8 00 00 00 00 00 00 00 00
 2.591493 1  311             Rx   d 8 00 00 47 D6 00 00 4E 6B
 2.592629 1  262             Rx   d 8 01 27 00 1C 1E 00 00 00
 2.602619 1  251             Rx   d 8 00 00 00 00 00 00 00 00
 2.603630 1  263             Rx   d 8 01 28 00 1C 1E 00 00 00
 2.604627 1  252             Rx   d 8 00 00 00 01 00 00 00 00
 2.606633 1  253             Rx   d 8 00 00 00 00 00 00 00 00
 2.608629 1  254             Rx   d 8 00 00 00 02 00 00 00 00
 2.610677 1  241             Rx   d 8 A6 06 00 00 00 00 00 A6
 2.611295 1  221             Rx   d 8 00 00 00 00 00 00 00 00
 2.611550 1  311             Rx   d 8 00 00 47 D6 00 00 4E 6B
 2.614651 1  264             Rx   d 8 01 26 00 1C 1E 00 00 00
 2.622659 1  251             Rx   d 8 00 00 00 00 00 00 00 00
 2.624621 1  252             Rx   d 8 00 00 00 01 00 00 00 00
 2.626662 1  253             Rx   d 8 00 00 00 00 00 00 00 00
 2.628682 1  254             Rx   d 8 00 00 00 02 00 00 00 00
 2.630706 1  241             Rx   d 8 A6 06 00 00 00 00 00 A7
 2.631345 1  221             Rx   d 8 00 00 00 00 00 00 00 00
 2.631556 1  311             Rx   d 8 00 00 47 D6 00 00 4E 6B
 2.642764 1  251             Rx   d 8 00 00 00 00 00 00 00 00
 2.644694 1  252             Rx   d 8 00 00 00 01 00 00 00 00
 2.646686 1  253             Rx   d 8 00 00 00 00 00 00 00 00
 2.648687 1  254             Rx   d 8 00 00 00 02 00 00 00 00
 2.650735 1  241             Rx   d 8 A6 06 00 00 00 00 00 A8
 2.651340 1  221             Rx   d 8 00 00 00 00 00 00 00 00
 2.651558 1  311             Rx   d 8 00 00 47 D6 00 00 4E 6B
 2.662682 1  251             Rx   d 8 00 00 00 00 00 00 00 00
 2.664723 1  252             Rx   d 8 00 00 00 01 00 00 00 00
 2.666712 1  253             Rx   d 8 00 00 00 00 00 00 00 00
 2.668713 1  254             Rx   d 8 00 00 00 02 00 00 00 00
 2.670759 1  241             Rx   d 8 A6 06 00 00 00 00 00 A9
 2.671299 1  221             Rx   d 8 00 00 00 00 00 00 00 00
 2.671520 1  311             Rx   d 8 00 00 47 D6 00 00 4E 6B
 2.681713 1  261             Rx   d 8 01 29 00 1C 1E 00 00 00
 2.682703 1  251             Rx   d 8 00 00 00 00 00 00 00 00
 2.684728 1  252             Rx   d 8 00 00 00 01 00 00 00 00
 2.686717 1  253             Rx   d 8 00 00 00 00 00 00 00 00
 2.688709 1  254             Rx   d 8 00 00 00 02 00 00 00 00
 2.690762 1  241             Rx   d 8 A6 06 00 00 00 00 00 AA
 2.691298 1  221             Rx   d 8 00 00 00 00 00 00 00 00
 2.691521 1  311             Rx   d 8 00 00 47 D6 00 00 4E 6B
 2.692716 1  262             Rx   d 8 01 27 00 1C 1E 00 00 00
 2.700789 1  211             Rx   d 8 02 03 01 1D 00 04 00 00
 2.702701 1  251             Rx   d 8 00 00 00 00 00 00 00 00
 2.703736 1  263             Rx   d 8 01 28 00 1C 1E 00 00 00
 2.704733 1  252             Rx   d 8 00 00 00 01 00 00 00 00
 2.706722 1  253             Rx   d 8 00 00 00 00 00 00 00 00
 2.708736 1  254             Rx   d 8 00 00 00 02 00 00 00 00
 2.710786 1  241             Rx   d 8 A6 06 00 00 00 00 00 AB
 2.711336 1  221             Rx   d 8 00 00 00 00 00 00 00 00
 2.711552 1  311             Rx   d 8 00 00 47 D6 00 00 4E 6B
 2.714732 1  264             Rx   d 8 01 26 00 1C 1E 00 00 00
 2.720804 1  231             Rx   d 8 00 02 11 02 35 00 00 00
 2.722741 1  251             Rx   d 8 00 00 00 00 00 00 00 00
 2.724725 1  252             Rx   d 8 00 00 00 01 00 00 00 00
 2.726756 1  253             Rx   d 8 00 00 00 00 00 00 00 00
 2.728762 1  254             Rx   d 8 00 00 00 02 00 00 00 00
 2.730784 1  241             Rx   d 8 A6 06 00 00 00 00 00 AC
 2.731339 1  221             Rx   d 8 00 00 00 00 00 00 00 00
 2.731554 1  311             Rx   d 8 00 00 47 D6 00 00 4E 6B
 2.742794 1  251             Rx   d 8 00 00 00 00 00 00 00 00
 2.744800 1  252             Rx   d 8 00 00 00 01 00 00 00 00
 2.746787 1  253             Rx   d 8 00 00 00 00 00 00 00 00
 2.748785 1  254             Rx   d 8 00 00 00 02 00 00 00 00
 2.750815 1  241             Rx   d 8 A6 06 00 00 00 00 00 AD
 2.751350 1  221             Rx   d 8 00 00 00 00 00 00 00 00
 2.751554 1  311             Rx   d 8 00 00 47 D6 00 00 4E 6B
 2.762787 1  251             Rx   d 8 00 00 00 00 00 00 00 00
 2.764786 1  252             Rx   d 8 00 00 00 01 00 00 00 00
 2.766810 1  253             Rx   d 8 00 00 00 00 00 00 00 00
 2.768807 1  254             Rx   d 8 00 00 00 02 00 00 00 00
 2.770887 1  241             Rx   d 8 A6 06 00 00 00 00 00 AE
 2.771341 1  221             Rx   d 8 00 00 00 00 00 00 00 00
 2.771555 1  311             Rx   d 8 00 00 47 D6 00 00 4E 6B
 2.781781 1  261             Rx   d 8 01 29 00 1C 1E 00 00 00
 2.782809 1  251             Rx   d 8 00 00 00 00 00 00 00 00
 2.784806 1  252             Rx   d 8 00 00 00 01 00 00 00 00
 2.786811 1  253             Rx   d 8 00 00 00 00 00 00 00 00
 2.788835 1  254             Rx   d 8 00 00 00 02 00 00 00 00
 2.790805 1  241             Rx   d 8 A6 06 00 00 00 00 00 AF
 2.791337 1  221             Rx   d 8 00 00 00 00 00 00 00 00
 2.791525 1  311             Rx   d 8 00 00 47 D6 00 00 4E 6B
 2.792814 1  262             Rx   d 8 01 27 00 1C 1E 00 00 00
 2.802837 1  251             Rx   d 8 00 00 00 00 00 00 00 00
 2.803863 1  263             Rx   d 8 01 28 00 1C 1E 00 00 00
 2.804848 1  252             Rx   d 8 00 00 00 01 00 00 00 00
 2.806806 1  253             Rx   d 8 00 00 00 00 00 00 00 00
 2.808831 1  254             Rx   d 8 00 00 00 02 00 00 00 00
 2.810879 1  241             Rx   d 8 A6 06 00 00 00 00 00 B0
 2.811334 1  221             Rx   d 8 00 00 00 00 00 00 00 00
 2.811551 1  311             Rx   d 8 00 00 47 D6 00 00 4E 6B
 2.814821 1  264             Rx   d 8 01 27 00 1C 1E 00 00 00
 2.822864 1  251             Rx   d 8 00 00 00 00 00 00 00 00
 2.824828 1  252             Rx   d 8 00 00 00 01 00 00 00 00
 2.826862 1  253             Rx   d 8 00 00 00 00 00 00 00 00
 2.828861 1  254             Rx   d 8 00 00 00 02 00 00 00 00
 2.830899 1  241             Rx   d 8 A6 06 00 00 00 00 00 B1
 2.831341 1  221             Rx   d 8 00 00 00 00 00 00 00 00
 2.831570 1  311             Rx   d 8 00 00 47 D6 00 00 4E 6B
 2.842894 1  251             Rx   d 8 00 00 00 00 00 00 00 00
 2.844882 1  252             Rx   d 8 00 00 00 01 00 00 00 00
 2.846879 1  253             Rx   d 8 00 00 00 00 00 00 00 00
 2.848879 1  254             Rx   d 8 00 00 00 02 00 00 00 00
 2.850907 1  241             Rx   d 8 A6 06 00 00 00 00 00 B2
 2.851335 1  221             Rx   d 8 00 00 00 00 00 00 00 00
 2.851557 1  311             Rx   d 8 00 00 47 D6 00 00 4E 6B
 2.862888 1  251             Rx   d 8 00 00 00 00 00 00 00 00
 2.864914 1  252             Rx   d 8 00 00 00 01 00 00 00 00
 2.866917 1  253             Rx   d 8 00 00 00 00 00 00 00 00
 2.868916 1  254             Rx   d 8 00 00 00 02 00 00 00 00
 2.870965 1  241             Rx   d 8 A6 06 00 00 00 00 00 B3
 2.871304 1  221             Rx   d 8 00 00 00 00 00 00 00 00
 2.871562 1  311             Rx   d 8 00 00 47 D6 00 00 4E 6B
 2.881881 1  261             Rx   d 8 01 29 00 1C 1E 00 00 00
 2.882881 1  251             Rx   d 8 00 00 00 00 00 00 00 00
 2.884922 1  252             Rx   d 8 00 00 00 01 00 00 00 00
 2.886938 1  253             Rx   d 8 00 00 00 00 00 00 00 00
 2.888938 1  254             Rx   d 8 00 00 00 02 00 00 00 00
 2.890929 1  241             Rx   d 8 A6 06 00 00 00 00 00 B4
 2.891303 1  221             Rx   d 8 00 00 00 00 00 00 00 00
 2.891528 1  311             Rx   d 8 00 00 47 D6 00 00 4E 6B
 2.892879 1  262             Rx   d 8 01 27 00 1C 1E 00 00 00
 2.901021 1  211             Rx   d 8 02 03 01 1D 00 04 00 00
 2.902905 1  251             Rx   d 8 00 00 00 00 00 00 00 00
 2.903906 1  263             Rx   d 8 01 28 00 1C 1E 00 00 00
 2.904906 1  252             Rx   d 8 00 00 00 01 00 00 00 00
 2.906903 1  253             Rx   d 8 00 00 00 00 00 00 00 00
 2.908907 1  254             Rx   d 8 00 00 00 02 00 00 00 00
 2.910956 1  241             Rx   d 8 A6 06 00 00 00 00 00 B5
 2.911304 1  221             Rx   d 8 00 00 00 00 00 00 00 00
 2.911553 1  311             Rx   d 8 00 00 47 D6 00 00 4E 6B
 2.914906 1  264             Rx   d 8 01 27 00 1C 1E 00 00 00
 2.922962 1  251             Rx   d 8 00 00 00 00 00 00 00 00
 2.924934 1  252             Rx   d 8 00 00 00 01 00 00 00 00
 2.926967 1  253             Rx   d 8 00 00 00 00 00 00 00 00
 2.928969 1  254             Rx   d 8 00 00 00 02 00 00 00 00
 2.930990 1  241             Rx   d 8 A6 06 00 00 00 00 00 B6
 2.931346 1  221             Rx   d 8 00 00 00 00 00 00 00 00
 2.931592 1  311             Rx   d 8 00 00 47 D6 00 00 4E 6B
 2.942938 1  251             Rx   d 8 00 00 00 00 00 00 00 00
 2.944958 1  252             Rx   d 8 00 00 00 01 00 00 00 00
 2.946986 1  253             Rx   d 8 00 00 00 00 00 00 00 00
 2.948983 1  254             Rx   d 8 00 00 00 02 00 00 00 00
 2.951035 1  241             Rx   d 8 A6 06 00 00 00 00 00 B7
 2.951338 1  221             Rx   d 8 00 00 00 00 00 00 00 00
 2.951581 1  311             Rx   d 8 00 00 47 D6 00 00 4E 6B
 2.962991 1  251             Rx   d 8 00 00 00 00 00 00 00 00
 2.965019 1  252             Rx   d 8 00 00 00 01 00 00 00 00
 2.967026 1  253             Rx   d 8 00 00 00 00 00 00 00 00
 2.969018 1  254             Rx   d 8 00 00 00 02 00 00 00 00
 2.971069 1  241             Rx   d 8 A6 06 00 00 00 00 00 B8
 2.971306 1  221             Rx   d 8 00 00 00 00 00 00 00 00
 2.971594 1  311             Rx   d 8 00 00 47 D6 00 00 4E 6B
 2.982010 1  261             Rx   d 8 01 29 00 1C 1E 00 00 00
 2.982985 1  251             Rx   d 8 00 00 00 00 00 00 00 00
 2.985045 1  252             Rx   d 8 00 00 00 01 00 00 00 00
 2.987020 1  253             Rx   d 8 00 00 00 00 00 00 00 00
 2.989018 1  254             Rx   d 8 00 00 00 02 00 00 00 00
 2.991068 1  241             Rx   d 8 A6 06 00 00 00 00 00 B9
 2.991349 1  221             Rx   d 8 00 00 00 00 00 00 00 00
 2.991555 1  311             Rx   d 8 00 00 47 D6 00 00 4E 6B
 2.993014 1  262             Rx   d 8 01 27 00 1C 1E 00 00 00
 3.003043 1  251             Rx   d 8 00 00 00 00 00 00 00 00
 3.004045 1  263             Rx   d 8 01 28 00 1C 1E 00 00 00
 3.005044 1  252             Rx   d 8 00 00 00 01 00 00 00 00
 3.007038 1  253             Rx   d 8 00 00 00 00 00 00 00 00
 3.009041 1  254             Rx   d 8 00 00 00 02 00 00 00 00
 3.011091 1  241             Rx   d 8 A6 06 00 00 00 00 00 BA
 3.011351 1  221             Rx   d 8 00 00 00 00 00 00 00 00
 3.011623 1  311             Rx   d 8 00 00 47 D6 00 00 4E 6B
 3.015047 1  264             Rx   d 8 01 26 00 1C 1E 00 00 00
 3.023064 1  251             Rx   d 8 00 00 00 00 00 00 00 00
 3.025037 1  252             Rx   d 8 00 00 00 01 00 00 00 00
 3.027071 1  253             Rx   d 8 00 00 00 00 00 00 00 00
 3.029071 1  254             Rx   d 8 00 00 00 02 00 00 00 00
 3.031063 1  241             Rx   d 8 A6 06 00 00 00 00 00 BB
 3.031348 1  221             Rx   d 8 00 00 00 00 00 00 00 00
 3.031597 1  311             Rx   d 8 00 00 47 D6 00 00 4E 6B
 3.043080 1  251             Rx   d 8 00 00 00 00 00 00 00 00
 3.045095 1  252             Rx   d 8 00 00 00 01 00 00 00 00
 3.047096 1  253             Rx   d 8 00 00 00 00 00 00 00 00
 3.049097 1  254             Rx   d 8 00 00 00 02 00 00 00 00
 3.051147 1  241             Rx   d 8 A6 06 00 00 00 00 00 BC
 3.051395 1  221             Rx   d 8 00 00 00 00 00 00 00 00
 3.051618 1  311             Rx   d 8 00 00 47 D6 00 00 4E 6B
 3.063120 1  251             Rx   d 8 00 00 00 00 00 00 00 00
 3.065090 1  252             Rx   d 8 00 00 00 01 00 00 00 00
 3.067116 1  253             Rx   d 8 00 00 00 00 00 00 00 00
 3.069123 1  254             Rx   d 8 00 00 00 02 00 00 00 00
 3.071146 1  241             Rx   d 8 A6 06 00 00 00 00 00 BD
 3.071395 1  221             Rx   d 8 00 00 00 00 00 00 00 00
 3.071615 1  311             Rx   d 8 00 00 47 D6 00 00 4E 6B
 3.082089 1  261             Rx   d 8 01 29 00 1C 1E 00 00 00
 3.083087 1  251             Rx   d 8 00 00 00 00 00 00 00 00
 3.085133 1  252             Rx   d 8 00 00 00 01 00 00 00 00
 3.087147 1  253             Rx   d 8 00 00 00 00 00 00 00 00
 3.089111 1  254             Rx   d 8 00 00 00 02 00 00 00 00
 3.091166 1  241             Rx   d 8 A6 06 00 00 00 00 00 BE
 3.091419 1  221             Rx   d 8 00 00 00 00 00 00 00 00
 3.091634 1  311             Rx   d 8 00 00 47 D6 00 00 4E 6B
 3.093110 1  262             Rx   d 8 01 27 00 1C 1E 00 00 00
 3.101166 1  211             Rx   d 8 02 03 01 1D 00 04 00 00
 3.103146 1  251             Rx   d 8 00 00 00 00 00 00 00 00
 3.104112 1  263             Rx   d 8 01 28 00 1C 1E 00 00 00
 3.105147 1  252             Rx   d 8 00 00 00 01 00 00 00 00
 3.107138 1  253             Rx   d 8 00 00 00 00 00 00 00 00
 3.109113 1  254             Rx   d 8 00 00 00 02 00 00 00 00
 3.111196 1  241             Rx   d 8 A6 06 00 00 00 00 00 BF
 3.111413 1  221             Rx   d 8 00 00 00 00 00 00 00 00
 3.111688 1  311             Rx   d 8 00 00 47 D6 00 00 4E 6B
 3.115137 1  264             Rx   d 8 01 26 00 1C 1E 00 00 00
 3.123168 1  251             Rx   d 8 00 00 00 00 00 00 00 00
 3.125140 1  252             Rx   d 8 00 00 00 01 00 00 00 00
 3.127175 1  253             Rx   d 8 00 00 00 00 00 00 00 00
 3.129174 1  254             Rx   d 8 00 00 00 02 00 00 00 00
 3.131211 1  241             Rx   d 8 A6 06 00 00 00 00 00 C0
 3.131469 1  221             Rx   d 8 00 00 00 00 00 00 00 00
 3.131695 1  311             Rx   d 8 00 00 47 D6 00 00 4E 6B
 3.143196 1  251             Rx   d 8 00 00 00 00 00 00 00 00
 3.145195 1  252             Rx   d 8 00 00 00 01 00 00 00 00
 3.147195 1  253             Rx   d 8 00 00 00 00 00 00 00 00
 3.149195 1  254             Rx   d 8 00 00 00 02 00 00 00 00
 3.151189 1  241             Rx   d 8 A6 06 00 00 00 00 00 C1
 3.151469 1  221             Rx   d 8 00 00 00 00 00 00 00 00
 3.151718 1  311             Rx   d 8 00 00 47 D6 00 00 4E 6B
 3.163207 1  251             Rx   d 8 00 00 00 00 00 00 00 00
 3.165200 1  252             Rx   d 8 00 00 00 01 00 00 00 00
 3.167200 1  253             Rx   d 8 00 00 00 00 00 00 00 00
 3.169228 1  254             Rx   d 8 00 00 00 02 00 00 00 00
 3.171280 1  241             Rx   d 8 A6 06 00 00 00 00 00 C2
 3.171463 1  221             Rx   d 8 00 00 00 00 00 00 00 00
 3.171711 1  311             Rx   d 8 00 00 47 D6 00 00 4E 6B
 3.182191 1  261             Rx   d 8 01 29 00 1C 1E 00 00 00
 3.183191 1  251             Rx   d 8 00 00 00 00 00 00 00 00
 3.185212 1  252             Rx   d 8 00 00 00 01 00 00 00 00
 3.187226 1  253             Rx   d 8 00 00 00 00 00 00 00 00
 3.189252 1  254             Rx   d 8 00 00 00 02 00 00 00 00
 3.191246 1  241             Rx   d 8 A6 06 00 00 00 00 00 C3
 3.191502 1  221             Rx   d 8 00 00 00 00 00 00 00 00
 3.191686 1  311             Rx   d 8 00 00 47 D6 00 00 4E 6B
 3.193245 1  262             Rx   d 8 01 27 00 1C 1E 00 00 00
 3.203253 1  251             Rx   d 8 00 00 00 00 00 00 00 00
 3.204246 1  263             Rx   d 8 01 28 00 1C 1E 00 00 00
 3.205251 1  252             Rx   d 8 00 00 00 01 00 00 00 00
 3.207246 1  253             Rx   d 8 00 00 00 00 00 00 00 00
 3.209250 1  254             Rx   d 8 00 00 00 02 00 00 00 00
 3.211314 1  241             Rx   d 8 A6 06 00 00 00 00 00 C4
 3.211543 1  221             Rx   d 8 00 00 00 00 00 00 00 00
 3.211797 1  311             Rx   d 8 00 00 47 D6 00 00 4E 6B
 3.215251 1  264             Rx   d 8 01 27 00 1C 1E 00 00 00
 3.221253 1  231             Rx   d 8 00 02 03 02 21 00 00 00
 3.223283 1  251             Rx   d 8 00 00 00 00 00 00 00 00
 3.225243 1  252             Rx   d 8 00 00 00 01 00 00 00 00
 3.227242 1  253             Rx   d 8 00 00 00 00 00 00 00 00
 3.229276 1  254             Rx   d 8 00 00 00 02 00 00 00 00
 3.231314 1  241             Rx   d 8 A6 06 00 00 00 00 00 C5
 3.231565 1  221             Rx   d 8 00 00 00 00 00 00 00 00
 3.231760 1  311             Rx   d 8 00 00 47 D6 00 00 4E 6B
 3.243318 1  251             Rx   d 8 00 00 00 00 00 00 00 00
 3.245349 1  252             Rx   d 8 00 00 00 01 00 00 00 00
 3.247360 1  253             Rx   d 8 00 00 00 00 00 00 00 00
 3.249346 1  254             Rx   d 8 00 00 00 02 00 00 00 00
 3.251363 1  221             Rx   d 8 00 00 00 00 00 00 00 00
 3.251621 1  311             Rx   d 8 00 00 47 D6 00 00 4E 6B
 3.251876 1  241             Rx   d 8 A6 06 00 00 00 00 00 C6
 3.263361 1  251             Rx   d 8 00 00 00 00 00 00 00 00
 3.265352 1  252             Rx   d 8 00 00 00 01 00 00 00 00
 3.267356 1  253             Rx   d 8 00 00 00 00 00 00 00 00
 3.269351 1  254             Rx   d 8 00 00 00 02 00 00 00 00
 3.271376 1  221             Rx   d 8 00 00 00 00 00 00 00 00
 3.271626 1  311             Rx   d 8 00 00 47 D6 00 00 4E 6B
 3.271877 1  241             Rx   d 8 A6 06 00 00 00 00 00 C7
 3.282320 1  261             Rx   d 8 01 29 00 1C 1E 00 00 00
 3.283317 1  251             Rx   d 8 00 00 00 00 00 00 00 00
 3.285357 1  252             Rx   d 8 00 00 00 01 00 00 00 00
 3.287465 1  253             Rx   d 8 00 00 00 00 00 00 00 00
 3.289365 1  254             Rx   d 8 00 00 00 02 00 00 00 00
 3.291342 1  221             Rx   d 8 00 00 00 00 00 00 00 00
 3.291629 1  311             Rx   d 8 00 00 47 D6 00 00 4E 6B
 3.291839 1  241             Rx   d 8 A6 06 00 00 00 00 00 C8
 3.293356 1  262             Rx   d 8 01 27 00 1C 1E 00 00 00
 3.301346 1  211             Rx   d 8 02 03 01 1D 00 04 00 00
 3.303350 1  251             Rx   d 8 00 00 00 00 00 00 00 00
 3.304348 1  263             Rx   d 8 01 28 00 1C 1E 00 00 00
 3.305316 1  252             Rx   d 8 00 00 00 01 00 00 00 00
 3.307316 1  253             Rx   d 8 00 00 00 00 00 00 00 00
 3.309317 1  254             Rx   d 8 00 00 00 02 00 00 00 00
 3.311398 1  221             Rx   d 8 00 00 00 00 00 00 00 00
 3.311617 1  311             Rx   d 8 00 00 47 D6 00 00 4E 6B
 3.311869 1  241             Rx   d 8 A6 06 00 00 00 00 00 C9
 3.315315 1  264             Rx   d 8 01 26 00 1C 1E 00 00 00
 3.323343 1  251             Rx   d 8 00 00 00 00 00 00 00 00
 3.325342 1  252             Rx   d 8 00 00 00 01 00 00 00 00
 3.327366 1  253             Rx   d 8 00 00 00 00 00 00 00 00
 3.329374 1  254             Rx   d 8 00 00 00 02 00 00 00 00
 3.331367 1  221             Rx   d 8 00 00 00 00 00 00 00 00
 3.331614 1  311             Rx   d 8 00 00 47 D6 00 00 4E 6B
 3.331862 1  241             Rx   d 8 A6 06 00 00 00 00 00 CA
 3.343426 1  251             Rx   d 8 00 00 00 00 00 00 00 00
 3.345371 1  252             Rx   d 8 00 00 00 01 00 00 00 00
 3.347372 1  253             Rx   d 8 00 00 00 00 00 00 00 00
 3.349394 1  254             Rx   d 8 00 00 00 02 00 00 00 00
 3.351403 1  221             Rx   d 8 00 00 00 00 00 00 00 00
 3.351643 1  311             Rx   d 8 00 00 47 D6 00 00 4E 6B
 3.351866 1  241             Rx   d 8 A6 06 00 00 00 00 00 CB
 3.363404 1  251             Rx   d 8 00 00 00 00 00 00 00 00
 3.365422 1  252             Rx   d 8 00 00 00 01 00 00 00 00
 3.367425 1  253             Rx   d 8 00 00 00 00 00 00 00 00
 3.369428 1  254             Rx   d 8 00 00 00 02 00 00 00 00
 3.371371 1  221             Rx   d 8 00 00 00 00 00 00 00 00
 3.371594 1  311             Rx   d 8 00 00 47 D6 00 00 4E 6B
 3.371873 1  241             Rx   d 8 A6 06 00 00 00 00 00 CC
 3.382396 1  261             Rx   d 8 01 29 00 1C 1E 00 00 00
 3.383395 1  251             Rx   d 8 00 00 00 00 00 00 00 00
 3.385459 1  252             Rx   d 8 00 00 00 01 00 00 00 00
 3.387472 1  253             Rx   d 8 00 00 00 00 00 00 00 00
 3.389425 1  254             Rx   d 8 00 00 00 02 00 00 00 00
 3.391374 1  221             Rx   d 8 00 00 00 00 00 00 00 00
 3.391626 1  311             Rx   d 8 00 00 47 D6 00 00 4E 6B
 3.391843 1  241             Rx   d 8 A6 06 00 00 00 00 00 CD
 3.393426 1  262             Rx   d 8 01 27 00 1C 1E 00 00 00
 3.403455 1  251             Rx   d 8 00 00 00 00 00 00 00 00
 3.404418 1  263             Rx   d 8 01 28 00 1C 1E 00 00 00
 3.405451 1  252             Rx   d 8 00 00 00 01 00 00 00 00
 3.407454 1  253             Rx   d 8 00 00 00 00 00 00 00 00
 3.409449 1  254             Rx   d 8 00 00 00 02 00 00 00 00
 3.411475 1  221             Rx   d 8 00 00 00 00 00 00 00 00
 3.411628 1  311             Rx   d 8 00 00 47 D6 00 00 4E 6B
 3.411842 1  241             Rx   d 8 A6 06 00 00 00 00 00 CE
 3.415477 1  264             Rx   d 8 01 27 00 1C 1E 00 00 00
 3.423475 1  251             Rx   d 8 00 00 00 00 00 00 00 00
 3.425447 1  252             Rx   d 8 00 00 00 01 00 00 00 00
 3.427482 1  253             Rx   d 8 00 00 00 00 00 00 00 00
 3.429482 1  254             Rx   d 8 00 00 00 02 00 00 00 00
 3.431417 1  221             Rx   d 8 00 00 00 00 00 00 00 00
 3.431625 1  311             Rx   d 8 00 00 47 D6 00 00 4E 6B
 3.431842 1  241             Rx   d 8 A6 06 00 00 00 00 00 CF
 3.443449 1  251             Rx   d 8 00 00 00 00 00 00 00 00
 3.445498 1  252             Rx   d 8 00 00 00 01 00 00 00 00
 3.447502 1  253             Rx   d 8 00 00 00 00 00 00 00 00
 3.449497 1  254             Rx   d 8 00 00 00 02 00 00 00 00
 3.451406 1  221             Rx   d 8 00 00 00 00 00 00 00 00
 3.451622 1  311             Rx   d 8 00 00 47 D6 00 00 4E 6B
 3.451895 1  241             Rx   d 8 A6 06 00 00 00 00 00 D0
 3.463498 1  251             Rx   d 8 00 00 00 00 00 00 00 00
 3.465504 1  252             Rx   d 8 00 00 00 01 00 00 00 00
 3.467504 1  253             Rx   d 8 00 00 00 00 00 00 00 00
 3.469525 1  254             Rx   d 8 00 00 00 02 00 00 00 00
 3.471397 1  221             Rx   d 8 00 00 00 00 00 00 00 00
 3.471654 1  311             Rx   d 8 00 00 47 D6 00 00 4E 6B
 3.471906 1  241             Rx   d 8 A6 06 00 00 00 00 00 D1
 3.482529 1  261             Rx   d 8 01 29 00 1C 1E 00 00 00
 3.483498 1  251             Rx   d 8 00 00 00 00 00 00 00 00
 3.485498 1  252             Rx   d 8 00 00 00 01 00 00 00 00
 3.487497 1  253             Rx   d 8 00 00 00 00 00 00 00 00
 3.489497 1  254             Rx   d 8 00 00 00 02 00 00 00 00
 3.491409 1  221             Rx   d 8 00 00 00 00 00 00 00 00
 3.491622 1  311             Rx   d 8 00 00 47 D6 00 00 4E 6B
 3.491854 1  241             Rx   d 8 A6 06 00 00 00 00 00 D2
 3.493530 1  262             Rx   d 8 01 27 00 1C 1E 00 00 00
 3.501580 1  211             Rx   d 8 02 03 01 1D 00 04 00 00
 3.503560 1  251             Rx   d 8 00 00 00 00 00 00 00 00
 3.504556 1  263             Rx   d 8 01 28 00 1C 1E 00 00 00
 3.505559 1  252             Rx   d 8 00 00 00 01 00 00 00 00
 3.507526 1  253             Rx   d 8 00 00 00 00 00 00 00 00
 3.509560 1  254             Rx   d 8 00 00 00 02 00 00 00 00
 3.511379 1  221             Rx   d 8 00 00 00 00 00 00 00 00
 3.511658 1  311             Rx   d 8 00 00 47 D6 00 00 4E 6B
 3.511882 1  241             Rx   d 8 A6 06 00 00 00 00 00 D3
 3.515558 1  264             Rx   d 8 01 26 00 1C 1E 00 00 00
 3.523580 1  251             Rx   d 8 00 00 00 00 00 00 00 00
 3.525548 1  252             Rx   d 8 00 00 00 01 00 00 00 00
 3.527584 1  253             Rx   d 8 00 00 00 00 00 00 00 00
 3.529583 1  254             Rx   d 8 00 00 00 02 00 00 00 00
 3.531377 1  221             Rx   d 8 00 00 00 00 00 00 00 00
 3.531663 1  311             Rx   d 8 00 00 47 D6 00 00 4E 6B
 3.531908 1  241             Rx   d 8 A6 06 00 00 00 00 00 D4
 3.543611 1  251             Rx   d 8 00 00 00 00 00 00 00 00
 3.545603 1  252             Rx   d 8 00 00 00 01 00 00 00 00
 3.547611 1  253             Rx   d 8 00 00 00 00 00 00 00 00
 3.549608 1  254             Rx   d 8 00 00 00 02 00 00 00 00
 3.551425 1  221             Rx   d 8 00 00 00 00 00 00 00 00
 3.551655 1  311             Rx   d 8 00 00 47 D6 00 00 4E 6B
 3.551901 1  241             Rx   d 8 A6 06 00 00 00 00 00 D5
 3.563609 1  251             Rx   d 8 00 00 00 00 00 00 00 00
 3.565635 1  252             Rx   d 8 00 00 00 01 00 00 00 00
 3.567635 1  253             Rx   d 8 00 00 00 00 00 00 00 00
 3.569637 1  254             Rx   d 8 00 00 00 02 00 00 00 00
 3.571440 1  221             Rx   d 8 00 00 00 00 00 00 00 00
 3.571659 1  311             Rx   d 8 00 00 47 D6 00 00 4E 6B
 3.571907 1  241             Rx   d 8 A6 06 00 00 00 00 00 D6
 3.582602 1  261             Rx   d 8 01 29 00 1C 1E 00 00 00
 3.583601 1  251             Rx   d 8 00 00 00 00 00 00 00 00
 3.585633 1  252             Rx   d 8 00 00 00 01 00 00 00 00
 3.587632 1  253             Rx   d 8 00 00 00 00 00 00 00 00
 3.589637 1  254             Rx   d 8 00 00 00 02 00 00 00 00
 3.591489 1  221             Rx   d 8 00 00 00 00 00 00 00 00
 3.591665 1  311             Rx   d 8 00 00 47 D6 00 00 4E 6B
 3.591911 1  241             Rx   d 8 A6 06 00 00 00 00 00 D7
 3.593636 1  262             Rx   d 8 01 27 00 1C 1E 00 00 00
 3.603660 1  251             Rx   d 8 00 00 00 00 00 00 00 00
 3.604656 1  263             Rx   d 8 01 28 00 1C 1E 00 00 00
 3.605658 1  252             Rx   d 8 00 00 00 01 00 00 00 00
 3.607657 1  253             Rx   d 8 00 00 00 00 00 00 00 00
 3.609662 1  254             Rx   d 8 00 00 00 02 00 00 00 00
 3.611432 1  221             Rx   d 8 00 00 00 00 00 00 00 00
 3.611678 1  311             Rx   d 8 00 00 47 D6 00 00 4E 6B
 3.611905 1  241             Rx   d 8 A6 06 00 00 00 00 00 D8
 3.615666 1  264             Rx   d 8 01 26 00 1C 1E 00 00 00
 3.623697 1  251             Rx   d 8 00 00 00 00 00 00 00 00
 3.625651 1  252             Rx   d 8 00 00 00 01 00 00 00 00
 3.627697 1  253             Rx   d 8 00 00 00 00 00 00 00 00
 3.629685 1  254             Rx   d 8 00 00 00 02 00 00 00 00
 3.631435 1  221             Rx   d 8 00 00 00 00 00 00 00 00
 3.631666 1  311             Rx   d 8 00 00 47 D6 00 00 4E 6B
 3.631910 1  241             Rx   d 8 A6 06 00 00 00 00 00 D9
 3.643687 1  251             Rx   d 8 00 00 00 00 00 00 00 00
 3.645713 1  252             Rx   d 8 00 00 00 01 00 00 00 00
 3.647706 1  253             Rx   d 8 00 00 00 00 00 00 00 00
 3.649712 1  254             Rx   d 8 00 00 00 02 00 00 00 00
 3.651402 1  221             Rx   d 8 00 00 00 00 00 00 00 00
 3.651657 1  311             Rx   d 8 00 00 47 D6 00 00 4E 6B
 3.651906 1  241             Rx   d 8 A6 06 00 00 00 00 00 DA
 3.663716 1  251             Rx   d 8 00 00 00 00 00 00 00 00
 3.665738 1  252             Rx   d 8 00 00 00 01 00 00 00 00
 3.667717 1  253             Rx   d 8 00 00 00 00 00 00 00 00
 3.669742 1  254             Rx   d 8 00 00 00 02 00 00 00 00
 3.671443 1  221             Rx   d 8 00 00 00 00 00 00 00 00
 3.671688 1  311             Rx   d 8 00 00 47 D6 00 00 4E 6B
 3.671915 1  241             Rx   d 8 A6 06 00 00 00 00 00 DB
 3.682730 1  261             Rx   d 8 01 29 00 1C 1E 00 00 00
 3.683704 1  251             Rx   d 8 00 00 00 00 00 00 00 00
 3.685737 1  252             Rx   d 8 00 00 00 01 00 00 00 00
 3.687741 1  253             Rx   d 8 00 00 00 00 00 00 00 00
 3.689738 1  254             Rx   d 8 00 00 00 02 00 00 00 00
 3.691476 1  221             Rx   d 8 00 00 00 00 00 00 00 00
 3.691685 1  311             Rx   d 8 00 00 47 D6 00 00 4E 6B
 3.691911 1  241             Rx   d 8 A6 06 00 00 00 00 00 DC
 3.693736 1  262             Rx   d 8 01 27 00 1C 1E 00 00 00
 3.701817 1  211             Rx   d 8 02 03 01 1D 00 04 00 00
 3.703767 1  251             Rx   d 8 00 00 00 00 00 00 00 00
 3.704766 1  263             Rx   d 8 01 28 00 1C 1E 00 00 00
 3.705766 1  252             Rx   d 8 00 00 00 01 00 00 00 00
 3.707767 1  253             Rx   d 8 00 00 00 00 00 00 00 00
 3.709768 1  254             Rx   d 8 00 00 00 02 00 00 00 00
 3.711442 1  221             Rx   d 8 00 00 00 00 00 00 00 00
 3.711687 1  311             Rx   d 8 00 00 47 D6 00 00 4E 6B
 3.711936 1  241             Rx   d 8 A6 06 00 00 00 00 00 DD
 3.715764 1  264             Rx   d 8 01 26 00 1C 1E 00 00 00
 3.721822 1  231             Rx   d 8 00 02 17 02 0D 00 00 00
 3.723765 1  251             Rx   d 8 00 00 00 00 00 00 00 00
 3.725756 1  252             Rx   d 8 00 00 00 01 00 00 00 00
 3.727790 1  253             Rx   d 8 00 00 00 00 00 00 00 00
 3.729790 1  254             Rx   d 8 00 00 00 02 00 00 00 00
 3.731445 1  221             Rx   d 8 00 00 00 00 00 00 00 00
 3.731665 1  311             Rx   d 8 00 00 47 D6 00 00 4E 6B
 3.731917 1  241             Rx   d 8 A6 06 00 00 00 00 00 DE
 3.743790 1  251             Rx   d 8 00 00 00 00 00 00 00 00
 3.745814 1  252             Rx   d 8 00 00 00 01 00 00 00 00
 3.747788 1  253             Rx   d 8 00 00 00 00 00 00 00 00
 3.749810 1  254             Rx   d 8 00 00 00 02 00 00 00 00
 3.751434 1  221             Rx   d 8 00 00 00 00 00 00 00 00
 3.751656 1  311             Rx   d 8 00 00 47 D6 00 00 4E 6B
 3.751929 1  241             Rx   d 8 A6 06 00 00 00 00 00 DF
 3.763820 1  251             Rx   d 8 00 00 00 00 00 00 00 00
 3.765837 1  252             Rx   d 8 00 00 00 01 00 00 00 00
 3.767784 1  253             Rx   d 8 00 00 00 00 00 00 00 00
 3.769813 1  254             Rx   d 8 00 00 00 02 00 00 00 00
 3.771439 1  221             Rx   d 8 00 00 00 00 00 00 00 00
 3.771686 1  311             Rx   d 8 00 00 47 D6 00 00 4E 6B
 3.771935 1  241             Rx   d 8 A6 06 00 00 00 00 00 E0
 3.782845 1  261             Rx   d 8 01 29 00 1C 1E 00 00 00
 3.783837 1  251             Rx   d 8 00 00 00 00 00 00 00 00
 3.785839 1  252             Rx   d 8 00 00 00 01 00 00 00 00
 3.787843 1  253             Rx   d 8 00 00 00 00 00 00 00 00
 3.789845 1  254             Rx   d 8 00 00 00 02 00 00 00 00
 3.791481 1  221             Rx   d 8 00 00 00 00 00 00 00 00
 3.791690 1  311             Rx   d 8 00 00 47 D6 00 00 4E 6B
 3.791941 1  241             Rx   d 8 A6 06 00 00 00 00 00 E1
 3.793846 1  262             Rx   d 8 01 27 00 1C 1E 00 00 00
 3.803853 1  251             Rx   d 8 00 00 00 00 00 00 00 00
 3.804855 1  263             Rx   d 8 01 28 00 1C 1E 00 00 00
 3.805858 1  252             Rx   d 8 00 00 00 01 00 00 00 00
 3.807871 1  253             Rx   d 8 00 00 00 00 00 00 00 00
 3.809865 1  254             Rx   d 8 00 00 00 02 00 00 00 00
 3.811439 1  221             Rx   d 8 00 00 00 00 00 00 00 00
 3.811686 1  311             Rx   d 8 00 00 47 D6 00 00 4E 6B
 3.811937 1  241             Rx   d 8 A6 06 00 00 00 00 00 E2
 3.815862 1  264             Rx   d 8 01 27 00 1C 1E 00 00 00
 3.823891 1  251             Rx   d 8 00 00 00 00 00 00 00 00
 3.825890 1  252             Rx   d 8 00 00 00 01 00 00 00 00
 3.827897 1  253             Rx   d 8 00 00 00 00 00 00 00 00
 3.829889 1  254             Rx   d 8 00 00 00 02 00 00 00 00
 3.831440 1  221             Rx   d 8 00 00 00 00 00 00 00 00
 3.831691 1  311             Rx   d 8 00 00 47 D6 00 00 4E 6B
 3.831936 1  241             Rx   d 8 A6 06 00 00 00 00 00 E3
 3.843914 1  251             Rx   d 8 00 00 00 00 00 00 00 00
 3.845911 1  252             Rx   d 8 00 00 00 01 00 00 00 00
 3.847916 1  253             Rx   d 8 00 00 00 00 00 00 00 00
 3.849917 1  254             Rx   d 8 00 00 00 02 00 00 00 00
 3.851463 1  221             Rx   d 8 00 00 00 00 00 00 00 00
 3.851691 1  311             Rx   d 8 00 00 47 D6 00 00 4E 6B
 3.851937 1  241             Rx   d 8 A6 06 00 00 00 00 00 E4
 3.863920 1  251             Rx   d 8 00 00 00 00 00 00 00 00
 3.865944 1  252             Rx   d 8 00 00 00 01 00 00 00 00
 3.867922 1  253             Rx   d 8 00 00 00 00 00 00 00 00
 3.869943 1  254             Rx   d 8 00 00 00 02 00 00 00 00
 3.871446 1  221             Rx   d 8 00 00 00 00 00 00 00 00
 3.871691 1  311             Rx   d 8 00 00 47 D6 00 00 4E 6B
 3.871993 1  241             Rx   d 8 A6 06 00 00 00 00 00 E5
 3.882948 1  261             Rx   d 8 01 29 00 1C 1E 00 00 00
 3.883939 1  251             Rx   d 8 00 00 00 00 00 00 00 00
 3.885942 1  252             Rx   d 8 00 00 00 01 00 00 00 00
 3.887947 1  253             Rx   d 8 00 00 00 00 00 00 00 00
 3.889945 1  254             Rx   d 8 00 00 00 02 00 00 00 00
 3.891475 1  221             Rx   d 8 00 00 00 00 00 00 00 00
 3.891694 1  311             Rx   d 8 00 00 47 D6 00 00 4E 6B
 3.891993 1  241             Rx   d 8 A6 06 00 00 00 00 00 E6
 3.893942 1  262             Rx   d 8 01 27 00 1C 1E 00 00 00
 3.902021 1  211             Rx   d 8 02 03 01 1D 00 04 00 00
 3.903971 1  251             Rx   d 8 00 00 00 00 00 00 00 00
 3.904966 1  263             Rx   d 8 01 28 00 1C 1E 00 00 00
 3.905967 1  252             Rx   d 8 00 00 00 01 00 00 00 00
 3.907968 1  253             Rx   d 8 00 00 00 00 00 00 00 00
 3.909972 1  254             Rx   d 8 00 00 00 02 00 00 00 00
 3.911437 1  221             Rx   d 8 00 00 00 00 00 00 00 00
 3.911692 1  311             Rx   d 8 00 00 47 D6 00 00 4E 6B
 3.911962 1  241             Rx   d 8 A6 06 00 00 00 00 00 E7
 3.915973 1  264             Rx   d 8 01 27 00 1C 1E 00 00 00
 3.923999 1  251             Rx   d 8 00 00 00 00 00 00 00 00
 3.925994 1  252             Rx   d 8 00 00 00 01 00 00 00 00
 3.927994 1  253             Rx   d 8 00 00 00 00 00 00 00 00
 3.929963 1  254             Rx   d 8 00 00 00 02 00 00 00 00
 3.931470 1  221             Rx   d 8 00 00 00 00 00 00 00 00
 3.931695 1  311             Rx   d 8 00 00 47 D6 00 00 4E 6B
 3.932042 1  241             Rx   d 8 A6 06 00 00 00 00 00 E8
 3.943966 1  251             Rx   d 8 00 00 00 00 00 00 00 00
 3.946018 1  252             Rx   d 8 00 00 00 01 00 00 00 00
 3.947994 1  253             Rx   d 8 00 00 00 00 00 00 00 00
 3.950026 1  254             Rx   d 8 00 00 00 02 00 00 00 00
 3.951466 1  221             Rx   d 8 00 00 00 00 00 00 00 00
 3.951718 1  311             Rx   d 8 00 00 47 D6 00 00 4E 6B
 3.952039 1  241             Rx   d 8 A6 06 00 00 00 00 00 E9
 3.964023 1  251             Rx   d 8 00 00 00 00 00 00 00 00
 3.966052 1  252             Rx   d 8 00 00 00 01 00 00 00 00
 3.968026 1  253             Rx   d 8 00 00 00 00 00 00 00 00
 3.969990 1  254             Rx   d 8 00 00 00 02 00 00 00 00
 3.971472 1  221             Rx   d 8 00 00 00 00 00 00 00 00
 3.971719 1  311             Rx   d 8 00 00 47 D6 00 00 4E 6B
 3.972095 1  241             Rx   d 8 A6 06 00 00 00 00 00 EA
 3.983049 1  261             Rx   d 8 01 29 00 1C 1E 00 00 00
 3.984043 1  251             Rx   d 8 00 00 00 00 00 00 00 00
 3.986013 1  252             Rx   d 8 00 00 00 01 00 00 00 00
 3.988043 1  253             Rx   d 8 00 00 00 00 00 00 00 00
 3.990053 1  254             Rx   d 8 00 00 00 02 00 00 00 00
 3.991488 1  221             Rx   d 8 00 00 00 00 00 00 00 00
 3.991718 1  311             Rx   d 8 00 00 47 D6 00 00 4E 6B
 3.992068 1  241             Rx   d 8 A6 06 00 00 00 00 00 EB
 3.994062 1  262             Rx   d 8 01 27 00 1C 1E 00 00 00
 4.004071 1  251             Rx   d 8 00 00 00 00 00 00 00 00
 4.005075 1  263             Rx   d 8 01 28 00 1C 1E 00 00 00
 4.006076 1  252             Rx   d 8 00 00 00 01 00 00 00 00
 4.008080 1  253             Rx   d 8 00 00 00 00 00 00 00 00
 4.010073 1  254             Rx   d 8 00 00 00 02 00 00 00 00
 4.011473 1  221             Rx   d 8 00 00 00 00 00 00 00 00
 4.011723 1  311             Rx   d 8 00 00 47 D6 00 00 4E 6B
 4.012070 1  241             Rx   d 8 A6 06 00 00 00 00 00 EC
 4.016074 1  264             Rx   d 8 01 27 00 1C 1E 00 00 00
 4.024101 1  251             Rx   d 8 00 00 00 00 00 00 00 00
 4.026096 1  252             Rx   d 8 00 00 00 01 00 00 00 00
 4.028103 1  253             Rx   d 8 00 00 00 00 00 00 00 00
 4.030113 1  254             Rx   d 8 00 00 00 02 00 00 00 00
 4.031477 1  221             Rx   d 8 00 00 00 00 00 00 00 00
 4.031718 1  311             Rx   d 8 00 00 47 D6 00 00 4E 6B
 4.032122 1  241             Rx   d 8 A6 06 00 00 00 00 00 ED
 4.044092 1  251             Rx   d 8 00 00 00 00 00 00 00 00
 4.046068 1  252             Rx   d 8 00 00 00 01 00 00 00 00
 4.048063 1  253             Rx   d 8 00 00 00 00 00 00 00 00
 4.050090 1  254             Rx   d 8 00 00 00 02 00 00 00 00
 4.051438 1  221             Rx   d 8 00 00 00 00 00 00 00 00
